! Touchstone generated by fitter/viewer 
!
! HL_PORTMAP 1.0
! PORT   1  (PIN N1, Net001, S)
! PORT   2  (PIN N2, Net002, S)
! PORT   3  (PIN N3, Net001, S)
! PORT   4  (PIN N4, Net002, S)
! CONNECT 1, 3;
! CONNECT 2, 4;
! END_HL_PORTMAP
!
# HZ S  RI R 5.000000e+01
! 
1.000000000000000e+08 2.234914635748786e-02 8.991101997348609e-04 -0.000000000000000e+00 -0.000000000000000e+00 5.970283307215933e-01 -7.615134651329191e-01 -0.000000000000000e+00 -0.000000000000000e+00
                       -0.000000000000000e+00 -0.000000000000000e+00 2.234914635748786e-02 8.991101997348609e-04 -0.000000000000000e+00 -0.000000000000000e+00 5.970283307215933e-01 -7.615134651329191e-01
                       5.970283307215933e-01 -7.615134651329191e-01 -0.000000000000000e+00 -0.000000000000000e+00 2.234914635748786e-02 8.991101997348609e-04 -0.000000000000000e+00 -0.000000000000000e+00
                       -0.000000000000000e+00 -0.000000000000000e+00 5.970283307215933e-01 -7.615134651329191e-01 -0.000000000000000e+00 -0.000000000000000e+00 2.234914635748786e-02 8.991101997348609e-04
1.099259259259259e+08 2.275611480654760e-02 -5.570696281173130e-04 -0.000000000000000e+00 -0.000000000000000e+00 5.266598408128377e-01 -8.094628601574246e-01 -0.000000000000000e+00 -0.000000000000000e+00
                       -0.000000000000000e+00 -0.000000000000000e+00 2.275611480654760e-02 -5.570696281173130e-04 -0.000000000000000e+00 -0.000000000000000e+00 5.266598408128377e-01 -8.094628601574246e-01
                       5.266598408128377e-01 -8.094628601574246e-01 -0.000000000000000e+00 -0.000000000000000e+00 2.275611480654760e-02 -5.570696281173130e-04 -0.000000000000000e+00 -0.000000000000000e+00
                       -0.000000000000000e+00 -0.000000000000000e+00 5.266598408128377e-01 -8.094628601574246e-01 -0.000000000000000e+00 -0.000000000000000e+00 2.275611480654760e-02 -5.570696281173130e-04
1.198518518518519e+08 2.294052147781644e-02 -2.052130269741014e-03 -0.000000000000000e+00 -0.000000000000000e+00 4.525943361178029e-01 -8.509573142692930e-01 -0.000000000000000e+00 -0.000000000000000e+00
                       -0.000000000000000e+00 -0.000000000000000e+00 2.294052147781644e-02 -2.052130269741014e-03 -0.000000000000000e+00 -0.000000000000000e+00 4.525943361178029e-01 -8.509573142692930e-01
                       4.525943361178029e-01 -8.509573142692930e-01 -0.000000000000000e+00 -0.000000000000000e+00 2.294052147781644e-02 -2.052130269741014e-03 -0.000000000000000e+00 -0.000000000000000e+00
                       -0.000000000000000e+00 -0.000000000000000e+00 4.525943361178029e-01 -8.509573142692930e-01 -0.000000000000000e+00 -0.000000000000000e+00 2.294052147781644e-02 -2.052130269741014e-03
1.297777777777778e+08 2.290173986137289e-02 -3.560014805150325e-03 -0.000000000000000e+00 -0.000000000000000e+00 3.754086904317641e-01 -8.857221164364387e-01 -0.000000000000000e+00 -0.000000000000000e+00
                       -0.000000000000000e+00 -0.000000000000000e+00 2.290173986137289e-02 -3.560014805150325e-03 -0.000000000000000e+00 -0.000000000000000e+00 3.754086904317641e-01 -8.857221164364387e-01
                       3.754086904317641e-01 -8.857221164364387e-01 -0.000000000000000e+00 -0.000000000000000e+00 2.290173986137289e-02 -3.560014805150325e-03 -0.000000000000000e+00 -0.000000000000000e+00
                       -0.000000000000000e+00 -0.000000000000000e+00 3.754086904317641e-01 -8.857221164364387e-01 -0.000000000000000e+00 -0.000000000000000e+00 2.290173986137289e-02 -3.560014805150325e-03
1.397037037037037e+08 2.264089915818523e-02 -5.052327421715503e-03 -0.000000000000000e+00 -0.000000000000000e+00 2.957016921240736e-01 -9.135342858751940e-01 -0.000000000000000e+00 -0.000000000000000e+00
                       -0.000000000000000e+00 -0.000000000000000e+00 2.264089915818523e-02 -5.052327421715503e-03 -0.000000000000000e+00 -0.000000000000000e+00 2.957016921240736e-01 -9.135342858751940e-01
                       2.957016921240736e-01 -9.135342858751940e-01 -0.000000000000000e+00 -0.000000000000000e+00 2.264089915818523e-02 -5.052327421715503e-03 -0.000000000000000e+00 -0.000000000000000e+00
                       -0.000000000000000e+00 -0.000000000000000e+00 2.957016921240736e-01 -9.135342858751940e-01 -0.000000000000000e+00 -0.000000000000000e+00 2.264089915818523e-02 -5.052327421715503e-03
1.496296296296296e+08 2.216240761625898e-02 -6.499305933642672e-03 -0.000000000000000e+00 -0.000000000000000e+00 2.140883132385715e-01 -9.342239236134469e-01 -0.000000000000000e+00 -0.000000000000000e+00
                       -0.000000000000000e+00 -0.000000000000000e+00 2.216240761625898e-02 -6.499305933642672e-03 -0.000000000000000e+00 -0.000000000000000e+00 2.140883132385715e-01 -9.342239236134469e-01
                       2.140883132385715e-01 -9.342239236134469e-01 -0.000000000000000e+00 -0.000000000000000e+00 2.216240761625898e-02 -6.499305933642672e-03 -0.000000000000000e+00 -0.000000000000000e+00
                       -0.000000000000000e+00 -0.000000000000000e+00 2.140883132385715e-01 -9.342239236134469e-01 -0.000000000000000e+00 -0.000000000000000e+00 2.216240761625898e-02 -6.499305933642672e-03
1.595555555555556e+08 2.147471385021904e-02 -7.870907843072639e-03 -0.000000000000000e+00 -0.000000000000000e+00 1.311944990119534e-01 -9.476749907088755e-01 -0.000000000000000e+00 -0.000000000000000e+00
                       -0.000000000000000e+00 -0.000000000000000e+00 2.147471385021904e-02 -7.870907843072639e-03 -0.000000000000000e+00 -0.000000000000000e+00 1.311944990119534e-01 -9.476749907088755e-01
                       1.311944990119534e-01 -9.476749907088755e-01 -0.000000000000000e+00 -0.000000000000000e+00 2.147471385021904e-02 -7.870907843072639e-03 -0.000000000000000e+00 -0.000000000000000e+00
                       -0.000000000000000e+00 -0.000000000000000e+00 1.311944990119534e-01 -9.476749907088755e-01 -0.000000000000000e+00 -0.000000000000000e+00 2.147471385021904e-02 -7.870907843072639e-03
1.694814814814815e+08 2.059057586954371e-02 -9.137839177047835e-03 -0.000000000000000e+00 -0.000000000000000e+00 4.765226546964091e-02 -9.538256935657374e-01 -0.000000000000000e+00 -0.000000000000000e+00
                       -0.000000000000000e+00 -0.000000000000000e+00 2.059057586954371e-02 -9.137839177047835e-03 -0.000000000000000e+00 -0.000000000000000e+00 4.765226546964091e-02 -9.538256935657374e-01
                       4.765226546964091e-02 -9.538256935657374e-01 -0.000000000000000e+00 -0.000000000000000e+00 2.059057586954371e-02 -9.137839177047835e-03 -0.000000000000000e+00 -0.000000000000000e+00
                       -0.000000000000000e+00 -0.000000000000000e+00 4.765226546964091e-02 -9.538256935657374e-01 -0.000000000000000e+00 -0.000000000000000e+00 2.059057586954371e-02 -9.137839177047835e-03
1.794074074074074e+08 1.952701656581890e-02 -1.027247073482426e-02 -0.000000000000000e+00 -0.000000000000000e+00 -3.590502786564894e-02 -9.526685382364791e-01 -0.000000000000000e+00 -0.000000000000000e+00
                       -0.000000000000000e+00 -0.000000000000000e+00 1.952701656581890e-02 -1.027247073482426e-02 -0.000000000000000e+00 -0.000000000000000e+00 -3.590502786564894e-02 -9.526685382364791e-01
                       -3.590502786564894e-02 -9.526685382364791e-01 -0.000000000000000e+00 -0.000000000000000e+00 1.952701656581890e-02 -1.027247073482426e-02 -0.000000000000000e+00 -0.000000000000000e+00
                       -0.000000000000000e+00 -0.000000000000000e+00 -3.590502786564894e-02 -9.526685382364791e-01 -0.000000000000000e+00 -0.000000000000000e+00 1.952701656581890e-02 -1.027247073482426e-02
1.893333333333333e+08 1.830507587780705e-02 -1.124963486773116e-02 -0.000000000000000e+00 -0.000000000000000e+00 -1.188473016253856e-01 -9.442500630238437e-01 -0.000000000000000e+00 -0.000000000000000e+00
                       -0.000000000000000e+00 -0.000000000000000e+00 1.830507587780705e-02 -1.124963486773116e-02 -0.000000000000000e+00 -0.000000000000000e+00 -1.188473016253856e-01 -9.442500630238437e-01
                       -1.188473016253856e-01 -9.442500630238437e-01 -0.000000000000000e+00 -0.000000000000000e+00 1.830507587780705e-02 -1.124963486773116e-02 -0.000000000000000e+00 -0.000000000000000e+00
                       -0.000000000000000e+00 -0.000000000000000e+00 -1.188473016253856e-01 -9.442500630238437e-01 -0.000000000000000e+00 -0.000000000000000e+00 1.830507587780705e-02 -1.124963486773116e-02
1.992592592592593e+08 1.694942378657660e-02 -1.204731156496328e-02 -0.000000000000000e+00 -0.000000000000000e+00 -2.005523051790531e-01 -9.286702392964573e-01 -0.000000000000000e+00 -0.000000000000000e+00
                       -0.000000000000000e+00 -0.000000000000000e+00 1.694942378657660e-02 -1.204731156496328e-02 -0.000000000000000e+00 -0.000000000000000e+00 -2.005523051790531e-01 -9.286702392964573e-01
                       -2.005523051790531e-01 -9.286702392964573e-01 -0.000000000000000e+00 -0.000000000000000e+00 1.694942378657660e-02 -1.204731156496328e-02 -0.000000000000000e+00 -0.000000000000000e+00
                       -0.000000000000000e+00 -0.000000000000000e+00 -2.005523051790531e-01 -9.286702392964573e-01 -0.000000000000000e+00 -0.000000000000000e+00 1.694942378657660e-02 -1.204731156496328e-02
2.091851851851852e+08 1.548787006476837e-02 -1.264721349698898e-02 -0.000000000000000e+00 -0.000000000000000e+00 -2.804100907859869e-01 -9.060815269666723e-01 -0.000000000000000e+00 -0.000000000000000e+00
                       -0.000000000000000e+00 -0.000000000000000e+00 1.548787006476837e-02 -1.264721349698898e-02 -0.000000000000000e+00 -0.000000000000000e+00 -2.804100907859869e-01 -9.060815269666723e-01
                       -2.804100907859869e-01 -9.060815269666723e-01 -0.000000000000000e+00 -0.000000000000000e+00 1.548787006476837e-02 -1.264721349698898e-02 -0.000000000000000e+00 -0.000000000000000e+00
                       -0.000000000000000e+00 -0.000000000000000e+00 -2.804100907859869e-01 -9.060815269666723e-01 -0.000000000000000e+00 -0.000000000000000e+00 1.548787006476837e-02 -1.264721349698898e-02
2.191111111111111e+08 1.395079119985221e-02 -1.303527511135390e-02 -0.000000000000000e+00 -0.000000000000000e+00 -3.578273968753151e-01 -8.766875746346582e-01 -0.000000000000000e+00 -0.000000000000000e+00
                       -0.000000000000000e+00 -0.000000000000000e+00 1.395079119985221e-02 -1.303527511135390e-02 -0.000000000000000e+00 -0.000000000000000e+00 -3.578273968753151e-01 -8.766875746346582e-01
                       -3.578273968753151e-01 -8.766875746346582e-01 -0.000000000000000e+00 -0.000000000000000e+00 1.395079119985221e-02 -1.303527511135390e-02 -0.000000000000000e+00 -0.000000000000000e+00
                       -0.000000000000000e+00 -0.000000000000000e+00 -3.578273968753151e-01 -8.766875746346582e-01 -0.000000000000000e+00 -0.000000000000000e+00 1.395079119985221e-02 -1.303527511135390e-02
2.290370370370370e+08 1.237048781479200e-02 -1.320204546911881e-02 -0.000000000000000e+00 -0.000000000000000e+00 -4.322319143637128e-01 -8.407415604941394e-01 -0.000000000000000e+00 -0.000000000000000e+00
                       -0.000000000000000e+00 -0.000000000000000e+00 1.237048781479200e-02 -1.320204546911881e-02 -0.000000000000000e+00 -0.000000000000000e+00 -4.322319143637128e-01 -8.407415604941394e-01
                       -4.322319143637128e-01 -8.407415604941394e-01 -0.000000000000000e+00 -0.000000000000000e+00 1.237048781479200e-02 -1.320204546911881e-02 -0.000000000000000e+00 -0.000000000000000e+00
                       -0.000000000000000e+00 -0.000000000000000e+00 -4.322319143637128e-01 -8.407415604941394e-01 -0.000000000000000e+00 -0.000000000000000e+00 1.237048781479200e-02 -1.320204546911881e-02
2.389629629629630e+08 1.078048395896491e-02 -1.314298027857525e-02 -0.000000000000000e+00 -0.000000000000000e+00 -5.030764051318767e-01 -7.985441765955759e-01 -0.000000000000000e+00 -0.000000000000000e+00
                       -0.000000000000000e+00 -0.000000000000000e+00 1.078048395896491e-02 -1.314298027857525e-02 -0.000000000000000e+00 -0.000000000000000e+00 -5.030764051318767e-01 -7.985441765955759e-01
                       -5.030764051318767e-01 -7.985441765955759e-01 -0.000000000000000e+00 -0.000000000000000e+00 1.078048395896491e-02 -1.314298027857525e-02 -0.000000000000000e+00 -0.000000000000000e+00
                       -0.000000000000000e+00 -0.000000000000000e+00 -5.030764051318767e-01 -7.985441765955759e-01 -0.000000000000000e+00 -0.000000000000000e+00 1.078048395896491e-02 -1.314298027857525e-02
2.488888888888889e+08 9.214780529893218e-03 -1.285862620973844e-02 -0.000000000000000e+00 -0.000000000000000e+00 -5.698426400643094e-01 -7.504412650717095e-01 -0.000000000000000e+00 -0.000000000000000e+00
                       -0.000000000000000e+00 -0.000000000000000e+00 9.214780529893218e-03 -1.285862620973844e-02 -0.000000000000000e+00 -0.000000000000000e+00 -5.698426400643094e-01 -7.504412650717095e-01
                       -5.698426400643094e-01 -7.504412650717095e-01 -0.000000000000000e+00 -0.000000000000000e+00 9.214780529893218e-03 -1.285862620973844e-02 -0.000000000000000e+00 -0.000000000000000e+00
                       -0.000000000000000e+00 -0.000000000000000e+00 -5.698426400643094e-01 -7.504412650717095e-01 -0.000000000000000e+00 -0.000000000000000e+00 9.214780529893218e-03 -1.285862620973844e-02
2.588148148148148e+08 7.707077261138062e-03 -1.235469007870761e-02 -0.000000000000000e+00 -0.000000000000000e+00 -6.320451242262481e-01 -6.968211201601058e-01 -0.000000000000000e+00 -0.000000000000000e+00
                       -0.000000000000000e+00 -0.000000000000000e+00 7.707077261138062e-03 -1.235469007870761e-02 -0.000000000000000e+00 -0.000000000000000e+00 -6.320451242262481e-01 -6.968211201601058e-01
                       -6.320451242262481e-01 -6.968211201601058e-01 -0.000000000000000e+00 -0.000000000000000e+00 7.707077261138062e-03 -1.235469007870761e-02 -0.000000000000000e+00 -0.000000000000000e+00
                       -0.000000000000000e+00 -0.000000000000000e+00 -6.320451242262481e-01 -6.968211201601058e-01 -0.000000000000000e+00 -0.000000000000000e+00 7.707077261138062e-03 -1.235469007870761e-02
2.687407407407407e+08 6.289980179287946e-03 -1.164198660195134e-02 -0.000000000000000e+00 -0.000000000000000e+00 -6.892345780542988e-01 -6.381114743003297e-01 -0.000000000000000e+00 -0.000000000000000e+00
                       -0.000000000000000e+00 -0.000000000000000e+00 6.289980179287946e-03 -1.164198660195134e-02 -0.000000000000000e+00 -0.000000000000000e+00 -6.892345780542988e-01 -6.381114743003297e-01
                       -6.892345780542988e-01 -6.381114743003297e-01 -0.000000000000000e+00 -0.000000000000000e+00 6.289980179287946e-03 -1.164198660195134e-02 -0.000000000000000e+00 -0.000000000000000e+00
                       -0.000000000000000e+00 -0.000000000000000e+00 -6.892345780542988e-01 -6.381114743003297e-01 -0.000000000000000e+00 -0.000000000000000e+00 6.289980179287946e-03 -1.164198660195134e-02
2.786666666666666e+08 4.994213589622265e-03 -1.073626076373401e-02 -0.000000000000000e+00 -0.000000000000000e+00 -7.410011454199769e-01 -5.747761903391246e-01 -0.000000000000000e+00 -0.000000000000000e+00
                       -0.000000000000000e+00 -0.000000000000000e+00 4.994213589622265e-03 -1.073626076373401e-02 -0.000000000000000e+00 -0.000000000000000e+00 -7.410011454199769e-01 -5.747761903391246e-01
                       -7.410011454199769e-01 -5.747761903391246e-01 -0.000000000000000e+00 -0.000000000000000e+00 4.994213589622265e-03 -1.073626076373401e-02 -0.000000000000000e+00 -0.000000000000000e+00
                       -0.000000000000000e+00 -0.000000000000000e+00 -7.410011454199769e-01 -5.747761903391246e-01 -0.000000000000000e+00 -0.000000000000000e+00 4.994213589622265e-03 -1.073626076373401e-02
2.885925925925926e+08 3.847857155651058e-03 -9.657884037218151e-03 -0.000000000000000e+00 -0.000000000000000e+00 -7.869773018288151e-01 -5.073116850657958e-01 -0.000000000000000e+00 -0.000000000000000e+00
                       -0.000000000000000e+00 -0.000000000000000e+00 3.847857155651058e-03 -9.657884037218151e-03 -0.000000000000000e+00 -0.000000000000000e+00 -7.869773018288151e-01 -5.073116850657958e-01
                       -7.869773018288151e-01 -5.073116850657958e-01 -0.000000000000000e+00 -0.000000000000000e+00 3.847857155651058e-03 -9.657884037218151e-03 -0.000000000000000e+00 -0.000000000000000e+00
                       -0.000000000000000e+00 -0.000000000000000e+00 -7.869773018288151e-01 -5.073116850657958e-01 -0.000000000000000e+00 -0.000000000000000e+00 3.847857155651058e-03 -9.657884037218151e-03
2.985185185185185e+08 2.875629325151396e-03 -8.431427409129194e-03 -0.000000000000000e+00 -0.000000000000000e+00 -8.268404387038776e-01 -4.362431120242102e-01 -0.000000000000000e+00 -0.000000000000000e+00
                       -0.000000000000000e+00 -0.000000000000000e+00 2.875629325151396e-03 -8.431427409129194e-03 -0.000000000000000e+00 -0.000000000000000e+00 -8.268404387038776e-01 -4.362431120242102e-01
                       -8.268404387038776e-01 -4.362431120242102e-01 -0.000000000000000e+00 -0.000000000000000e+00 2.875629325151396e-03 -8.431427409129194e-03 -0.000000000000000e+00 -0.000000000000000e+00
                       -0.000000000000000e+00 -0.000000000000000e+00 -8.268404387038776e-01 -4.362431120242102e-01 -0.000000000000000e+00 -0.000000000000000e+00 2.875629325151396e-03 -8.431427409129194e-03
3.084444444444444e+08 2.098238168180444e-03 -7.085118086191532e-03 -0.000000000000000e+00 -0.000000000000000e+00 -8.603151026027429e-01 -3.621203338788875e-01 -0.000000000000000e+00 -0.000000000000000e+00
                       -0.000000000000000e+00 -0.000000000000000e+00 2.098238168180444e-03 -7.085118086191532e-03 -0.000000000000000e+00 -0.000000000000000e+00 -8.603151026027429e-01 -3.621203338788875e-01
                       -8.603151026027429e-01 -3.621203338788875e-01 -0.000000000000000e+00 -0.000000000000000e+00 2.098238168180444e-03 -7.085118086191532e-03 -0.000000000000000e+00 -0.000000000000000e+00
                       -0.000000000000000e+00 -0.000000000000000e+00 -8.603151026027429e-01 -3.621203338788875e-01 -0.000000000000000e+00 -0.000000000000000e+00 2.098238168180444e-03 -7.085118086191532e-03
3.183703703703704e+08 1.531819644837062e-03 -5.650190664680718e-03 -0.000000000000000e+00 -0.000000000000000e+00 -8.871748712983696e-01 -2.855137165905830e-01 -0.000000000000000e+00 -0.000000000000000e+00
                       -0.000000000000000e+00 -0.000000000000000e+00 1.531819644837062e-03 -5.650190664680718e-03 -0.000000000000000e+00 -0.000000000000000e+00 -8.871748712983696e-01 -2.855137165905830e-01
                       -8.871748712983696e-01 -2.855137165905830e-01 -0.000000000000000e+00 -0.000000000000000e+00 1.531819644837062e-03 -5.650190664680718e-03 -0.000000000000000e+00 -0.000000000000000e+00
                       -0.000000000000000e+00 -0.000000000000000e+00 -8.871748712983696e-01 -2.855137165905830e-01 -0.000000000000000e+00 -0.000000000000000e+00 1.531819644837062e-03 -5.650190664680718e-03
3.282962962962963e+08 1.187481470831586e-03 -4.160147222096091e-03 -0.000000000000000e+00 -0.000000000000000e+00 -9.072438518978352e-01 -2.070097792955619e-01 -0.000000000000000e+00 -0.000000000000000e+00
                       -0.000000000000000e+00 -0.000000000000000e+00 1.187481470831586e-03 -4.160147222096091e-03 -0.000000000000000e+00 -0.000000000000000e+00 -9.072438518978352e-01 -2.070097792955619e-01
                       -9.072438518978352e-01 -2.070097792955619e-01 -0.000000000000000e+00 -0.000000000000000e+00 1.187481470831586e-03 -4.160147222096091e-03 -0.000000000000000e+00 -0.000000000000000e+00
                       -0.000000000000000e+00 -0.000000000000000e+00 -9.072438518978352e-01 -2.070097792955619e-01 -0.000000000000000e+00 -0.000000000000000e+00 1.187481470831586e-03 -4.160147222096091e-03
