! Touchstone generated by fitter/viewer 
!
! HL_PORTMAP 1.0
! PORT   1  (PIN N1, Net001, S)
! PORT   2  (PIN N2, Net002, S)
! PORT   3  (PIN N3, Net001, S)
! PORT   4  (PIN N4, Net002, S)
! CONNECT 1, 3;
! CONNECT 2, 4;
! END_HL_PORTMAP
!
# HZ S  RI R 5.000000e+01
! 
1.000000000000000e+08 2.521316682696939e-02 -1.058935174799612e-02 -0.000000000000000e+00 -0.000000000000000e+00 2.003675610173338e-01 -9.307356137404601e-01 -0.000000000000000e+00 -0.000000000000000e+00
                       -0.000000000000000e+00 -0.000000000000000e+00 2.521316682696939e-02 -1.058935174799612e-02 -0.000000000000000e+00 -0.000000000000000e+00 2.003675610173338e-01 -9.307356137404601e-01
                       2.003675610173338e-01 -9.307356137404601e-01 -0.000000000000000e+00 -0.000000000000000e+00 2.521316682696939e-02 -1.058935174799612e-02 -0.000000000000000e+00 -0.000000000000000e+00
                       -0.000000000000000e+00 -0.000000000000000e+00 2.003675610173338e-01 -9.307356137404601e-01 -0.000000000000000e+00 -0.000000000000000e+00 2.521316682696939e-02 -1.058935174799612e-02
1.099259259259259e+08 2.332142612771138e-02 -1.283266947275046e-02 -0.000000000000000e+00 -0.000000000000000e+00 7.574835617256699e-02 -9.461932204523635e-01 -0.000000000000000e+00 -0.000000000000000e+00
                       -0.000000000000000e+00 -0.000000000000000e+00 2.332142612771138e-02 -1.283266947275046e-02 -0.000000000000000e+00 -0.000000000000000e+00 7.574835617256699e-02 -9.461932204523635e-01
                       7.574835617256699e-02 -9.461932204523635e-01 -0.000000000000000e+00 -0.000000000000000e+00 2.332142612771138e-02 -1.283266947275046e-02 -0.000000000000000e+00 -0.000000000000000e+00
                       -0.000000000000000e+00 -0.000000000000000e+00 7.574835617256699e-02 -9.461932204523635e-01 -0.000000000000000e+00 -0.000000000000000e+00 2.332142612771138e-02 -1.283266947275046e-02
1.198518518518519e+08 2.101115004500265e-02 -1.461799327561296e-02 -0.000000000000000e+00 -0.000000000000000e+00 -4.932793112904144e-02 -9.451772680130425e-01 -0.000000000000000e+00 -0.000000000000000e+00
                       -0.000000000000000e+00 -0.000000000000000e+00 2.101115004500265e-02 -1.461799327561296e-02 -0.000000000000000e+00 -0.000000000000000e+00 -4.932793112904144e-02 -9.451772680130425e-01
                       -4.932793112904144e-02 -9.451772680130425e-01 -0.000000000000000e+00 -0.000000000000000e+00 2.101115004500265e-02 -1.461799327561296e-02 -0.000000000000000e+00 -0.000000000000000e+00
                       -0.000000000000000e+00 -0.000000000000000e+00 -4.932793112904144e-02 -9.451772680130425e-01 -0.000000000000000e+00 -0.000000000000000e+00 2.101115004500265e-02 -1.461799327561296e-02
1.297777777777778e+08 1.839207065926429e-02 -1.587545916851021e-02 -0.000000000000000e+00 -0.000000000000000e+00 -1.727220240262542e-01 -9.278343384530428e-01 -0.000000000000000e+00 -0.000000000000000e+00
                       -0.000000000000000e+00 -0.000000000000000e+00 1.839207065926429e-02 -1.587545916851021e-02 -0.000000000000000e+00 -0.000000000000000e+00 -1.727220240262542e-01 -9.278343384530428e-01
                       -1.727220240262542e-01 -9.278343384530428e-01 -0.000000000000000e+00 -0.000000000000000e+00 1.839207065926429e-02 -1.587545916851021e-02 -0.000000000000000e+00 -0.000000000000000e+00
                       -0.000000000000000e+00 -0.000000000000000e+00 -1.727220240262542e-01 -9.278343384530428e-01 -0.000000000000000e+00 -0.000000000000000e+00 1.839207065926429e-02 -1.587545916851021e-02
1.397037037037037e+08 1.558599209746181e-02 -1.655683101486494e-02 -0.000000000000000e+00 -0.000000000000000e+00 -2.923377166403984e-01 -8.945874664897550e-01 -0.000000000000000e+00 -0.000000000000000e+00
                       -0.000000000000000e+00 -0.000000000000000e+00 1.558599209746181e-02 -1.655683101486494e-02 -0.000000000000000e+00 -0.000000000000000e+00 -2.923377166403984e-01 -8.945874664897550e-01
                       -2.923377166403984e-01 -8.945874664897550e-01 -0.000000000000000e+00 -0.000000000000000e+00 1.558599209746181e-02 -1.655683101486494e-02 -0.000000000000000e+00 -0.000000000000000e+00
                       -0.000000000000000e+00 -0.000000000000000e+00 -2.923377166403984e-01 -8.945874664897550e-01 -0.000000000000000e+00 -0.000000000000000e+00 1.558599209746181e-02 -1.655683101486494e-02
1.496296296296296e+08 1.272274423665476e-02 -1.663967253052832e-02 -0.000000000000000e+00 -0.000000000000000e+00 -4.061585902438586e-01 -8.461264276325654e-01 -0.000000000000000e+00 -0.000000000000000e+00
                       -0.000000000000000e+00 -0.000000000000000e+00 1.272274423665476e-02 -1.663967253052832e-02 -0.000000000000000e+00 -0.000000000000000e+00 -4.061585902438586e-01 -8.461264276325654e-01
                       -4.061585902438586e-01 -8.461264276325654e-01 -0.000000000000000e+00 -0.000000000000000e+00 1.272274423665476e-02 -1.663967253052832e-02 -0.000000000000000e+00 -0.000000000000000e+00
                       -0.000000000000000e+00 -0.000000000000000e+00 -4.061585902438586e-01 -8.461264276325654e-01 -0.000000000000000e+00 -0.000000000000000e+00 1.272274423665476e-02 -1.663967253052832e-02
1.595555555555556e+08 9.934396092157294e-03 -1.612984549085229e-02 -0.000000000000000e+00 -0.000000000000000e+00 -5.122821125045909e-01 -7.833935702889344e-01 -0.000000000000000e+00 -0.000000000000000e+00
                       -0.000000000000000e+00 -0.000000000000000e+00 9.934396092157294e-03 -1.612984549085229e-02 -0.000000000000000e+00 -0.000000000000000e+00 -5.122821125045909e-01 -7.833935702889344e-01
                       -5.122821125045909e-01 -7.833935702889344e-01 -0.000000000000000e+00 -0.000000000000000e+00 9.934396092157294e-03 -1.612984549085229e-02 -0.000000000000000e+00 -0.000000000000000e+00
                       -0.000000000000000e+00 -0.000000000000000e+00 -5.122821125045909e-01 -7.833935702889344e-01 -0.000000000000000e+00 -0.000000000000000e+00 9.934396092157294e-03 -1.612984549085229e-02
1.694814814814815e+08 7.348675200397392e-03 -1.506209280346884e-02 -0.000000000000000e+00 -0.000000000000000e+00 -6.089510582980561e-01 -7.075656654647020e-01 -0.000000000000000e+00 -0.000000000000000e+00
                       -0.000000000000000e+00 -0.000000000000000e+00 7.348675200397392e-03 -1.506209280346884e-02 -0.000000000000000e+00 -0.000000000000000e+00 -6.089510582980561e-01 -7.075656654647020e-01
                       -6.089510582980561e-01 -7.075656654647020e-01 -0.000000000000000e+00 -0.000000000000000e+00 7.348675200397392e-03 -1.506209280346884e-02 -0.000000000000000e+00 -0.000000000000000e+00
                       -0.000000000000000e+00 -0.000000000000000e+00 -6.089510582980561e-01 -7.075656654647020e-01 -0.000000000000000e+00 -0.000000000000000e+00 7.348675200397392e-03 -1.506209280346884e-02
1.794074074074074e+08 5.082310706330806e-03 -1.349873651558177e-02 -0.000000000000000e+00 -0.000000000000000e+00 -6.945820398092339e-01 -6.200321185320872e-01 -0.000000000000000e+00 -0.000000000000000e+00
                       -0.000000000000000e+00 -0.000000000000000e+00 5.082310706330806e-03 -1.349873651558177e-02 -0.000000000000000e+00 -0.000000000000000e+00 -6.945820398092339e-01 -6.200321185320872e-01
                       -6.945820398092339e-01 -6.200321185320872e-01 -0.000000000000000e+00 -0.000000000000000e+00 5.082310706330806e-03 -1.349873651558177e-02 -0.000000000000000e+00 -0.000000000000000e+00
                       -0.000000000000000e+00 -0.000000000000000e+00 -6.945820398092339e-01 -6.200321185320872e-01 -0.000000000000000e+00 -0.000000000000000e+00 5.082310706330806e-03 -1.349873651558177e-02
1.893333333333333e+08 3.234844266168269e-03 -1.152665888672018e-02 -0.000000000000000e+00 -0.000000000000000e+00 -7.677908409114704e-01 -5.223698789388826e-01 -0.000000000000000e+00 -0.000000000000000e+00
                       -0.000000000000000e+00 -0.000000000000000e+00 3.234844266168269e-03 -1.152665888672018e-02 -0.000000000000000e+00 -0.000000000000000e+00 -7.677908409114704e-01 -5.223698789388826e-01
                       -7.677908409114704e-01 -5.223698789388826e-01 -0.000000000000000e+00 -0.000000000000000e+00 3.234844266168269e-03 -1.152665888672018e-02 -0.000000000000000e+00 -0.000000000000000e+00
                       -0.000000000000000e+00 -0.000000000000000e+00 -7.677908409114704e-01 -5.223698789388826e-01 -0.000000000000000e+00 -0.000000000000000e+00 3.234844266168269e-03 -1.152665888672018e-02
1.992592592592593e+08 1.883325892039434e-03 -9.252811432020079e-03 -0.000000000000000e+00 -0.000000000000000e+00 -8.274142140740207e-01 -4.163154296753518e-01 -0.000000000000000e+00 -0.000000000000000e+00
                       -0.000000000000000e+00 -0.000000000000000e+00 1.883325892039434e-03 -9.252811432020079e-03 -0.000000000000000e+00 -0.000000000000000e+00 -8.274142140740207e-01 -4.163154296753518e-01
                       -8.274142140740207e-01 -4.163154296753518e-01 -0.000000000000000e+00 -0.000000000000000e+00 1.883325892039434e-03 -9.252811432020079e-03 -0.000000000000000e+00 -0.000000000000000e+00
                       -0.000000000000000e+00 -0.000000000000000e+00 -8.274142140740207e-01 -4.163154296753518e-01 -0.000000000000000e+00 -0.000000000000000e+00 1.883325892039434e-03 -9.252811432020079e-03
2.091851851851852e+08 1.078214351416307e-03 -6.798547822624232e-03 -0.000000000000000e+00 -0.000000000000000e+00 -8.725278069184165e-01 -3.037343028660762e-01 -0.000000000000000e+00 -0.000000000000000e+00
                       -0.000000000000000e+00 -0.000000000000000e+00 1.078214351416307e-03 -6.798547822624232e-03 -0.000000000000000e+00 -0.000000000000000e+00 -8.725278069184165e-01 -3.037343028660762e-01
                       -8.725278069184165e-01 -3.037343028660762e-01 -0.000000000000000e+00 -0.000000000000000e+00 1.078214351416307e-03 -6.798547822624232e-03 -0.000000000000000e+00 -0.000000000000000e+00
                       -0.000000000000000e+00 -0.000000000000000e+00 -8.725278069184165e-01 -3.037343028660762e-01 -0.000000000000000e+00 -0.000000000000000e+00 1.078214351416307e-03 -6.798547822624232e-03
2.191111111111111e+08 8.407178768704560e-04 -4.293116232385944e-03 -0.000000000000000e+00 -0.000000000000000e+00 -9.024599285885399e-01 -1.865886315353338e-01 -0.000000000000000e+00 -0.000000000000000e+00
                       -0.000000000000000e+00 -0.000000000000000e+00 8.407178768704560e-04 -4.293116232385944e-03 -0.000000000000000e+00 -0.000000000000000e+00 -9.024599285885399e-01 -1.865886315353338e-01
                       -9.024599285885399e-01 -1.865886315353338e-01 -0.000000000000000e+00 -0.000000000000000e+00 8.407178768704560e-04 -4.293116232385944e-03 -0.000000000000000e+00 -0.000000000000000e+00
                       -0.000000000000000e+00 -0.000000000000000e+00 -9.024599285885399e-01 -1.865886315353338e-01 -0.000000000000000e+00 -0.000000000000000e+00 8.407178768704560e-04 -4.293116232385944e-03
2.290370370370370e+08 1.161729688740176e-03 -1.866678258227153e-03 -0.000000000000000e+00 -0.000000000000000e+00 -9.168009330621312e-01 -6.690330004310988e-02 -0.000000000000000e+00 -0.000000000000000e+00
                       -0.000000000000000e+00 -0.000000000000000e+00 1.161729688740176e-03 -1.866678258227153e-03 -0.000000000000000e+00 -0.000000000000000e+00 -9.168009330621312e-01 -6.690330004310988e-02
                       -9.168009330621312e-01 -6.690330004310988e-02 -0.000000000000000e+00 -0.000000000000000e+00 1.161729688740176e-03 -1.866678258227153e-03 -0.000000000000000e+00 -0.000000000000000e+00
                       -0.000000000000000e+00 -0.000000000000000e+00 -9.168009330621312e-01 -6.690330004310988e-02 -0.000000000000000e+00 -0.000000000000000e+00 1.161729688740176e-03 -1.866678258227153e-03
2.389629629629630e+08 2.002428437645309e-03 3.567574114058296e-04 -0.000000000000000e+00 -0.000000000000000e+00 -9.154080787178058e-01 5.326870828625446e-02 -0.000000000000000e+00 -0.000000000000000e+00
                       -0.000000000000000e+00 -0.000000000000000e+00 2.002428437645309e-03 3.567574114058296e-04 -0.000000000000000e+00 -0.000000000000000e+00 -9.154080787178058e-01 5.326870828625446e-02
                       -9.154080787178058e-01 5.326870828625446e-02 -0.000000000000000e+00 -0.000000000000000e+00 2.002428437645309e-03 3.567574114058296e-04 -0.000000000000000e+00 -0.000000000000000e+00
                       -0.000000000000000e+00 -0.000000000000000e+00 -9.154080787178058e-01 5.326870828625446e-02 -0.000000000000000e+00 -0.000000000000000e+00 2.002428437645309e-03 3.567574114058296e-04
2.488888888888889e+08 3.296524992485006e-03 2.266091957915515e-03 -0.000000000000000e+00 -0.000000000000000e+00 -8.984058136057713e-01 1.718811503252714e-01 -0.000000000000000e+00 -0.000000000000000e+00
                       -0.000000000000000e+00 -0.000000000000000e+00 3.296524992485006e-03 2.266091957915515e-03 -0.000000000000000e+00 -0.000000000000000e+00 -8.984058136057713e-01 1.718811503252714e-01
                       -8.984058136057713e-01 1.718811503252714e-01 -0.000000000000000e+00 -0.000000000000000e+00 3.296524992485006e-03 2.266091957915515e-03 -0.000000000000000e+00 -0.000000000000000e+00
                       -0.000000000000000e+00 -0.000000000000000e+00 -8.984058136057713e-01 1.718811503252714e-01 -0.000000000000000e+00 -0.000000000000000e+00 3.296524992485006e-03 2.266091957915515e-03
2.588148148148148e+08 4.954046326879125e-03 3.769201293653965e-03 -0.000000000000000e+00 -0.000000000000000e+00 -8.661815278848467e-01 2.869289342295386e-01 -0.000000000000000e+00 -0.000000000000000e+00
                       -0.000000000000000e+00 -0.000000000000000e+00 4.954046326879125e-03 3.769201293653965e-03 -0.000000000000000e+00 -0.000000000000000e+00 -8.661815278848467e-01 2.869289342295386e-01
                       -8.661815278848467e-01 2.869289342295386e-01 -0.000000000000000e+00 -0.000000000000000e+00 4.954046326879125e-03 3.769201293653965e-03 -0.000000000000000e+00 -0.000000000000000e+00
                       -0.000000000000000e+00 -0.000000000000000e+00 -8.661815278848467e-01 2.869289342295386e-01 -0.000000000000000e+00 -0.000000000000000e+00 4.954046326879125e-03 3.769201293653965e-03
2.687407407407407e+08 6.866459077700449e-03 4.797958551458909e-03 -0.000000000000000e+00 -0.000000000000000e+00 -8.193769037990446e-01 3.964815061144401e-01 -0.000000000000000e+00 -0.000000000000000e+00
                       -0.000000000000000e+00 -0.000000000000000e+00 6.866459077700449e-03 4.797958551458909e-03 -0.000000000000000e+00 -0.000000000000000e+00 -8.193769037990446e-01 3.964815061144401e-01
                       -8.193769037990446e-01 3.964815061144401e-01 -0.000000000000000e+00 -0.000000000000000e+00 6.866459077700449e-03 4.797958551458909e-03 -0.000000000000000e+00 -0.000000000000000e+00
                       -0.000000000000000e+00 -0.000000000000000e+00 -8.193769037990446e-01 3.964815061144401e-01 -0.000000000000000e+00 -0.000000000000000e+00 6.866459077700449e-03 4.797958551458909e-03
2.786666666666666e+08 8.912855197480307e-03 5.311917193678672e-03 -0.000000000000000e+00 -0.000000000000000e+00 -7.588750754489586e-01 4.987146496173027e-01 -0.000000000000000e+00 -0.000000000000000e+00
                       -0.000000000000000e+00 -0.000000000000000e+00 8.912855197480307e-03 5.311917193678672e-03 -0.000000000000000e+00 -0.000000000000000e+00 -7.588750754489586e-01 4.987146496173027e-01
                       -7.588750754489586e-01 4.987146496173027e-01 -0.000000000000000e+00 -0.000000000000000e+00 8.912855197480307e-03 5.311917193678672e-03 -0.000000000000000e+00 -0.000000000000000e+00
                       -0.000000000000000e+00 -0.000000000000000e+00 -7.588750754489586e-01 4.987146496173027e-01 -0.000000000000000e+00 -0.000000000000000e+00 8.912855197480307e-03 5.311917193678672e-03
2.885925925925926e+08 1.096685562668187e-02 5.300430001915477e-03 -0.000000000000000e+00 -0.000000000000000e+00 -6.857838826354983e-01 5.919401813946835e-01 -0.000000000000000e+00 -0.000000000000000e+00
                       -0.000000000000000e+00 -0.000000000000000e+00 1.096685562668187e-02 5.300430001915477e-03 -0.000000000000000e+00 -0.000000000000000e+00 -6.857838826354983e-01 5.919401813946835e-01
                       -6.857838826354983e-01 5.919401813946835e-01 -0.000000000000000e+00 -0.000000000000000e+00 1.096685562668187e-02 5.300430001915477e-03 -0.000000000000000e+00 -0.000000000000000e+00
                       -0.000000000000000e+00 -0.000000000000000e+00 -6.857838826354983e-01 5.919401813946835e-01 -0.000000000000000e+00 -0.000000000000000e+00 1.096685562668187e-02 5.300430001915477e-03
2.985185185185185e+08 1.290384005501499e-02 4.783066891075080e-03 -0.000000000000000e+00 -0.000000000000000e+00 -6.014155635167280e-01 6.746330801291825e-01 -0.000000000000000e+00 -0.000000000000000e+00
                       -0.000000000000000e+00 -0.000000000000000e+00 1.290384005501499e-02 4.783066891075080e-03 -0.000000000000000e+00 -0.000000000000000e+00 -6.014155635167280e-01 6.746330801291825e-01
                       -6.014155635167280e-01 6.746330801291825e-01 -0.000000000000000e+00 -0.000000000000000e+00 1.290384005501499e-02 4.783066891075080e-03 -0.000000000000000e+00 -0.000000000000000e+00
                       -0.000000000000000e+00 -0.000000000000000e+00 -6.014155635167280e-01 6.746330801291825e-01 -0.000000000000000e+00 -0.000000000000000e+00 1.290384005501499e-02 4.783066891075080e-03
3.084444444444444e+08 1.460808543200054e-02 3.808292583293657e-03 -0.000000000000000e+00 -0.000000000000000e+00 -5.072632791448843e-01 7.454556465074739e-01 -0.000000000000000e+00 -0.000000000000000e+00
                       -0.000000000000000e+00 -0.000000000000000e+00 1.460808543200054e-02 3.808292583293657e-03 -0.000000000000000e+00 -0.000000000000000e+00 -5.072632791448843e-01 7.454556465074739e-01
                       -5.072632791448843e-01 7.454556465074739e-01 -0.000000000000000e+00 -0.000000000000000e+00 1.460808543200054e-02 3.808292583293657e-03 -0.000000000000000e+00 -0.000000000000000e+00
                       -0.000000000000000e+00 -0.000000000000000e+00 -5.072632791448843e-01 7.454556465074739e-01 -0.000000000000000e+00 -0.000000000000000e+00 1.460808543200054e-02 3.808292583293657e-03
3.183703703703704e+08 1.597939522959302e-02 2.450467741273160e-03 -0.000000000000000e+00 -0.000000000000000e+00 -4.049748995935474e-01 8.032783537487190e-01 -0.000000000000000e+00 -0.000000000000000e+00
                       -0.000000000000000e+00 -0.000000000000000e+00 1.597939522959302e-02 2.450467741273160e-03 -0.000000000000000e+00 -0.000000000000000e+00 -4.049748995935474e-01 8.032783537487190e-01
                       -4.049748995935474e-01 8.032783537487190e-01 -0.000000000000000e+00 -0.000000000000000e+00 1.597939522959302e-02 2.450467741273160e-03 -0.000000000000000e+00 -0.000000000000000e+00
                       -0.000000000000000e+00 -0.000000000000000e+00 -4.049748995935474e-01 8.032783537487190e-01 -0.000000000000000e+00 -0.000000000000000e+00 1.597939522959302e-02 2.450467741273160e-03
3.282962962962963e+08 1.693882619284293e-02 8.053378163109263e-04 -0.000000000000000e+00 -0.000000000000000e+00 -2.963245076451077e-01 8.471971100456924e-01 -0.000000000000000e+00 -0.000000000000000e+00
                       -0.000000000000000e+00 -0.000000000000000e+00 1.693882619284293e-02 8.053378163109263e-04 -0.000000000000000e+00 -0.000000000000000e+00 -2.963245076451077e-01 8.471971100456924e-01
                       -2.963245076451077e-01 8.471971100456924e-01 -0.000000000000000e+00 -0.000000000000000e+00 1.693882619284293e-02 8.053378163109263e-04 -0.000000000000000e+00 -0.000000000000000e+00
                       -0.000000000000000e+00 -0.000000000000000e+00 -2.963245076451077e-01 8.471971100456924e-01 -0.000000000000000e+00 -0.000000000000000e+00 1.693882619284293e-02 8.053378163109263e-04
