! Touchstone generated by fitter/viewer 
!
! HL_PORTMAP 1.0
! PORT   1  (PIN N1, Net001, S)
! PORT   2  (PIN N2, Net002, S)
! PORT   3  (PIN N3, Net001, S)
! PORT   4  (PIN N4, Net002, S)
! CONNECT 1, 3;
! CONNECT 2, 4;
! END_HL_PORTMAP
!
# HZ S  RI R 5.000000e+01
! 
1.000000000000000e+08 1.118307892011328e-02 5.895434162267605e-03 -0.000000000000000e+00 -0.000000000000000e+00 8.844309313453111e-01 -4.305160486103804e-01 -0.000000000000000e+00 -0.000000000000000e+00
                       -0.000000000000000e+00 -0.000000000000000e+00 1.118307892011328e-02 5.895434162267605e-03 -0.000000000000000e+00 -0.000000000000000e+00 8.844309313453111e-01 -4.305160486103804e-01
                       8.844309313453111e-01 -4.305160486103804e-01 -0.000000000000000e+00 -0.000000000000000e+00 1.118307892011328e-02 5.895434162267605e-03 -0.000000000000000e+00 -0.000000000000000e+00
                       -0.000000000000000e+00 -0.000000000000000e+00 8.844309313453111e-01 -4.305160486103804e-01 -0.000000000000000e+00 -0.000000000000000e+00 1.118307892011328e-02 5.895434162267605e-03
1.099259259259259e+08 1.178590490304143e-02 5.884207093218043e-03 -0.000000000000000e+00 -0.000000000000000e+00 8.637431581203745e-01 -4.685718707346639e-01 -0.000000000000000e+00 -0.000000000000000e+00
                       -0.000000000000000e+00 -0.000000000000000e+00 1.178590490304143e-02 5.884207093218043e-03 -0.000000000000000e+00 -0.000000000000000e+00 8.637431581203745e-01 -4.685718707346639e-01
                       8.637431581203745e-01 -4.685718707346639e-01 -0.000000000000000e+00 -0.000000000000000e+00 1.178590490304143e-02 5.884207093218043e-03 -0.000000000000000e+00 -0.000000000000000e+00
                       -0.000000000000000e+00 -0.000000000000000e+00 8.637431581203745e-01 -4.685718707346639e-01 -0.000000000000000e+00 -0.000000000000000e+00 1.178590490304143e-02 5.884207093218043e-03
1.198518518518519e+08 1.237388272336881e-02 5.836120607682441e-03 -0.000000000000000e+00 -0.000000000000000e+00 8.414670825479166e-01 -5.056177429898318e-01 -0.000000000000000e+00 -0.000000000000000e+00
                       -0.000000000000000e+00 -0.000000000000000e+00 1.237388272336881e-02 5.836120607682441e-03 -0.000000000000000e+00 -0.000000000000000e+00 8.414670825479166e-01 -5.056177429898318e-01
                       8.414670825479166e-01 -5.056177429898318e-01 -0.000000000000000e+00 -0.000000000000000e+00 1.237388272336881e-02 5.836120607682441e-03 -0.000000000000000e+00 -0.000000000000000e+00
                       -0.000000000000000e+00 -0.000000000000000e+00 8.414670825479166e-01 -5.056177429898318e-01 -0.000000000000000e+00 -0.000000000000000e+00 1.237388272336881e-02 5.836120607682441e-03
1.297777777777778e+08 1.294811788455164e-02 5.749868840032250e-03 -0.000000000000000e+00 -0.000000000000000e+00 8.176467200370914e-01 -5.415901398994070e-01 -0.000000000000000e+00 -0.000000000000000e+00
                       -0.000000000000000e+00 -0.000000000000000e+00 1.294811788455164e-02 5.749868840032250e-03 -0.000000000000000e+00 -0.000000000000000e+00 8.176467200370914e-01 -5.415901398994070e-01
                       8.176467200370914e-01 -5.415901398994070e-01 -0.000000000000000e+00 -0.000000000000000e+00 1.294811788455164e-02 5.749868840032250e-03 -0.000000000000000e+00 -0.000000000000000e+00
                       -0.000000000000000e+00 -0.000000000000000e+00 8.176467200370914e-01 -5.415901398994070e-01 -0.000000000000000e+00 -0.000000000000000e+00 1.294811788455164e-02 5.749868840032250e-03
1.397037037037037e+08 1.350819245918766e-02 5.624650777453350e-03 -0.000000000000000e+00 -0.000000000000000e+00 7.923299910356957e-01 -5.764273962989999e-01 -0.000000000000000e+00 -0.000000000000000e+00
                       -0.000000000000000e+00 -0.000000000000000e+00 1.350819245918766e-02 5.624650777453350e-03 -0.000000000000000e+00 -0.000000000000000e+00 7.923299910356957e-01 -5.764273962989999e-01
                       7.923299910356957e-01 -5.764273962989999e-01 -0.000000000000000e+00 -0.000000000000000e+00 1.350819245918766e-02 5.624650777453350e-03 -0.000000000000000e+00 -0.000000000000000e+00
                       -0.000000000000000e+00 -0.000000000000000e+00 7.923299910356957e-01 -5.764273962989999e-01 -0.000000000000000e+00 -0.000000000000000e+00 1.350819245918766e-02 5.624650777453350e-03
1.496296296296296e+08 1.405281283848114e-02 5.460202476082909e-03 -0.000000000000000e+00 -0.000000000000000e+00 7.655680363790777e-01 -6.100699706113921e-01 -0.000000000000000e+00 -0.000000000000000e+00
                       -0.000000000000000e+00 -0.000000000000000e+00 1.405281283848114e-02 5.460202476082909e-03 -0.000000000000000e+00 -0.000000000000000e+00 7.655680363790777e-01 -6.100699706113921e-01
                       7.655680363790777e-01 -6.100699706113921e-01 -0.000000000000000e+00 -0.000000000000000e+00 1.405281283848114e-02 5.460202476082909e-03 -0.000000000000000e+00 -0.000000000000000e+00
                       -0.000000000000000e+00 -0.000000000000000e+00 7.655680363790777e-01 -6.100699706113921e-01 -0.000000000000000e+00 -0.000000000000000e+00 1.405281283848114e-02 5.460202476082909e-03
1.595555555555556e+08 1.458020057218823e-02 5.256729593277932e-03 -0.000000000000000e+00 -0.000000000000000e+00 7.374147740893661e-01 -6.424605683308200e-01 -0.000000000000000e+00 -0.000000000000000e+00
                       -0.000000000000000e+00 -0.000000000000000e+00 1.458020057218823e-02 5.256729593277932e-03 -0.000000000000000e+00 -0.000000000000000e+00 7.374147740893661e-01 -6.424605683308200e-01
                       7.374147740893661e-01 -6.424605683308200e-01 -0.000000000000000e+00 -0.000000000000000e+00 1.458020057218823e-02 5.256729593277932e-03 -0.000000000000000e+00 -0.000000000000000e+00
                       -0.000000000000000e+00 -0.000000000000000e+00 7.374147740893661e-01 -6.424605683308200e-01 -0.000000000000000e+00 -0.000000000000000e+00 1.458020057218823e-02 5.256729593277932e-03
1.694814814814815e+08 1.508831924259901e-02 5.014819861922761e-03 -0.000000000000000e+00 -0.000000000000000e+00 7.079266092332572e-01 -6.735442163889802e-01 -0.000000000000000e+00 -0.000000000000000e+00
                       -0.000000000000000e+00 -0.000000000000000e+00 1.508831924259901e-02 5.014819861922761e-03 -0.000000000000000e+00 -0.000000000000000e+00 7.079266092332572e-01 -6.735442163889802e-01
                       7.079266092332572e-01 -6.735442163889802e-01 -0.000000000000000e+00 -0.000000000000000e+00 1.508831924259901e-02 5.014819861922761e-03 -0.000000000000000e+00 -0.000000000000000e+00
                       -0.000000000000000e+00 -0.000000000000000e+00 7.079266092332572e-01 -6.735442163889802e-01 -0.000000000000000e+00 -0.000000000000000e+00 1.508831924259901e-02 5.014819861922761e-03
1.794074074074074e+08 1.557500208015306e-02 4.735367221963905e-03 -0.000000000000000e+00 -0.000000000000000e+00 6.771622351095787e-01 -7.032683277256396e-01 -0.000000000000000e+00 -0.000000000000000e+00
                       -0.000000000000000e+00 -0.000000000000000e+00 1.557500208015306e-02 4.735367221963905e-03 -0.000000000000000e+00 -0.000000000000000e+00 6.771622351095787e-01 -7.032683277256396e-01
                       6.771622351095787e-01 -7.032683277256396e-01 -0.000000000000000e+00 -0.000000000000000e+00 1.557500208015306e-02 4.735367221963905e-03 -0.000000000000000e+00 -0.000000000000000e+00
                       -0.000000000000000e+00 -0.000000000000000e+00 6.771622351095787e-01 -7.032683277256396e-01 -0.000000000000000e+00 -0.000000000000000e+00 1.557500208015306e-02 4.735367221963905e-03
1.893333333333333e+08 1.603802268095555e-02 4.419516692988957e-03 -0.000000000000000e+00 -0.000000000000000e+00 6.451824852803839e-01 -7.315827704815334e-01 -0.000000000000000e+00 -0.000000000000000e+00
                       -0.000000000000000e+00 -0.000000000000000e+00 1.603802268095555e-02 4.419516692988957e-03 -0.000000000000000e+00 -0.000000000000000e+00 6.451824852803839e-01 -7.315827704815334e-01
                       6.451824852803839e-01 -7.315827704815334e-01 -0.000000000000000e+00 -0.000000000000000e+00 1.603802268095555e-02 4.419516692988957e-03 -0.000000000000000e+00 -0.000000000000000e+00
                       -0.000000000000000e+00 -0.000000000000000e+00 6.451824852803839e-01 -7.315827704815334e-01 -0.000000000000000e+00 -0.000000000000000e+00 1.603802268095555e-02 4.419516692988957e-03
1.992592592592593e+08 1.647513527238798e-02 4.068629219845803e-03 -0.000000000000000e+00 -0.000000000000000e+00 6.120502111297600e-01 -7.584399448064750e-01 -0.000000000000000e+00 -0.000000000000000e+00
                       -0.000000000000000e+00 -0.000000000000000e+00 1.647513527238798e-02 4.068629219845803e-03 -0.000000000000000e+00 -0.000000000000000e+00 6.120502111297600e-01 -7.584399448064750e-01
                       6.120502111297600e-01 -7.584399448064750e-01 -0.000000000000000e+00 -0.000000000000000e+00 1.647513527238798e-02 4.068629219845803e-03 -0.000000000000000e+00 -0.000000000000000e+00
                       -0.000000000000000e+00 -0.000000000000000e+00 6.120502111297600e-01 -7.584399448064750e-01 -0.000000000000000e+00 -0.000000000000000e+00 1.647513527238798e-02 4.068629219845803e-03
2.091851851851852e+08 1.688410028125686e-02 3.684262151766991e-03 -0.000000000000000e+00 -0.000000000000000e+00 5.778301698482844e-01 -7.837948655863397e-01 -0.000000000000000e+00 -0.000000000000000e+00
                       -0.000000000000000e+00 -0.000000000000000e+00 1.688410028125686e-02 3.684262151766991e-03 -0.000000000000000e+00 -0.000000000000000e+00 5.778301698482844e-01 -7.837948655863397e-01
                       5.778301698482844e-01 -7.837948655863397e-01 -0.000000000000000e+00 -0.000000000000000e+00 1.688410028125686e-02 3.684262151766991e-03 -0.000000000000000e+00 -0.000000000000000e+00
                       -0.000000000000000e+00 -0.000000000000000e+00 5.778301698482844e-01 -7.837948655863397e-01 -0.000000000000000e+00 -0.000000000000000e+00 1.688410028125686e-02 3.684262151766991e-03
2.191111111111111e+08 1.726270407167396e-02 3.268160371005891e-03 -0.000000000000000e+00 -0.000000000000000e+00 5.425889143372556e-01 -8.076052479441513e-01 -0.000000000000000e+00 -0.000000000000000e+00
                       -0.000000000000000e+00 -0.000000000000000e+00 1.726270407167396e-02 3.268160371005891e-03 -0.000000000000000e+00 -0.000000000000000e+00 5.425889143372556e-01 -8.076052479441513e-01
                       5.425889143372556e-01 -8.076052479441513e-01 -0.000000000000000e+00 -0.000000000000000e+00 1.726270407167396e-02 3.268160371005891e-03 -0.000000000000000e+00 -0.000000000000000e+00
                       -0.000000000000000e+00 -0.000000000000000e+00 5.425889143372556e-01 -8.076052479441513e-01 -0.000000000000000e+00 -0.000000000000000e+00 1.726270407167396e-02 3.268160371005891e-03
2.290370370370370e+08 1.760877744899614e-02 2.822253667090683e-03 -0.000000000000000e+00 -0.000000000000000e+00 5.063946806323505e-01 -8.298315923710491e-01 -0.000000000000000e+00 -0.000000000000000e+00
                       -0.000000000000000e+00 -0.000000000000000e+00 1.760877744899614e-02 2.822253667090683e-03 -0.000000000000000e+00 -0.000000000000000e+00 5.063946806323505e-01 -8.298315923710491e-01
                       5.063946806323505e-01 -8.298315923710491e-01 -0.000000000000000e+00 -0.000000000000000e+00 1.760877744899614e-02 2.822253667090683e-03 -0.000000000000000e+00 -0.000000000000000e+00
                       -0.000000000000000e+00 -0.000000000000000e+00 5.063946806323505e-01 -8.298315923710491e-01 -0.000000000000000e+00 -0.000000000000000e+00 1.760877744899614e-02 2.822253667090683e-03
2.389629629629630e+08 1.792021498473684e-02 2.348656922069859e-03 -0.000000000000000e+00 -0.000000000000000e+00 4.693172709029956e-01 -8.504372668961202e-01 -0.000000000000000e+00 -0.000000000000000e+00
                       -0.000000000000000e+00 -0.000000000000000e+00 1.792021498473684e-02 2.348656922069859e-03 -0.000000000000000e+00 -0.000000000000000e+00 4.693172709029956e-01 -8.504372668961202e-01
                       4.693172709029956e-01 -8.504372668961202e-01 -0.000000000000000e+00 -0.000000000000000e+00 1.792021498473684e-02 2.348656922069859e-03 -0.000000000000000e+00 -0.000000000000000e+00
                       -0.000000000000000e+00 -0.000000000000000e+00 4.693172709029956e-01 -8.504372668961202e-01 -0.000000000000000e+00 -0.000000000000000e+00 1.792021498473684e-02 2.348656922069859e-03
2.488888888888889e+08 1.819499578136285e-02 1.849670647320504e-03 -0.000000000000000e+00 -0.000000000000000e+00 4.314279314838572e-01 -8.693885843827842e-01 -0.000000000000000e+00 -0.000000000000000e+00
                       -0.000000000000000e+00 -0.000000000000000e+00 1.819499578136285e-02 1.849670647320504e-03 -0.000000000000000e+00 -0.000000000000000e+00 4.314279314838572e-01 -8.693885843827842e-01
                       4.314279314838572e-01 -8.693885843827842e-01 -0.000000000000000e+00 -0.000000000000000e+00 1.819499578136285e-02 1.849670647320504e-03 -0.000000000000000e+00 -0.000000000000000e+00
                       -0.000000000000000e+00 -0.000000000000000e+00 4.314279314838572e-01 -8.693885843827842e-01 -0.000000000000000e+00 -0.000000000000000e+00 1.819499578136285e-02 1.849670647320504e-03
2.588148148148148e+08 1.843120554316424e-02 1.327780241405241e-03 -0.000000000000000e+00 -0.000000000000000e+00 3.927992261392951e-01 -8.866548736588462e-01 -0.000000000000000e+00 -0.000000000000000e+00
                       -0.000000000000000e+00 -0.000000000000000e+00 1.843120554316424e-02 1.327780241405241e-03 -0.000000000000000e+00 -0.000000000000000e+00 3.927992261392951e-01 -8.866548736588462e-01
                       3.927992261392951e-01 -8.866548736588462e-01 -0.000000000000000e+00 -0.000000000000000e+00 1.843120554316424e-02 1.327780241405241e-03 -0.000000000000000e+00 -0.000000000000000e+00
                       -0.000000000000000e+00 -0.000000000000000e+00 3.927992261392951e-01 -8.866548736588462e-01 -0.000000000000000e+00 -0.000000000000000e+00 1.843120554316424e-02 1.327780241405241e-03
2.687407407407407e+08 1.862705947321674e-02 7.856529817705400e-04 -0.000000000000000e+00 -0.000000000000000e+00 3.535049051137534e-01 -9.022085436838558e-01 -0.000000000000000e+00 -0.000000000000000e+00
                       -0.000000000000000e+00 -0.000000000000000e+00 1.862705947321674e-02 7.856529817705400e-04 -0.000000000000000e+00 -0.000000000000000e+00 3.535049051137534e-01 -9.022085436838558e-01
                       3.535049051137534e-01 -9.022085436838558e-01 -0.000000000000000e+00 -0.000000000000000e+00 1.862705947321674e-02 7.856529817705400e-04 -0.000000000000000e+00 -0.000000000000000e+00
                       -0.000000000000000e+00 -0.000000000000000e+00 3.535049051137534e-01 -9.022085436838558e-01 -0.000000000000000e+00 -0.000000000000000e+00 1.862705947321674e-02 7.856529817705400e-04
2.786666666666666e+08 1.878092540066789e-02 2.261322321295549e-04 -0.000000000000000e+00 -0.000000000000000e+00 3.136197706488308e-01 -9.160251403243012e-01 -0.000000000000000e+00 -0.000000000000000e+00
                       -0.000000000000000e+00 -0.000000000000000e+00 1.878092540066789e-02 2.261322321295549e-04 -0.000000000000000e+00 -0.000000000000000e+00 3.136197706488308e-01 -9.160251403243012e-01
                       3.136197706488308e-01 -9.160251403243012e-01 -0.000000000000000e+00 -0.000000000000000e+00 1.878092540066789e-02 2.261322321295549e-04 -0.000000000000000e+00 -0.000000000000000e+00
                       -0.000000000000000e+00 -0.000000000000000e+00 3.136197706488308e-01 -9.160251403243012e-01 -0.000000000000000e+00 -0.000000000000000e+00 1.878092540066789e-02 2.261322321295549e-04
2.885925925925926e+08 1.889134654849223e-02 -3.477713275472300e-04 -0.000000000000000e+00 -0.000000000000000e+00 2.732195396555461e-01 -9.280833955613733e-01 -0.000000000000000e+00 -0.000000000000000e+00
                       -0.000000000000000e+00 -0.000000000000000e+00 1.889134654849223e-02 -3.477713275472300e-04 -0.000000000000000e+00 -0.000000000000000e+00 2.732195396555461e-01 -9.280833955613733e-01
                       2.732195396555461e-01 -9.280833955613733e-01 -0.000000000000000e+00 -0.000000000000000e+00 1.889134654849223e-02 -3.477713275472300e-04 -0.000000000000000e+00 -0.000000000000000e+00
                       -0.000000000000000e+00 -0.000000000000000e+00 2.732195396555461e-01 -9.280833955613733e-01 -0.000000000000000e+00 -0.000000000000000e+00 1.889134654849223e-02 -3.477713275472300e-04
2.985185185185185e+08 1.895706341482162e-02 -9.328914268316638e-04 -0.000000000000000e+00 -0.000000000000000e+00 2.323807041805479e-01 -9.383652691215475e-01 -0.000000000000000e+00 -0.000000000000000e+00
                       -0.000000000000000e+00 -0.000000000000000e+00 1.895706341482162e-02 -9.328914268316638e-04 -0.000000000000000e+00 -0.000000000000000e+00 2.323807041805479e-01 -9.383652691215475e-01
                       2.323807041805479e-01 -9.383652691215475e-01 -0.000000000000000e+00 -0.000000000000000e+00 1.895706341482162e-02 -9.328914268316638e-04 -0.000000000000000e+00 -0.000000000000000e+00
                       -0.000000000000000e+00 -0.000000000000000e+00 2.323807041805479e-01 -9.383652691215475e-01 -0.000000000000000e+00 -0.000000000000000e+00 1.895706341482162e-02 -9.328914268316638e-04
3.084444444444444e+08 1.897703432430597e-02 -1.525920730259470e-03 -0.000000000000000e+00 -0.000000000000000e+00 1.911803902336082e-01 -9.468559826204409e-01 -0.000000000000000e+00 -0.000000000000000e+00
                       -0.000000000000000e+00 -0.000000000000000e+00 1.897703432430597e-02 -1.525920730259470e-03 -0.000000000000000e+00 -0.000000000000000e+00 1.911803902336082e-01 -9.468559826204409e-01
                       1.911803902336082e-01 -9.468559826204409e-01 -0.000000000000000e+00 -0.000000000000000e+00 1.897703432430597e-02 -1.525920730259470e-03 -0.000000000000000e+00 -0.000000000000000e+00
                       -0.000000000000000e+00 -0.000000000000000e+00 1.911803902336082e-01 -9.468559826204409e-01 -0.000000000000000e+00 -0.000000000000000e+00 1.897703432430597e-02 -1.525920730259470e-03
3.183703703703704e+08 1.895045429029096e-02 -2.123427927242706e-03 -0.000000000000000e+00 -0.000000000000000e+00 1.496962154700985e-01 -9.535440463650866e-01 -0.000000000000000e+00 -0.000000000000000e+00
                       -0.000000000000000e+00 -0.000000000000000e+00 1.895045429029096e-02 -2.123427927242706e-03 -0.000000000000000e+00 -0.000000000000000e+00 1.496962154700985e-01 -9.535440463650866e-01
                       1.496962154700985e-01 -9.535440463650866e-01 -0.000000000000000e+00 -0.000000000000000e+00 1.895045429029096e-02 -2.123427927242706e-03 -0.000000000000000e+00 -0.000000000000000e+00
                       -0.000000000000000e+00 -0.000000000000000e+00 1.496962154700985e-01 -9.535440463650866e-01 -0.000000000000000e+00 -0.000000000000000e+00 1.895045429029096e-02 -2.123427927242706e-03
3.282962962962963e+08 1.887677190482784e-02 -2.721877109287289e-03 -0.000000000000000e+00 -0.000000000000000e+00 1.080061461556876e-01 -9.584212789843835e-01 -0.000000000000000e+00 -0.000000000000000e+00
                       -0.000000000000000e+00 -0.000000000000000e+00 1.887677190482784e-02 -2.721877109287289e-03 -0.000000000000000e+00 -0.000000000000000e+00 1.080061461556876e-01 -9.584212789843835e-01
                       1.080061461556876e-01 -9.584212789843835e-01 -0.000000000000000e+00 -0.000000000000000e+00 1.887677190482784e-02 -2.721877109287289e-03 -0.000000000000000e+00 -0.000000000000000e+00
                       -0.000000000000000e+00 -0.000000000000000e+00 1.080061461556876e-01 -9.584212789843835e-01 -0.000000000000000e+00 -0.000000000000000e+00 1.887677190482784e-02 -2.721877109287289e-03
