!Keysight Technologies,N5231B,MY57181281,A.17.25.05
!Date: Friday, March 07, 2025 17:00:48
!Correction: S11(C  4-Port  ) 
!S12(C  4-Port  ) 
!S13(C  4-Port  ) 
!S14(C  4-Port  ) 
!S21(C  4-Port  ) 
!S22(C  4-Port  ) 
!S23(C  4-Port  ) 
!S24(C  4-Port  ) 
!S31(C  4-Port  ) 
!S32(C  4-Port  ) 
!S33(C  4-Port  ) 
!S34(C  4-Port  ) 
!S41(C  4-Port  ) 
!S42(C  4-Port  ) 
!S43(C  4-Port  ) 
!S44(C  4-Port  ) 
!S4P File: Measurements: <S11,S12,S13,S14>,
!<S21,S22,S23,S24>,
!<S31,S32,S33,S34>,
!<S41,S42,S43,S44>:
# Hz S  dB   R 50
10000000 -27.532986 38.482304 -30.795446 55.627445 -0.19992842 -22.527321 -38.055759 -146.00131
-30.813267 55.525135 -27.885929 37.551331 -38.032375 -145.9124 -0.19604512 -22.555752
-0.19793661 -22.525234 -37.987343 -146.14815 -27.626377 40.116825 -30.756964 55.667866
-38.021057 -146.32552 -0.19732355 -22.56081 -30.74468 55.673649 -27.916912 38.386948
20000000 -24.47253 21.378489 -26.843832 37.290939 -0.28285366 -44.332191 -34.516598 -169.53748
-26.858807 37.093719 -24.953497 20.838974 -34.479351 -169.41695 -0.2794275 -44.381428
-0.28129655 -44.323631 -34.446808 -169.6657 -24.632772 23.832373 -26.857141 36.809971
-34.51482 -170.11678 -0.28131008 -44.386467 -26.842716 36.753578 -25.001883 21.531775
30000000 -23.921333 3.439389 -25.878252 19.643053 -0.34752765 -66.031525 -32.359711 169.66106
-25.887543 19.274076 -24.4522 3.7841916 -32.312077 169.68541 -0.34378558 -66.10096
-0.34671786 -66.017342 -32.291016 169.44948 -24.274683 7.1405416 -26.068596 18.531988
-32.398991 168.88773 -0.3470647 -66.107552 -26.050774 18.432745 -24.629175 4.1671686
40000000 -25.42362 -13.552701 -27.221209 5.5142331 -0.40982747 -87.781265 -30.339378 149.69302
-27.219885 4.7589817 -25.907454 -11.490653 -30.287653 149.59163 -0.40583381 -87.835381
-0.40926567 -87.744453 -30.270552 149.33484 -26.178417 -7.4556947 -27.888575 3.8082604
-30.433189 148.83942 -0.40895903 -87.847343 -27.8626 3.5869899 -26.425936 -11.553401
50000000 -30.228828 -21.413731 -31.311159 9.5142994 -0.49622598 -109.60677 -28.016418 127.16531
-31.389521 7.4071975 -30.296839 -15.971642 -27.992207 126.9399 -0.48937184 -109.65302
-0.49378064 -109.54757 -27.97788 126.61662 -31.983961 -4.9955521 -33.495037 13.850114
-28.173483 126.35649 -0.49185181 -109.657 -33.495735 13.149553 -32.024944 -14.092814
60000000 -33.214073 41.651482 -30.04977 53.770184 -0.6644246 -131.34265 -25.490973 96.865799
-30.545876 53.529427 -32.185894 35.568813 -25.486797 96.585258 -0.64173096 -131.36742
-0.65334398 -131.26335 -25.509457 96.340553 -30.186605 63.807438 -29.563433 71.49733
-25.726738 96.472916 -0.64331746 -131.35831 -29.628725 71.551003 -32.075062 57.387791
70000000 -26.085064 39.131836 -25.483212 42.578442 -0.89384019 -151.5966 -24.410046 51.004162
-25.804516 44.283295 -26.335518 33.421314 -24.475271 50.656235 -0.8389495 -151.79916
-0.87618142 -151.63345 -24.403423 50.750538 -23.881008 46.683983 -24.196648 51.906273
-24.613947 51.611996 -0.84272069 -151.80643 -24.253704 51.840218 -25.205006 44.127689
80000000 -26.672989 41.239452 -26.666637 48.885109 -0.73089212 -171.95645 -28.349108 21.342712
-26.691591 50.095451 -27.083015 37.953236 -28.422245 22.361082 -0.70283264 -172.38025
-0.7270928 -171.95219 -28.34013 21.190172 -25.451485 41.265125 -25.672955 48.552006
-28.438995 21.53347 -0.70518786 -172.37563 -25.679827 49.186821 -26.461163 39.700592
90000000 -22.583973 37.620705 -22.997627 44.656784 -0.7640478 166.25751 -27.67005 9.5028
-22.919727 45.788734 -23.246683 34.324436 -27.577663 10.414742 -0.74340522 165.88936
-0.75288832 166.3125 -27.78194 7.6325154 -22.702303 41.427166 -22.835508 46.314373
-27.832886 9.1483278 -0.7446968 165.98929 -22.771984 46.259068 -23.486731 38.836796
100000000 -21.967676 23.424442 -22.485706 34.87051 -0.7100001 145.38165 -30.070856 -14.838959
-22.516706 33.934406 -22.655476 23.852468 -29.899239 -15.236457 -0.69041902 144.92032
-0.69247669 145.3313 -30.417177 -11.074925 -22.997343 33.682934 -23.003553 38.009384
-30.29146 -13.484027 -0.67320371 144.84392 -23.035166 37.381329 -23.603916 31.062792
110000000 -21.349697 11.103434 -21.83279 22.234814 -0.64835221 123.27352 -29.776295 -8.3037634
-21.926508 22.195112 -21.848434 12.279268 -29.818077 -8.1551933 -0.64672118 122.83374
-0.64831793 123.24673 -29.410999 -7.8861356 -22.313681 29.723782 -22.38962 30.485327
-29.7745 -8.2645121 -0.65305966 122.76604 -22.425701 30.575891 -22.741484 25.388868
120000000 -22.520906 -6.7117186 -23.312958 6.3595986 -0.69337392 101.08898 -26.909672 -20.251225
-23.346983 5.8045993 -22.872784 -3.3595293 -26.881021 -20.034433 -0.69421095 100.74003
-0.69194937 101.13841 -26.801367 -20.995621 -23.550318 20.132586 -24.025158 18.600435
-27.058235 -20.618708 -0.70038617 100.72549 -24.006277 18.393122 -23.8367 14.174038
130000000 -27.214344 -18.058062 -28.107357 3.9368553 -0.80601484 78.915024 -24.189684 -42.323021
-28.286165 1.1993806 -26.669104 -9.8570099 -24.188942 -42.197769 -0.80025971 78.663376
-0.79694414 79.010864 -24.183187 -42.901031 -27.086906 33.000023 -28.584152 31.892849
-24.432484 -42.298164 -0.80472791 78.658096 -28.668545 30.995617 -27.394115 21.537552
140000000 -31.666048 44.365562 -28.803764 56.654594 -1.0412438 56.980179 -21.750938 -72.848152
-29.74386 59.081806 -29.180328 30.440617 -21.773447 -72.599838 -1.0078875 56.835228
-1.0168498 57.068455 -21.77071 -73.232895 -23.844593 68.247368 -24.903582 74.602448
-22.015341 -72.076248 -1.0155524 56.830109 -25.029331 75.114578 -25.371828 58.303726
150000000 -24.315613 59.650871 -23.728821 63.230595 -1.3059151 36.499531 -20.827103 -109.47167
-23.905327 67.216087 -24.811707 45.59803 -20.897104 -109.09711 -1.2294942 36.228168
-1.2777319 36.466766 -20.897978 -109.75183 -19.672951 57.237442 -20.391073 63.185875
-21.010689 -108.26324 -1.2358614 36.273029 -20.441259 63.635902 -21.138515 50.767395
160000000 -22.22304 41.184128 -22.515604 49.260437 -1.3285177 17.332504 -22.119478 -148.34444
-22.353016 52.458817 -23.168133 32.273254 -22.15098 -147.13368 -1.2428486 16.67671
-1.31911 17.335453 -22.196035 -149.41264 -19.606033 39.075764 -20.141441 46.672615
-22.204731 -147.62764 -1.2458652 16.808064 -20.118599 47.511543 -20.986799 33.800888
170000000 -20.167112 42.526054 -20.164789 52.602028 -1.2248905 -4.031877 -23.353436 -164.35127
-20.036121 53.24382 -21.174061 37.974003 -23.247232 -163.81407 -1.1644934 -4.8372912
-1.1925086 -4.0601068 -23.658236 -163.38553 -19.453466 40.919041 -19.234608 48.140038
-23.56135 -163.24672 -1.1431041 -4.8132057 -19.16223 47.887581 -20.621059 37.517292
180000000 -17.715376 25.658472 -17.90601 34.682728 -1.3124294 -25.24144 -22.444204 172.3549
-17.893211 35.285934 -18.582047 22.448631 -22.422098 172.77609 -1.2671899 -26.026867
-1.2904751 -25.395123 -22.528259 174.24422 -18.26882 29.479141 -17.847589 33.654533
-22.586193 174.00757 -1.2550774 -26.136982 -17.856075 33.343536 -19.176489 25.697075
190000000 -17.353188 5.3888578 -17.806484 14.757301 -1.2888016 -46.085396 -23.13623 147.05898
-17.823721 15.380039 -18.145525 3.3804529 -23.127369 148.00571 -1.2453007 -46.854877
-1.280161 -46.191406 -23.00798 148.59467 -18.982069 16.791832 -18.483101 18.58531
-23.159979 148.53885 -1.2529887 -46.925137 -18.509367 18.510885 -19.767319 12.799506
200000000 -19.433493 -19.581882 -20.408081 -8.0677547 -1.155385 -66.441505 -25.490808 116.80444
-20.446177 -7.577498 -20.093025 -19.510084 -25.404905 117.95596 -1.1236905 -67.336266
-1.1613718 -66.496994 -25.174437 117.7077 -22.622192 9.8394604 -21.98971 8.6562271
-25.420147 117.57354 -1.1343389 -67.350067 -22.017054 8.720871 -23.072958 6.1829395
210000000 -23.352373 -31.211403 -24.792534 -15.165331 -0.99353254 -89.210327 -26.921755 128.40596
-24.780962 -15.286412 -23.497715 -27.419901 -26.78845 128.52525 -0.98294878 -89.995644
-0.98883176 -89.164825 -26.768368 126.88604 -24.377312 26.460802 -24.618446 20.658569
-27.057495 128.39981 -0.99005604 -89.970917 -24.647106 20.287653 -24.344095 19.831989
220000000 -32.937904 -28.969011 -33.925213 15.183513 -1.1068966 -112.32423 -22.876852 119.35268
-35.007744 11.813197 -29.632101 -19.605497 -22.851686 119.72692 -1.0943052 -112.89088
-1.0888594 -112.25635 -22.896515 118.50983 -24.445578 53.705944 -25.804382 54.818443
-23.086136 120.3047 -1.1004804 -112.86525 -25.985991 55.037556 -24.762419 40.377613
230000000 -25.979769 79.7575 -24.653721 82.594559 -1.4433728 -134.59009 -19.805559 89.227127
-24.686813 87.935448 -27.338497 53.858467 -19.802256 90.026161 -1.396637 -134.93069
-1.408408 -134.55579 -19.894476 88.71476 -19.888472 65.845131 -20.523586 71.276451
-19.983965 90.847145 -1.4027203 -134.86665 -20.562304 72.280495 -21.083313 54.220387
240000000 -19.516243 54.9692 -19.848667 60.752136 -1.7933002 -154.69792 -18.73148 52.413006
-19.581755 64.758865 -21.153551 40.151566 -18.661844 53.481422 -1.6801468 -155.13913
-1.7521658 -154.83264 -18.83758 52.358013 -16.746838 50.571846 -17.127779 56.172424
-18.816742 54.471809 -1.6780689 -155.03812 -17.079304 56.784729 -18.00738 41.412197
250000000 -18.075531 41.278458 -18.693939 51.765606 -1.7897793 -174.2933 -19.565416 22.004856
-18.328222 53.51162 -20.013981 32.133472 -19.484158 23.109091 -1.6617898 -175.10674
-1.7692364 -174.47398 -19.655731 22.570585 -16.679159 37.796791 -16.642311 44.383457
-19.55921 23.803185 -1.6563803 -175.06514 -16.588434 44.632214 -17.950153 29.909033
260000000 -16.016638 25.326429 -16.76866 35.82058 -1.9259195 165.40341 -19.00325 -6.3955321
-16.450317 36.848648 -17.760994 19.736126 -18.878418 -5.1389079 -1.7815138 164.42261
-1.9104083 165.18791 -19.054974 -5.6745744 -16.028767 25.09259 -15.708348 30.151318
-18.961914 -4.6655717 -1.7766492 164.47058 -15.645736 30.158895 -17.214108 18.233942
270000000 -15.902622 5.5427718 -16.83371 17.539867 -1.8475863 146.12312 -19.780762 -40.462246
-16.577185 17.67808 -17.499214 2.7037029 -19.621988 -39.188587 -1.7092162 144.78911
-1.8499038 145.91823 -19.796095 -39.396187 -17.362226 10.649967 -16.702223 14.722584
-19.687826 -39.043594 -1.702955 144.81723 -16.671169 14.397318 -18.432194 4.6369405
280000000 -17.134287 -10.2488 -18.040068 3.3764131 -1.5286012 125.65594 -22.519455 -70.632248
-17.936028 3.2034166 -18.409428 -10.00224 -22.310238 -69.170227 -1.4354558 124.08515
-1.5367409 125.56454 -22.41872 -69.154266 -20.002802 9.2142935 -18.858616 9.1611729
-22.420652 -69.804543 -1.4324049 124.09109 -18.894751 8.8348236 -20.773941 4.0681329
290000000 -18.76589 -22.933645 -19.707544 -9.4006929 -1.259558 103.13247 -26.560425 -76.519211
-19.679541 -9.2780094 -19.466793 -20.196783 -26.161337 -75.495415 -1.2157143 101.62013
-1.2613846 103.11003 -26.184011 -75.983261 -21.092039 16.596466 -20.43788 9.8030291
-26.529541 -76.175598 -1.2170861 101.63087 -20.48431 9.668889 -21.442854 10.201425
300000000 -22.067036 -40.683361 -23.568089 -26.47645 -1.2244165 79.815086 -25.352865 -62.970875
-23.665819 -26.835888 -21.710415 -34.06337 -25.096634 -63.595707 -1.2018276 78.495178
-1.2154423 79.846809 -25.20467 -64.847023 -22.80641 21.525579 -23.422871 13.130324
-25.461834 -62.287556 -1.2057271 78.528519 -23.524632 12.663506 -22.674459 11.86998
310000000 -35.301952 -74.070633 -50.48315 -68.65258 -1.4440542 57.035782 -21.528166 -82.035561
-54.776577 -132.76549 -29.971987 -49.42775 -21.425224 -81.989677 -1.4288455 56.040672
-1.4232104 57.031998 -21.567719 -83.27697 -23.764235 50.388664 -25.515104 55.086315
-21.622454 -80.55394 -1.4324092 56.112152 -25.668558 57.047569 -24.480888 32.212807
320000000 -23.667139 84.173279 -22.677818 92.520493 -1.6322647 34.73262 -19.654833 -103.52818
-22.144718 95.19873 -26.814936 59.201763 -19.543756 -102.89195 -1.5838115 34.019573
-1.5989546 34.677666 -19.774755 -104.16267 -18.457916 64.365059 -18.614449 71.461494
-19.668848 -101.59675 -1.5876259 34.126759 -18.533188 72.501152 -19.94486 51.957375
330000000 -17.52478 58.854328 -17.73403 69.558144 -2.062187 13.434898 -17.602129 -135.11447
-17.192707 70.698135 -19.982952 46.775711 -17.448206 -134.2354 -1.9456688 12.847307
-2.0260906 13.256282 -17.751257 -135.37604 -15.340099 49.884438 -15.189653 55.696743
-17.533283 -133.24771 -1.9405651 13.03143 -15.068483 56.193378 -16.806759 39.670658
340000000 -15.127014 33.51852 -15.898872 46.326553 -2.381151 -5.3768992 -17.053328 -171.7556
-15.367012 46.333317 -17.351246 25.698311 -16.857525 -170.92111 -2.1776345 -6.2812147
-2.3603837 -5.6988411 -17.236893 -171.48546 -14.305805 30.237402 -13.986759 36.248199
-16.909931 -170.06607 -2.1530516 -6.1209469 -13.874033 36.146343 -15.752327 21.754095
350000000 -14.8023 13.316998 -15.686721 29.009169 -2.3177798 -23.70866 -17.788534 153.40639
-15.282593 27.731634 -16.821171 9.6846323 -17.597956 154.16487 -2.1037714 -25.295229
-2.3259294 -23.989088 -17.964064 154.36969 -15.326543 13.17055 -14.605626 19.641748
-17.602909 154.53551 -2.073415 -25.252996 -14.554184 19.200977 -16.677422 6.3830614
360000000 -15.291267 -0.7824108 -15.946804 15.713013 -2.008471 -43.529743 -19.615273 122.87243
-15.779527 14.292637 -16.877825 -1.2430263 -19.443174 123.87194 -1.8468869 -45.500732
-2.0237253 -43.669159 -19.715139 124.55341 -17.280931 7.4152327 -15.975338 11.142668
-19.463463 123.42177 -1.8267255 -45.53117 -15.996795 10.801859 -18.439472 2.3386519
370000000 -15.845944 -14.2444 -16.464907 0.65096539 -1.7191823 -64.97979 -22.204386 100.51199
-16.41489 0.075856626 -16.900797 -12.240216 -21.967655 102.43085 -1.5944759 -67.07766
-1.731043 -64.989792 -22.107428 102.59129 -18.426935 7.8536272 -17.151428 6.131856
-22.107904 100.88897 -1.5861099 -67.106331 -17.153387 6.082119 -19.13715 4.7913265
380000000 -16.990513 -27.863674 -17.663124 -17.173113 -1.4943283 -87.89312 -24.639078 101.40123
-17.625443 -16.976315 -17.102592 -26.722858 -24.164028 101.87689 -1.4729148 -90.042206
-1.4878789 -87.938515 -24.328196 101.64864 -18.964514 5.9802742 -18.279638 -0.8246212
-24.615898 102.05801 -1.4687856 -90.012268 -18.32811 -1.1914908 -18.949295 -0.72936273
390000000 -20.89143 -57.062069 -22.99439 -51.910141 -1.4934183 -109.86817 -24.36684 88.370384
-23.020319 -51.501072 -20.435516 -52.671204 -24.085085 87.912323 -1.4717921 -111.63548
-1.483227 -109.91335 -24.332767 87.655853 -23.717051 9.7312698 -24.641165 1.4863614
-24.375914 89.28492 -1.463618 -111.59727 -24.92345 1.5706419 -23.124584 -1.0780375
400000000 -40.172874 -61.124573 -40.439316 157.10211 -1.4917352 -133.37337 -22.373663 89.269302
-38.648575 144.6963 -29.458961 -53.720886 -22.169918 89.193352 -1.4807829 -134.77864
-1.4732764 -133.43684 -22.456781 88.752541 -22.843739 51.21521 -23.554729 61.639915
-22.290524 90.895233 -1.4762399 -134.70822 -23.507391 63.582989 -23.474327 31.716032
410000000 -23.898066 72.428314 -22.534073 97.875923 -1.7955244 -156.27567 -19.213198 66.872528
-21.90324 94.85762 -29.492306 48.33432 -19.034994 67.421059 -1.7424965 -157.39676
-1.773442 -156.41658 -19.384048 67.182907 -18.047024 57.897869 -17.441408 65.726013
-19.036615 68.167236 -1.7336293 -157.25153 -17.283491 66.491676 -19.496189 42.823143
420000000 -17.726318 56.384037 -17.038063 76.651024 -2.2100713 -177.11145 -17.570644 34.005165
-16.785822 74.072983 -20.813892 51.149433 -17.384623 34.736732 -2.0922928 -178.2114
-2.1992428 -177.31119 -17.733948 34.924904 -15.3465 44.699677 -14.432734 50.918285
-17.375637 34.76004 -2.0690532 -178.06186 -14.2842 50.936214 -16.871868 32.730862
430000000 -14.741904 34.144821 -14.600344 51.966206 -2.3675072 163.69662 -17.66869 1.049263
-14.395712 50.185883 -16.975624 30.323233 -17.473772 2.1892977 -2.2028325 162.30458
-2.362854 163.54651 -17.812723 2.4853528 -14.734871 30.603937 -13.440856 35.686096
-17.510471 1.4740354 -2.1747141 162.40201 -13.365744 35.362637 -16.208979 20.416555
440000000 -13.887178 15.586878 -13.913346 32.914783 -2.3367395 143.77531 -18.26758 -25.951916
-13.762525 31.315073 -15.757513 13.71304 -18.000153 -24.401917 -2.1632814 142.05437
-2.3345938 143.6456 -18.322971 -24.15118 -14.564736 20.310202 -13.094848 22.655905
-18.136253 -25.457155 -2.134135 142.11401 -13.04613 22.432793 -16.014486 11.95002
450000000 -13.464026 -0.95955139 -13.678153 14.223594 -2.2507043 123.69432 -19.083153 -52.41256
-13.545623 13.048843 -14.969728 -1.8495396 -18.710213 -50.616001 -2.0796509 121.66347
-2.2415807 123.605 -19.087147 -50.610348 -15.04198 8.7879276 -13.577862 8.969348
-18.971375 -51.927135 -2.051017 121.70683 -13.53315 8.5580597 -16.294132 2.8995566
460000000 -13.757061 -17.426933 -14.199203 -4.9807982 -2.0274954 102.38143 -20.598349 -69.61071
-14.068732 -5.8676963 -14.762506 -17.857416 -20.08363 -68.776466 -1.9155426 100.07596
-2.0205667 102.2335 -20.481913 -68.262115 -15.512514 -0.90690434 -14.344675 -3.6123343
-20.463514 -68.980331 -1.8923268 100.1104 -14.349285 -4.1223516 -16.309092 -5.7705116
470000000 -14.584123 -37.755711 -15.643453 -30.416578 -1.9115088 80.231514 -21.016911 -81.755363
-15.464494 -30.718441 -15.236824 -39.646503 -20.581913 -82.130959 -1.8655708 78.121696
-1.906794 80.077026 -20.996311 -81.620361 -17.42387 -15.757554 -16.813534 -19.952492
-20.861261 -81.09259 -1.8418567 78.204323 -16.88743 -20.702293 -17.799883 -20.574017
480000000 -17.432135 -66.768425 -19.629913 -68.965141 -1.9092932 58.018085 -20.610283 -95.954391
-19.351795 -68.471123 -17.754763 -68.375282 -20.349953 -96.783821 -1.8579096 56.241631
-1.9069153 57.867672 -20.823721 -95.361633 -23.746466 -22.661472 -24.552732 -26.179268
-20.413668 -95.731705 -1.8243364 56.31321 -25.139544 -26.815447 -22.965778 -25.990431
490000000 -24.808575 -117.01048 -24.847069 -156.53465 -1.987378 35.508217 -19.431791 -111.02811
-24.913351 -153.42035 -24.016218 -112.02092 -19.278698 -111.04137 -1.9234926 33.905178
-1.9862937 35.379921 -19.64731 -109.06763 -25.225309 53.563728 -24.096104 68.582367
-19.287695 -111.13383 -1.8841932 33.945293 -23.577753 71.254219 -25.433756 27.66272
500000000 -22.438719 109.78283 -18.239187 118.51515 -2.191489 13.763338 -18.220407 -134.10587
-18.386793 118.30869 -25.382105 116.26564 -18.040163 -133.27832 -2.0932786 12.231314
-2.1892798 13.644926 -18.288694 -131.52118 -17.891588 57.680676 -16.372267 64.428314
-18.134752 -134.04536 -2.0551069 12.211548 -16.095596 64.220161 -19.381374 41.737797
510000000 -15.906758 60.456772 -14.31726 77.267372 -2.4130661 -7.497725 -17.359625 -158.71768
-14.337708 76.240204 -18.181978 59.227406 -17.078417 -157.76509 -2.2717419 -9.0079489
-2.4106722 -7.6212039 -17.346945 -156.50156 -14.856316 41.366093 -13.304003 46.487595
-17.255733 -158.42049 -2.234158 -9.0149927 -13.160471 46.034786 -16.393902 29.158218
520000000 -14.383817 33.980194 -13.180715 52.805576 -2.5942166 -27.36071 -17.060341 173.53317
-13.231622 51.451771 -15.976565 34.016083 -16.817371 174.14265 -2.4066269 -29.452776
-2.5855041 -27.417847 -17.118744 175.60719 -13.970432 23.893147 -12.26549 28.866505
-16.959881 173.64171 -2.3656728 -29.500372 -12.153574 28.410585 -15.461048 15.202514
530000000 -12.619048 17.338078 -11.859567 31.542593 -2.6562691 -48.059387 -16.767855 148.97693
-11.878533 30.504711 -13.888372 14.644373 -16.431314 150.31326 -2.5445077 -50.118565
-2.6499996 -48.158161 -16.703604 151.29636 -13.684858 12.484703 -11.825973 14.455158
-16.672831 149.2684 -2.5032313 -50.167519 -11.740377 13.895323 -14.885754 4.4622326
540000000 -12.005468 -6.0908904 -11.904311 6.2053514 -2.7194629 -67.623375 -16.891527 119.83346
-11.861882 5.0298266 -13.222822 -9.1427546 -16.489431 120.59786 -2.5759542 -69.629959
-2.7050557 -67.7369 -16.877205 121.68542 -13.918715 -5.6044617 -12.314139 -4.4443064
-16.777933 120.23088 -2.52951 -69.722839 -12.26262 -5.258441 -15.122976 -12.126472
550000000 -12.844657 -28.780788 -13.254049 -18.296856 -2.539459 -87.381836 -17.975489 92.815941
-13.194677 -19.774666 -13.833241 -31.431101 -17.561602 93.045753 -2.405751 -89.679367
-2.529752 -87.555367 -18.000315 94.815765 -15.661361 -22.615175 -14.247438 -21.760548
-17.822811 93.153076 -2.3625081 -89.839714 -14.267163 -22.778894 -16.63516 -26.742033
560000000 -14.676383 -52.804153 -15.780157 -47.035381 -2.3161702 -108.44315 -19.27504 71.152847
-15.703178 -48.793945 -15.351539 -55.560989 -18.95562 70.67907 -2.2037411 -110.7131
