!Keysight Technologies,N5231B,MY57181281,A.17.25.05
!Date: Friday, March 07, 2025 17:11:18
!Correction: S11(C  4-Port  ) 
!S12(C  4-Port  ) 
!S13(C  4-Port  ) 
!S14(C  4-Port  ) 
!S21(C  4-Port  ) 
!S22(C  4-Port  ) 
!S23(C  4-Port  ) 
!S24(C  4-Port  ) 
!S31(C  4-Port  ) 
!S32(C  4-Port  ) 
!S33(C  4-Port  ) 
!S34(C  4-Port  ) 
!S41(C  4-Port  ) 
!S42(C  4-Port  ) 
!S43(C  4-Port  ) 
!S44(C  4-Port  ) 
!S4P File: Measurements: <S11,S12,S13,S14>,
!<S21,S22,S23,S24>,
!<S31,S32,S33,S34>,
!<S41,S42,S43,S44>:
# Hz S  dB   R 50
10000000 -24.838198 -52.470352 -29.460115 -31.093809 -0.71378165 -78.807381 -27.334246 135.33655
-29.667522 -31.450371 -23.618679 -41.148499 -27.53838 133.66881 -0.95592052 -78.978699
-0.71034729 -78.76387 -27.202875 134.54791 -22.577971 7.4898334 -22.105436 27.955038
-27.260513 135.77446 -0.84356213 -78.913689 -22.160578 27.741058 -25.539747 2.4010639
20000000 -32.004116 -7.5376115 -29.441013 -4.8457003 -0.77323467 -152.01248 -28.785501 -14.07548
-29.55982 -4.646256 -27.756493 -2.7877254 -28.864376 -13.552808 -0.99268883 -152.14406
-0.75722826 -152.00752 -28.58567 -14.505633 -27.654964 -44.512623 -26.574902 -40.684246
-28.696018 -14.498175 -0.89825964 -152.0706 -26.572338 -39.945122 -26.715277 -14.943895
30000000 -26.642477 -11.884535 -27.381256 7.2464943 -0.90367764 129.80305 -29.669092 -31.032648
-27.482025 7.2159581 -24.535183 -5.6722984 -29.792187 -32.227745 -1.1204506 129.64661
-0.9107064 129.87628 -29.340836 -33.525677 -23.241156 22.783722 -22.604353 31.354021
-29.568079 -31.555679 -1.0307235 129.70485 -22.607489 31.323044 -24.689993 5.6519666
40000000 -36.840221 40.360725 -31.432936 26.182573 -1.0124874 55.615463 -28.748436 -148.16571
-31.481915 27.571301 -30.708414 24.909233 -28.829025 -148.05402 -1.2409298 55.339291
-1.0028903 55.608974 -28.821171 -149.67177 -27.136744 -21.467127 -25.466688 -20.934366
-28.782383 -149.08359 -1.1371192 55.308277 -25.424696 -20.264782 -28.926325 8.6371298
50000000 -29.147257 32.165031 -29.032347 44.540707 -0.91641998 -20.490507 -33.724182 120.29064
-29.098907 44.413528 -26.167048 26.588232 -33.755005 122.58094 -1.1473747 -20.60854
-0.91680908 -20.417034 -33.76902 121.80952 -28.649908 36.165443 -28.208269 44.632877
-33.789368 120.16257 -1.0463594 -20.645247 -28.180275 44.198353 -26.789629 7.369864
60000000 -34.868134 -53.911678 -32.323132 -10.814634 -1.1495377 -97.029228 -30.093576 89.025818
-32.468227 -9.7767611 -30.959311 -19.538271 -30.094311 86.888519 -1.3721752 -97.524147
-1.1394045 -97.039658 -30.041422 86.463547 -25.460491 10.757366 -23.610905 10.25575
-30.215435 88.399727 -1.2686291 -97.538498 -23.566998 10.326297 -27.981756 29.305948
70000000 -26.196814 43.60783 -26.301144 44.007622 -1.3073229 -171.47946 -27.008398 -15.175856
-26.326588 44.513287 -23.841019 36.441059 -27.013994 -14.89329 -1.5570732 -171.93228
-1.2987424 -171.51936 -26.976748 -15.833419 -26.766167 18.978073 -27.156019 20.420549
-27.031218 -15.347802 -1.45215 -171.94283 -27.105661 20.025488 -23.145163 15.215797
80000000 -27.450663 -12.083579 -26.186073 10.628379 -1.2109861 112.07122 -32.915939 -83.818207
-26.279072 10.534027 -25.25131 -0.08679305 -32.298027 -83.60508 -1.4264401 111.49197
-1.1990906 112.08206 -32.132996 -84.045113 -24.731647 22.885803 -22.964449 24.362366
-32.876553 -84.055107 -1.3207233 111.56805 -22.965446 24.375959 -28.299652 15.779248
90000000 -28.220436 86.683357 -28.143927 74.201019 -1.4680578 36.704132 -27.110256 -153.25594
-28.136456 75.051697 -25.654478 67.045059 -27.079084 -154.16232 -1.7167462 35.983665
-1.4590731 36.60051 -27.187487 -155.04405 -26.294424 24.491146 -26.522457 17.64884
-27.138666 -153.54904 -1.5989026 35.90041 -26.574633 17.531303 -23.68391 36.280891
100000000 -25.163857 12.299411 -24.361937 26.57728 -1.4176852 -37.890457 -27.719725 102.93083
-24.495367 26.221163 -22.518965 14.346884 -27.649467 104.75272 -1.6631012 -38.545471
-1.4099646 -37.963539 -27.74621 104.96924 -24.474192 22.067963 -23.115 27.907778
-27.808811 103.07655 -1.5597742 -38.641285 -23.110241 27.637707 -24.689489 4.8463106
110000000 -52.800186 120.92883 -37.009697 21.550047 -1.453437 -114.77878 -30.712318 57.40332
-37.139484 23.091711 -34.292614 33.945656 -30.289545 55.891373 -1.6909734 -115.60918
-1.4467732 -114.83916 -30.319387 55.628025 -27.224806 29.631117 -26.189049 16.800016
-30.669006 57.298416 -1.5759348 -115.70178 -26.197563 16.853994 -25.930916 51.892338
120000000 -22.05798 40.646782 -21.994568 46.801903 -1.6772652 170.45328 -25.970339 -30.184034
-22.090998 46.714436 -20.144558 36.97987 -25.860838 -29.220758 -1.9403907 169.49136
-1.681322 170.39973 -25.837477 -28.670624 -22.842934 35.62566 -22.396681 38.692539
-25.976906 -29.739002 -1.8464658 169.42668 -22.418144 38.893131 -21.533337 23.478203
130000000 -28.861439 -26.441147 -27.582951 -3.0048535 -1.5431664 94.999115 -29.621912 -121.31013
-27.684483 -2.7421155 -26.979729 -9.4595776 -29.155725 -119.44034 -1.7984259 94.126389
-1.5401661 94.984756 -29.021288 -119.07618 -25.081306 20.158331 -23.67585 12.190405
-29.608763 -121.40392 -1.6860198 94.094223 -23.720949 12.057551 -28.173281 31.488398
140000000 -23.52866 75.141983 -23.159887 76.626945 -1.7846103 18.835598 -26.524637 -172.37801
-23.254642 76.754219 -21.291639 66.126938 -26.414169 -172.72269 -2.041218 17.632732
-1.7819715 18.795774 -26.317177 -172.34386 -23.554592 44.869797 -23.754013 48.681103
-26.524141 -172.17679 -1.940209 17.614305 -23.805634 48.847603 -21.185078 42.361668
150000000 -23.353796 -1.3344417 -22.420286 13.738672 -1.7524719 -55.253101 -26.112759 85.226852
-22.51169 13.548365 -21.116171 3.8493102 -26.047745 86.951714 -2.0218852 -56.341591
-1.7554426 -55.307686 -25.951948 86.79628 -22.904781 21.578381 -21.026911 19.290049
-26.121367 85.005737 -1.9274709 -56.362103 -21.001554 19.360807 -23.972519 13.437871
160000000 -30.858618 114.55751 -30.884968 98.508224 -1.775954 -132.1586 -29.083075 33.04488
-30.959826 98.597038 -28.719543 84.643616 -28.746811 32.188633 -2.0134313 -133.37384
-1.7678034 -132.21774 -28.699747 32.494576 -25.998251 45.486923 -27.080858 38.326149
-29.017435 33.017666 -1.9041333 -133.45572 -27.093935 38.070831 -23.156071 52.214039
170000000 -20.113331 29.417042 -19.347969 39.940514 -1.9868703 153.11659 -25.373375 -49.785885
-19.424562 39.728539 -18.371571 30.842546 -25.204775 -48.581001 -2.246217 151.62976
-1.9852271 153.06927 -25.168983 -48.479485 -20.986687 35.668365 -19.361111 37.688206
-25.317661 -49.697872 -2.1425042 151.62967 -19.388676 37.72168 -20.49021 25.58197
180000000 -33.778893 -55.184711 -30.870741 -12.071909 -1.8384235 77.940308 -27.789804 -139.76854
-30.967983 -11.910737 -30.945059 -11.200809 -27.519083 -137.52634 -2.1155083 76.571411
-1.8472691 77.844215 -27.410961 -137.23653 -26.673702 19.865442 -24.761589 1.5285671
-27.742128 -139.97482 -2.0069971 76.488838 -24.802477 1.2102643 -26.857298 31.557364
190000000 -20.183294 64.457832 -19.650528 69.716301 -2.0686419 1.5292842 -26.336447 168.28046
-19.747995 69.782349 -18.611757 59.276291 -26.159086 168.79179 -2.2878847 -0.07387431
-2.0481861 1.4546999 -26.037554 169.13414 -20.980837 55.428513 -20.315119 58.082264
-26.386715 168.04355 -2.1916842 -0.17676982 -20.360868 58.344612 -20.11293 45.785965
200000000 -21.520792 -16.975178 -20.879761 -0.36091495 -2.0873628 -72.702774 -25.435862 74.35537
-20.981991 -0.33189341 -20.196276 -8.2739506 -25.308098 75.353531 -2.3501194 -74.358559
-2.0726578 -72.745201 -25.201632 75.68055 -21.014654 18.743773 -19.284748 11.160156
-25.422932 74.254936 -2.2433064 -74.447861 -19.300716 10.909287 -21.766787 17.323616
210000000 -26.05349 102.27505 -24.469971 96.940918 -2.0374296 -149.06917 -27.760414 6.025558
-24.569183 97.083626 -23.583429 85.14679 -27.38788 8.373044 -2.2928276 -150.68925
-2.0356815 -149.09296 -27.276188 8.5498409 -24.452414 56.525715 -25.526182 66.031609
-27.707819 6.0669265 -2.1865342 -150.78119 -25.563274 65.833435 -22.80735 53.298958
220000000 -19.136332 20.260471 -17.609671 30.434668 -2.2205873 135.90359 -25.275009 -66.910423
-17.69042 30.425272 -17.265608 22.499765 -25.103849 -66.443573 -2.476474 133.83813
-2.2236288 135.82787 -24.985912 -66.374519 -19.356056 30.123772 -17.274422 31.22648
-25.311029 -66.945686 -2.3816957 133.85774 -17.281294 31.323818 -19.362654 27.224186
230000000 -40.263355 -154.6154 -41.304581 -12.511023 -2.1445048 60.384686 -26.755825 -148.50235
-41.513172 -12.316755 -39.208717 25.419243 -26.762411 -146.30008 -2.4149408 58.543777
-2.1425481 60.391449 -26.617432 -146.0006 -27.063433 26.697565 -26.099604 2.8747666
-26.720091 -148.52795 -2.3125756 58.474628 -26.172684 2.5979857 -25.182257 29.911196
240000000 -18.065977 53.630936 -17.375275 58.955059 -2.3164678 -15.288383 -25.540762 145.35197
-17.45676 58.995075 -16.701374 49.631935 -25.153807 146.407 -2.5510375 -17.463034
-2.3179781 -15.34432 -25.022303 146.60956 -18.76655 51.928097 -17.767885 53.361568
-25.502932 145.53021 -2.4613748 -17.439365 -17.772842 53.547859 -18.893932 46.406124
250000000 -22.101093 -21.752499 -20.929733 -10.464781 -2.2985001 -89.83625 -25.063311 56.802273
-21.040829 -10.621182 -20.67947 -15.088983 -25.147945 56.698112 -2.5722051 -91.993423
-2.2902031 -89.758972 -25.059774 56.862988 -20.781662 9.1502771 -19.212656 1.4410702
-25.050764 56.671963 -2.4702706 -91.984947 -19.235361 1.3823109 -20.801119 14.541178
260000000 -21.307287 79.778893 -20.353384 85.888969 -2.266248 -165.72581 -26.267679 -11.047078
-20.440678 85.92067 -19.50272 76.329865 -25.985825 -6.8458304 -2.484612 -166.75343
-2.3152452 -166.09102 -25.978823 -7.8782449 -22.581923 67.906288 -21.679161 72.572113
-26.199173 -11.865618 -2.4776306 -168.17413 -21.745111 71.655029 -21.201265 57.307384
270000000 -18.109728 6.6995497 -16.84919 18.57583 -2.4017286 119.93307 -24.155485 -89.771034
-16.937656 18.47587 -16.383919 13.177361 -24.141653 -86.837418 -2.574368 118.23373
-2.4543805 119.29614 -24.172369 -89.721474 -18.398888 30.766796 -16.422548 24.143936
-24.391047 -90.905815 -2.6180177 116.97852 -16.376951 23.084774 -17.885767 25.926105
280000000 -32.179165 118.35792 -31.788706 96.404747 -2.3122883 44.07653 -25.793434 -168.93613
-31.838999 96.235992 -30.098507 72.027328 -25.745173 -164.95932 -2.5392463 42.907619
-2.3740268 43.524231 -25.810812 -166.07822 -26.218372 39.96648 -28.070543 26.177416
-25.816143 -169.08022 -2.5403669 41.324055 -27.796015 24.295477 -24.059494 25.246881
290000000 -17.022324 36.685738 -15.883828 44.505474 -2.5202692 -31.240046 -24.327354 120.51235
-15.966141 44.497635 -15.672029 36.524246 -23.888746 123.16719 -2.6991737 -32.493027
-2.557148 -31.65501 -23.969055 120.95753 -18.049639 49.854885 -16.372263 48.701805
-24.348509 119.58556 -2.7051077 -34.087021 -16.325027 46.843838 -18.19927 44.794395
300000000 -23.870644 -35.723114 -22.416843 -20.983292 -2.40115 -105.70546 -24.298855 30.946409
-22.543512 -20.857336 -21.759813 -20.953558 -24.650423 31.621819 -2.5933204 -106.97122
-2.4489975 -106.30057 -24.602188 31.535551 -21.246567 15.066727 -19.893518 1.7254379
-24.603653 30.63191 -2.6305618 -108.68111 -19.936577 -0.038164672 -19.785406 11.465269
310000000 -19.553942 64.195328 -18.109482 71.825638 -2.5049071 178.22569 -25.17201 -36.993744
-18.188732 71.858948 -18.420961 59.061146 -25.216099 -33.816723 -2.6825793 176.55553
-2.5346942 177.52785 -25.064398 -34.774517 -21.250645 62.859535 -19.40222 65.223503
-25.304743 -37.830528 -2.6636748 175.14139 -19.490742 63.938473 -22.29763 51.268566
320000000 -18.578394 -5.2976532 -16.882856 7.9858394 -2.5510805 103.53315 -24.625729 -119.79171
-16.975615 7.9658012 -17.411366 2.3096375 -24.223024 -117.63297 -2.711472 101.91519
-2.5604324 103.05202 -24.280243 -119.49226 -18.534882 28.14064 -16.445681 18.282228
-24.484848 -120.00706 -2.7057159 100.40552 -16.493975 16.063158 -18.371346 26.393011
330000000 -26.777786 91.685989 -25.00626 87.366913 -2.4903884 27.335642 -26.146269 170.89633
-25.063494 87.410965 -24.17128 70.695328 -25.941807 172.90149 -2.6927018 25.666176
-2.5343657 26.666643 -26.086178 172.51109 -24.067656 49.450523 -24.744703 53.423813
-26.129992 170.6351 -2.6674378 23.997849 -24.835327 52.7342 -23.848829 34.69104
340000000 -16.942648 22.525799 -15.193774 32.390713 -2.7083964 -47.255947 -23.600401 96.167305
-15.273747 32.359383 -15.562031 24.087584 -23.303102 97.488403 -2.8801086 -49.316666
-2.7440295 -47.78109 -23.254641 95.461166 -18.02615 42.679279 -15.594081 37.30722
-23.50395 95.079376 -2.9033689 -50.670071 -15.548438 35.926537 -17.951378 39.43911
350000000 -28.184843 -35.905899 -25.174458 -16.877504 -2.5577021 -122.56664 -24.737062 10.050067
-25.281082 -16.785416 -24.786713 -12.131659 -25.024166 10.876626 -2.7575009 -123.97381
-2.5730963 -123.06008 -24.871271 8.4714651 -22.850641 19.098042 -22.146181 1.981227
-24.787323 8.5703688 -2.7380545 -125.7557 -22.153099 -0.10632385 -21.233854 11.332033
360000000 -18.071026 49.044258 -16.370531 56.870838 -2.7445452 161.54129 -24.008879 -54.976147
-16.444263 56.80727 -16.8605 45.851227 -23.873182 -52.850525 -2.9278557 159.47427
-2.779922 161.02632 -23.943253 -53.597649 -19.364481 57.118099 -17.137053 56.201824
-24.056515 -54.915932 -2.9283419 158.13188 -17.12789 54.251049 -20.058321 51.45866
370000000 -19.953789 -15.183017 -17.556055 -3.3028591 -2.6238413 87.496704 -23.285124 -143.88329
-17.650709 -3.3255165 -18.466908 -6.2662563 -23.410463 -143.38725 -2.9059935 85.861115
-2.7062662 86.95005 -23.319736 -144.88896 -19.241329 23.155863 -17.113287 9.2857695
-23.381195 -144.38174 -2.8817961 84.15303 -17.044582 7.2139411 -18.458878 20.818924
380000000 -21.675419 69.306564 -20.810076 71.91819 -2.7032328 11.02635 -24.534994 150.94957
-20.861404 71.878159 -20.244415 58.493275 -24.668095 151.85629 -2.9146693 8.8279142
-2.7585404 10.308191 -24.666277 151.27882 -22.134825 64.663116 -21.43082 62.75597
-24.582933 150.37589 -2.9167356 7.3636141 -21.412556 61.83923 -23.062771 46.963936
390000000 -16.662964 7.2956076 -15.041454 17.333456 -2.8406224 -62.757629 -22.117529 70.3899
-15.132513 17.260193 -15.476829 10.50817 -22.000925 71.693733 -3.1580498 -65.124504
-2.911586 -63.577751 -22.050823 70.132767 -17.530756 41.894665 -15.461976 30.007914
-22.136374 69.950592 -3.1181951 -66.611511 -15.445257 28.331944 -17.259157 36.511219
400000000 -35.488796 1.0320299 -29.75374 10.9845 -2.7024105 -139.03523 -23.955091 -11.990498
-29.832531 11.17493 -26.391304 8.7653818 -24.111982 -10.961711 -2.9084949 -140.76735
-2.7374678 -139.47832 -23.993116 -12.612436 -23.008665 36.600674 -23.393272 24.376005
-23.927826 -12.744771 -2.9123752 -142.42444 -23.498158 22.185907 -21.816002 14.758251
410000000 -17.293627 35.599026 -15.410285 42.70116 -2.9521596 145.86536 -22.525675 -77.950897
-15.494727 42.619244 -16.361744 31.975786 -22.533363 -76.995483 -3.1372936 143.74794
-2.9783466 145.19196 -22.474506 -78.240532 -17.766018 53.435673 -15.354059 47.228355
-22.557396 -78.5681 -3.1736615 142.0598 -15.461846 45.971851 -18.654629 48.577442
420000000 -21.265867 -23.614922 -18.888931 -13.872609 -2.7688074 71.614456 -22.533123 -166.32916
-18.975252 -13.92441 -19.393675 -12.411083 -22.483158 -166.76288 -3.069098 69.359673
-2.8288395 70.805611 -22.427364 -168.1819 -19.98827 23.426786 -18.352901 7.8700457
-22.470243 -167.97165 -3.0199919 67.91433 -18.329092 6.3215604 -19.081652 14.611824
430000000 -20.096336 58.536407 -18.512184 65.536766 -2.9452636 -5.0296755 -23.225344 129.40576
-18.568718 65.406097 -19.564178 46.655182 -23.296144 131.15442 -3.1640069 -7.3344808
-2.9648089 -5.8623223 -23.239891 128.89578 -19.753054 62.037716 -17.62434 57.995411
-23.313192 128.43109 -3.1407011 -8.9504108 -17.593153 56.24345 -21.647007 50.675735
440000000 -17.377813 -2.8691204 -15.307423 6.7253265 -3.016212 -78.688339 -21.025803 46.563198
-15.396495 6.6717238 -16.837845 -1.6709193 -20.868824 46.983234 -3.2910044 -80.681824
-3.0574203 -79.352867 -20.94948 45.789158 -17.596321 33.559368 -15.361202 18.550343
-21.048002 46.104191 -3.2862494 -82.26313 -15.350369 17.227707 -17.658199 29.297455
450000000 -27.904774 63.186817 -26.123053 62.418232 -2.8723395 -155.72028 -23.39892 -30.621124
-26.197847 62.347919 -24.926445 44.773258 -23.239061 -30.453127 -3.1274014 -157.38309
-2.9097514 -156.00577 -23.308306 -31.085308 -22.741661 49.475601 -22.099829 44.780922
-23.358198 -30.956043 -3.0924551 -159.24597 -22.01441 43.327633 -23.244884 27.141247
460000000 -16.35981 20.309889 -14.417588 29.420132 -3.1594834 129.9532 -20.8566 -96.791771
-14.504268 29.292345 -15.805869 17.351934 -20.78891 -96.50309 -3.5278416 127.74198
-3.2262633 129.45146 -20.812214 -98.184196 -16.87538 45.841713 -14.550556 34.37365
-20.834969 -97.553238 -3.5012956 126.16187 -14.498601 32.892883 -17.650209 39.400745
470000000 -24.046736 -31.536398 -21.747772 -20.072832 -2.895056 55.140903 -21.578718 172.14401
-21.835867 -20.128185 -22.601545 -18.038069 -21.587088 172.49637 -3.1669226 53.2551
-2.962415 54.661438 -21.656063 170.9492 -20.510197 24.786898 -19.459518 9.2515306
-21.689381 171.03238 -3.1492877 51.500984 -19.38722 7.4922848 -19.58913 11.378953
480000000 -17.76285 40.894035 -15.812056 50.554844 -3.1827729 -21.329224 -21.945335 113.01687
-15.884483 50.399456 -17.019512 35.129215 -21.753481 113.49509 -3.4841306 -24.241213
-3.226562 -21.929888 -21.711336 112.42023 -18.101906 58.210602 -15.671858 49.148643
-21.82951 113.26954 -3.4731443 -25.607666 -15.664409 47.585541 -19.718761 48.032539
490000000 -17.805454 -17.794268 -15.728343 -5.4659023 -3.151335 -94.702599 -19.920494 24.738258
-15.826616 -5.5526209 -17.615126 -13.395104 -20.125763 24.859249 -3.4248445 -96.761353
-3.1883399 -95.127083 -20.023855 24.137577 -17.284678 30.669523 -15.781926 12.48607
-20.038801 24.109232 -3.4272478 -98.084244 -15.733556 10.911977 -17.263979 22.789898
500000000 -24.249058 69.379341 -21.149549 67.329079 -3.0529687 -172.14294 -22.837124 -44.794147
-21.228954 67.276154 -22.273264 52.357651 -22.662016 -42.537724 -3.2789524 -175.03
-3.1242311 -172.58269 -22.589895 -45.105366 -19.901859 48.470448 -18.824636 50.053364
-22.946318 -45.488167 -3.3225479 -176.41029 -18.855047 48.403759 -21.717983 32.016296
510000000 -16.570175 11.052545 -13.982568 15.525233 -3.3692198 113.96249 -19.616678 -115.31718
-14.076674 15.443808 -15.928835 5.7576494 -19.680447 -116.42226 -3.7919321 111.65997
-3.4278743 113.69199 -19.603447 -117.38922 -17.091164 33.500469 -14.14795 22.673838
-19.660009 -115.95644 -3.7935841 110.26171 -14.16293 21.088284 -17.548246 25.953388
520000000 -29.108791 -8.1201792 -26.354874 -10.588499 -3.0287049 38.689125 -21.339737 153.64084
-26.444836 -10.508714 -26.073717 -4.6132317 -21.56138 155.10999 -3.2866571 36.006702
-3.1080358 37.990726 -21.437078 154.0984 -22.173084 32.898735 -20.868675 17.725319
-21.469664 153.93518 -3.3154693 34.599277 -20.88195 16.274488 -21.824549 7.8901563
530000000 -16.123997 29.124638 -14.100525 36.408329 -3.5103958 -37.697014 -20.316877 101.42969
-14.186918 36.311539 -15.484355 23.166727 -20.322552 100.95381 -3.8754354 -41.357407
-3.538846 -38.169773 -20.310778 99.708702 -17.205267 48.708023 -14.326141 37.58279
-20.419415 101.23937 -3.878576 -42.498802 -14.325705 36.124039 -17.930889 39.13781
540000000 -18.898891 -23.529926 -16.843739 -17.223322 -3.2606592 -110.6375 -19.138336 6.4560003
-16.939447 -17.280033 -18.524473 -22.917559 -19.394762 6.4716039 -3.606555 -113.34197
-3.3326607 -111.12901 -19.270157 5.6759305 -18.536005 21.10364 -16.798908 4.7089515
-19.220053 6.1020966 -3.6240864 -114.31324 -16.721439 3.4755094 -18.254076 8.6321554
550000000 -19.912409 47.208549 -17.497444 55.846088 -3.3275192 171.03053 -22.235233 -55.087845
-17.574862 55.784077 -19.084509 38.954487 -21.912354 -55.609432 -3.6518526 167.71916
-3.3846486 170.68094 -21.89267 -56.819046 -19.397472 55.789658 -16.496403 50.61338
-22.16777 -56.060097 -3.622889 166.28796 -16.506582 49.432037 -21.308626 48.65255
560000000 -16.306675 -6.9929008 -13.65803 0.23229103 -3.6189084 98.293793 -18.514858 -131.22116
-13.747624 0.14334989 -15.542803 -10.91293 -18.781296 -131.12509 -4.097784 94.523125
-3.6791515 97.682945 -18.794508 -132.41316 -17.11084 28.884218 -14.007987 11.933426
