!Keysight Technologies,N5231B,MY57181281,A.17.25.05
!Date: Friday, March 07, 2025 16:26:39
!Correction: S11(C  4-Port  ) 
!S12(C  4-Port  ) 
!S13(C  4-Port  ) 
!S14(C  4-Port  ) 
!S21(C  4-Port  ) 
!S22(C  4-Port  ) 
!S23(C  4-Port  ) 
!S24(C  4-Port  ) 
!S31(C  4-Port  ) 
!S32(C  4-Port  ) 
!S33(C  4-Port  ) 
!S34(C  4-Port  ) 
!S41(C  4-Port  ) 
!S42(C  4-Port  ) 
!S43(C  4-Port  ) 
!S44(C  4-Port  ) 
!S4P File: Measurements: <S11,S12,S13,S14>,
!<S21,S22,S23,S24>,
!<S31,S32,S33,S34>,
!<S41,S42,S43,S44>:
# Hz S  dB   R 50
10000000 -25.413656 5.1764727 -25.137417 32.406677 -0.58139658 -78.521317 -28.848066 145.22751
-25.124233 33.470936 -25.644293 3.3404922 -30.159761 144.68932 -0.60769516 -78.708168
-0.59467971 -78.551987 -29.971058 142.8139 -24.551556 -34.049171 -27.399736 1.2921981
-29.721876 143.31055 -0.58700413 -78.469002 -27.336512 -8.5734291 -25.341154 -28.621073
20000000 -24.96196 -28.428345 -24.621206 -23.429111 -0.88971621 -151.90356 -26.495737 -8.3086786
-24.418104 -24.203453 -25.401094 -28.161066 -26.508282 -1.8093239 -0.84850472 -151.58357
-0.86596388 -151.87489 -26.922832 -2.8065312 -29.472607 -2.8750751 -26.826622 -13.086132
-26.820341 -3.3904757 -0.85537499 -151.91229 -27.931372 0.84889752 -28.295099 -19.103912
30000000 -24.693079 38.980602 -23.61772 46.613747 -0.78976256 129.6115 -29.971048 -8.9098988
-23.508612 47.549599 -25.049368 35.456581 -31.023611 -8.7482929 -0.81506675 129.54659
-0.79694068 129.60028 -31.030602 -10.622857 -25.623695 1.0051838 -25.271103 22.723303
-30.822006 -9.4442501 -0.79379576 129.71869 -25.33119 16.623438 -26.201056 8.2276878
40000000 -19.693224 6.4678164 -19.826866 7.6038337 -1.4768003 54.574478 -21.720861 -130.96317
-19.086178 6.5223947 -20.735394 6.0024004 -21.818333 -121.7814 -1.4700477 55.679379
-1.4470304 54.834305 -22.752649 -123.50138 -29.627703 91.611397 -25.906885 34.173317
-22.149982 -123.7486 -1.3801854 54.907784 -28.73045 75.805099 -27.710943 39.67804
50000000 -28.397955 12.838446 -27.872036 27.194485 -1.0182947 -19.548599 -29.034184 124.361
-27.980352 26.495922 -28.410099 11.618924 -29.523642 124.67062 -1.0233433 -19.379295
-1.0075763 -19.534599 -29.72624 124.76244 -29.512232 3.885253 -29.341429 20.384523
-29.68137 123.41142 -1.0028287 -19.516399 -29.506565 22.918127 -29.886717 2.5009885
60000000 -20.702734 9.6305323 -20.512207 14.262132 -1.4710621 -96.553398 -23.368734 78.110062
-19.776939 10.588692 -21.741392 10.515594 -23.65274 83.630455 -1.4952979 -95.832436
-1.442786 -96.388809 -24.838312 85.589211 -44.586418 168.67244 -28.132151 34.140182
-24.075699 82.660583 -1.3840311 -96.502968 -39.096397 58.005367 -32.014427 39.319492
70000000 -27.491611 -28.519659 -27.401815 -15.762386 -1.256367 -169.1329 -24.460226 -42.785694
-28.653038 -23.65468 -26.610588 -24.340109 -24.571898 -42.689449 -1.2407707 -168.87473
-1.254153 -169.29129 -24.5818 -35.692795 -26.962219 2.148973 -27.477537 1.6451377
-24.80792 -40.6366 -1.2951381 -169.28471 -27.374641 10.132475 -27.12912 -6.9677482
80000000 -25.17009 10.313325 -23.290815 19.194126 -1.2522897 113.53217 -28.288898 -96.247055
-23.538757 16.580072 -25.076614 8.5627737 -28.725973 -100.42838 -1.2894832 113.72696
-1.2531325 113.40292 -28.95212 -91.606514 -30.672434 -0.065496355 -26.05476 23.019812
-29.10667 -97.023712 -1.2716579 113.37141 -27.836157 22.3281 -29.427711 11.80622
90000000 -27.861591 2.8537624 -25.83433 6.6672034 -1.4108543 38.102612 -25.72743 -172.2058
-28.262724 6.1324558 -25.959669 -0.16872624 -26.835512 -173.26791 -1.4574267 38.707954
-1.4434298 37.999626 -25.106102 -164.43207 -28.744789 42.464203 -27.288088 28.882336
-26.393209 -168.84579 -1.5282501 38.29583 -27.994038 45.82325 -27.690432 26.072189
100000000 -25.962088 17.206566 -24.013748 25.745449 -1.3927726 -37.171169 -27.045452 100.68952
-24.044447 28.522976 -25.879185 8.8371201 -27.783211 100.7396 -1.3954959 -36.625881
-1.4124867 -37.132019 -26.70845 101.37948 -25.642019 6.4828024 -24.248293 23.852976
-27.409048 102.3907 -1.413174 -36.652634 -24.324856 27.492067 -26.596399 8.5931969
110000000 -27.009838 28.082254 -25.835896 18.098669 -1.4653327 -113.99333 -27.676983 54.320324
-26.476057 22.029423 -27.185793 14.444201 -29.405674 52.607182 -1.534813 -113.46828
-1.49431 -114.00989 -27.678553 52.362431 -42.773197 -8.1902857 -31.176832 11.646103
-28.741726 54.398788 -1.5309166 -113.45959 -34.717865 13.967465 -33.670605 18.177582
120000000 -21.613085 22.956974 -21.72497 27.983088 -1.8063078 170.71738 -23.333817 -26.746426
-21.234184 31.946787 -22.643938 14.16824 -24.457764 -21.104347 -1.8378568 171.93567
-1.8263952 170.9846 -23.669907 -29.245071 -21.940733 31.839327 -21.678493 33.463493
-24.089544 -23.549402 -1.8017042 171.95728 -21.338318 42.927864 -22.773836 21.566425
130000000 -25.357975 11.926729 -23.813009 9.0660229 -1.6542093 95.654358 -26.374821 -106.70703
-23.777399 11.364704 -25.679363 1.5150135 -27.353537 -107.61955 -1.6837183 96.198303
-1.662438 95.768906 -26.698252 -112.10033 -28.292271 -41.613701 -26.510561 -12.690382
-27.064543 -109.2416 -1.646286 96.350334 -27.177605 -14.696124 -29.313456 -24.182091
140000000 -21.408665 36.8148 -22.101706 42.489643 -1.9385859 18.954988 -22.41358 -168.37036
-21.556074 44.339039 -22.829306 29.37715 -24.217308 -161.58295 -2.062778 20.326813
-1.9755898 19.158485 -23.76779 -168.80453 -22.863447 67.775757 -22.198685 57.291836
-23.818163 -163.61449 -1.9419668 20.13393 -22.026114 73.366837 -23.062922 47.374088
150000000 -22.674231 -1.0288789 -21.52198 8.178688 -1.9731423 -53.825329 -22.695107 88.711159
-21.329603 7.409647 -23.482243 -6.5244269 -23.220474 92.145699 -1.9334089 -52.915554
-1.9662875 -53.670368 -23.299515 88.504715 -23.118729 -19.818216 -22.596125 -3.0411327
-23.080103 90.704659 -1.8946631 -53.184158 -22.441721 0.037752666 -24.77603 -20.970379
160000000 -24.81958 29.758343 -26.18231 32.125572 -1.9761152 -131.20351 -23.183397 36.307156
-25.551847 32.698803 -26.546766 22.91342 -24.860113 38.101761 -2.098027 -130.23448
-1.9924096 -131.14024 -24.834055 33.760509 -29.397886 107.24361 -28.584482 80.168732
-24.727186 37.493507 -1.9562845 -130.33594 -28.06699 100.30456 -28.914986 78.695419
170000000 -20.438135 8.7155094 -19.855368 22.532391 -2.2805231 154.95917 -20.662085 -55.412556
-19.669439 19.959017 -21.348574 6.0521698 -21.510778 -49.887951 -2.2774646 156.60434
-2.2686412 155.1693 -21.893488 -52.866772 -20.134512 12.375793 -19.885609 18.826645
-21.474682 -51.205509 -2.1808038 155.78889 -19.210701 26.230898 -21.455925 3.7925835
180000000 -26.023333 -1.8107111 -25.203497 -2.0332654 -1.9728894 79.365334 -23.91729 -133.70705
-25.059147 -2.3173921 -26.646545 -11.410194 -25.107775 -134.53491 -2.0437536 80.285469
-1.9767187 79.396179 -25.196022 -136.28203 -33.851368 -52.996971 -30.060625 -16.541746
-25.017248 -135.06847 -1.9444247 79.985245 -31.753677 -13.937748 -34.553673 -23.760231
190000000 -21.873816 38.929497 -20.971544 51.660583 -2.1883812 3.0369821 -22.054529 159.75476
-20.965015 49.819031 -23.070171 33.138229 -23.782206 164.77039 -2.2967246 4.8315501
-2.201103 3.1687887 -23.887623 163.44972 -21.004734 51.822533 -20.617208 51.267532
-23.612343 164.40733 -2.156899 3.9481056 -19.725067 61.656315 -22.350582 36.420414
200000000 -21.34141 0.34924757 -20.165606 4.2517152 -2.2004383 -70.952766 -22.167679 70.710312
-20.267378 3.3458314 -22.338478 -8.9422054 -23.281757 74.035652 -2.2089484 -69.444473
-2.1992385 -70.894249 -23.362846 73.879883 -21.709005 -20.207094 -21.127598 -9.3066635
-23.138094 74.172203 -2.1546957 -70.260368 -20.954985 -3.5456114 -23.986015 -23.970989
210000000 -26.119995 42.372318 -25.900255 62.05106 -2.1333628 -147.54552 -23.509882 5.924799
-25.964262 61.641815 -27.859762 42.895382 -25.395786 7.9296894 -2.2449398 -146.10744
-2.1487234 -147.5462 -25.337654 8.3044472 -28.574783 87.324135 -27.250706 81.71048
-25.18483 8.3596992 -2.1286943 -146.78877 -25.477158 91.312912 -28.884745 68.836456
220000000 -18.758013 20.570925 -17.54117 27.444899 -2.3198793 137.09723 -22.219063 -70.310616
-17.595488 26.898897 -19.572285 15.14262 -23.748077 -64.763725 -2.3848555 139.09229
-2.3420923 137.18886 -23.560165 -64.982307 -18.980846 16.976109 -18.29734 21.813429
-23.448385 -64.030731 -2.3061845 138.08205 -17.597357 28.356724 -20.80031 11.373603
230000000 -25.2264 -3.2418964 -26.40461 1.6848956 -2.2257795 61.977383 -23.739965 -150.66943
-26.486977 1.505162 -26.832867 -13.063088 -25.254599 -146.65674 -2.2628796 63.536831
-2.2387629 62.070595 -25.025742 -147.32426 -28.444433 -56.611244 -29.872854 -53.16441
-24.766972 -146.97145 -2.2091439 62.877983 -30.816269 -40.330688 -31.566669 -53.637932
240000000 -19.746674 37.577465 -18.126564 47.719658 -2.3798227 -14.21518 -22.864735 145.83064
-18.145872 47.391247 -20.532295 34.003998 -24.241327 150.62846 -2.4694345 -12.450997
-2.401581 -14.125923 -24.014565 149.89078 -19.944731 46.434517 -18.6448 53.684086
-23.989681 150.39488 -2.3820786 -13.163855 -17.906645 57.805653 -21.143385 42.678902
250000000 -19.796247 -6.5502701 -19.180182 -3.9788435 -2.4524627 -88.528877 -22.126173 61.306446
-19.248796 -4.4470224 -20.266657 -14.047752 -23.458712 64.130501 -2.4888983 -86.712242
-2.4712546 -88.381439 -23.219398 63.371048 -21.057835 -27.2106 -20.651127 -22.974672
-22.970009 64.943619 -2.4309402 -87.452194 -20.444372 -15.187634 -22.592264 -28.731382
260000000 -24.796524 46.371284 -22.565268 62.518032 -2.4253819 -164.57344 -23.115194 -7.6108356
-22.575386 62.584881 -26.602215 37.642128 -24.5529 -4.6677208 -2.504431 -163.05405
-2.4350936 -164.45221 -24.408577 -6.0330248 -24.246384 78.850258 -22.163769 90.188751
-24.213741 -6.1717992 -2.4148393 -163.55783 -21.389019 89.974594 -25.609234 72.844101
270000000 -18.038633 15.005466 -16.690886 17.085478 -2.5909116 120.66562 -21.6262 -86.917015
-16.737707 16.671432 -19.197159 8.4866056 -22.884747 -83.749748 -2.648942 122.58288
-2.6011155 120.81829 -22.767452 -84.924004 -17.952366 3.1926622 -17.254936 10.564724
-22.631292 -83.495544 -2.5666146 121.78075 -16.745062 15.434396 -19.827343 -2.0327518
280000000 -26.961411 -6.7496219 -28.988926 7.8266745 -2.5078146 45.811638 -22.586634 -169.59357
-29.155731 8.0873365 -28.105341 -13.476362 -23.70912 -166.88539 -2.5294948 47.384117
-2.5108597 45.923634 -23.597441 -168.01799 -36.502441 -37.757954 -50.663662 -142.5118
-23.342955 -167.40714 -2.4791796 46.778507 -42.91761 44.923237 -43.978508 -94.638977
290000000 -18.946291 39.513103 -17.136873 42.007851 -2.6446095 -29.809036 -21.810156 121.58366
-17.187695 41.921776 -19.994469 30.768087 -22.829361 122.87851 -2.712837 -28.099279
-2.6494756 -29.705711 -22.744709 122.2214 -17.781202 31.275198 -16.817223 42.092205
-22.731922 123.27276 -2.6330099 -28.737089 -16.294226 44.240185 -19.561932 32.12817
300000000 -19.519094 -5.6180773 -20.008358 -7.5702848 -2.6257768 -104.05995 -21.404543 35.623417
-20.159645 -7.5752974 -20.722683 -15.427398 -22.613277 36.169411 -2.6531909 -102.32924
-2.6206503 -103.94141 -22.491068 35.540966 -20.775288 -35.742153 -21.941582 -31.801744
-22.256681 37.056923 -2.5950882 -103.0482 -21.636557 -23.407963 -23.515041 -39.620335
310000000 -24.128988 40.717281 -20.837137 58.70874 -2.5786941 -179.72299 -22.469193 -40.277412
-20.824318 59.135582 -24.963745 34.866196 -23.458738 -39.011379 -2.6315644 -178.19041
-2.5793321 -179.67789 -23.388823 -39.058582 -24.187557 55.598106 -20.593287 76.298996
-23.289595 -39.105045 -2.5799861 -178.82214 -20.006664 74.461479 -25.104832 65.080322
320000000 -18.181646 13.102753 -17.027681 11.954171 -2.6454537 105.31416 -21.815659 -116.79155
-17.090542 12.165999 -19.025826 3.0576186 -22.842596 -117.38819 -2.6876271 107.10393
-2.6411643 105.39178 -22.72014 -117.81409 -18.333239 -5.6858454 -17.645882 4.2387271
-22.719334 -115.48035 -2.6308181 106.40274 -17.15357 7.989893 -20.409283 -2.8987339
330000000 -26.129553 11.05587 -26.632927 44.828808 -2.6200998 29.784369 -22.382208 164.48969
-26.489784 46.405033 -28.024879 -2.3732166 -23.537245 166.5517 -2.640975 31.605089
-2.6230326 29.807373 -23.418831 166.35388 -31.978764 -2.4712691 -32.77393 85.90831
-23.254932 167.65845 -2.610045 30.825962 -29.636101 67.308701 -38.362667 5.1101189
340000000 -18.375589 31.770985 -16.311729 33.508518 -2.7509615 -45.301548 -21.993835 91.982765
-16.311533 33.86533 -19.553265 22.616709 -22.554922 93.004692 -2.7471349 -43.580639
-2.7369175 -45.202324 -22.441689 92.310341 -18.328501 18.926729 -16.725853 34.158287
-22.564789 93.54351 -2.7268302 -44.145031 -16.207857 33.92551 -20.540873 25.727112
350000000 -20.434515 -2.4378433 -21.659122 -1.8191059 -2.704303 -120.12785 -21.93462 11.373469
-21.660604 -0.44365165 -21.884373 -16.441349 -22.71763 10.980227 -2.6993384 -118.53038
-2.6949415 -120.20451 -22.636665 10.828352 -22.841736 -37.992477 -25.109104 -32.574348
-22.617945 13.509993 -2.6777778 -119.13036 -24.346035 -22.015469 -25.834743 -36.007008
360000000 -20.990526 37.643768 -18.236965 49.607601 -2.8055255 164.34277 -21.952492 -61.549095
-18.152002 49.292709 -22.679985 33.522987 -22.473284 -60.184978 -2.7783222 165.95561
-2.8039024 164.3943 -22.324619 -60.887901 -21.660128 39.825008 -18.694338 62.854408
-22.330589 -59.459774 -2.7705898 165.46829 -18.231237 59.121586 -23.566759 51.185623
370000000 -18.21002 5.9477801 -17.766447 5.4691148 -2.8397627 89.973267 -21.197441 -141.11281
-17.711977 5.7649097 -19.572725 -2.4971709 -21.651718 -141.23865 -2.7912862 91.439018
-2.815876 89.867157 -21.668455 -142.04749 -18.890736 -16.197927 -18.757565 -5.5553179
-21.787453 -139.32538 -2.7697811 90.902161 -18.225945 -2.9417622 -21.45747 -10.399428
380000000 -23.991461 23.538082 -21.883106 53.032299 -2.8859472 13.948475 -21.723255 145.42088
-21.748585 51.912434 -26.59796 22.327009 -22.140566 147.80789 -2.8226755 15.676855
-2.8820519 13.970117 -22.084768 146.64247 -26.929201 28.497623 -23.654686 85.204865
-22.012699 149.02332 -2.8267376 15.094424 -23.108255 71.632828 -29.925375 61.649063
390000000 -17.419958 25.361921 -15.703929 24.515451 -3.0620143 -60.388451 -20.484343 71.316017
-15.684513 24.272894 -18.565025 20.931379 -20.594635 72.020187 -2.959219 -58.827599
-3.0159855 -60.352718 -20.69241 70.133591 -17.057867 4.0778408 -15.819873 21.912609
-20.80777 72.296402 -2.9424381 -59.28249 -15.437887 20.435259 -19.173988 14.407372
400000000 -19.964975 0.69143814 -21.850952 11.489294 -2.9000113 -135.62979 -21.140709 -10.747055
-21.703459 11.120227 -21.467754 -7.0280199 -21.380781 -10.310107 -2.8450613 -134.14717
-2.9025321 -135.72421 -21.416029 -10.723814 -23.979933 -39.043293 -29.861515 -25.568617
-21.39946 -7.7827063 -2.8430374 -134.67781 -27.334278 -12.702957 -27.513418 -44.325581
410000000 -19.502001 26.334768 -16.648476 36.355549 -3.1359825 148.8374 -20.577856 -78.437866
-16.696127 35.755348 -20.545963 22.260744 -20.601072 -77.783798 -3.0416389 150.48497
-3.1037595 148.89169 -20.711359 -79.18618 -19.566229 25.844547 -16.734371 48.927315
-20.738575 -77.391716 -3.0285876 150.02452 -16.485741 44.955727 -21.561869 42.650421
420000000 -18.206167 0.62086314 -18.156912 0.37253124 -3.0553839 74.940361 -19.861515 -161.55376
-18.157154 0.0081088832 -19.126411 -8.3399048 -19.992304 -162.06755 -2.9874408 76.273888
-3.0227361 74.625664 -20.309546 -162.63693 -20.046131 -29.332634 -20.134109 -16.812969
-20.319965 -159.79532 -2.964041 75.617844 -19.684103 -14.182261 -22.019886 -20.999445
430000000 -22.37199 12.905939 -19.887758 40.458477 -3.2362697 -1.3063192 -19.99157 128.614
-20.044157 40.038219 -24.43405 7.1625957 -20.05031 129.64749 -3.1019781 0.54647601
-3.2245128 -1.4073119 -20.185452 130.15845 -22.388319 26.765944 -19.952827 66.119675
-20.112377 131.60454 -3.1265182 -0.16422328 -19.353186 56.473984 -26.041807 43.702808
440000000 -18.815535 8.943716 -16.824604 10.909436 -3.3204589 -74.198753 -18.521492 47.577106
-16.8799 11.006283 -19.700594 5.021419 -18.49498 47.755238 -3.1171803 -73.152252
-3.2818673 -74.487984 -18.685314 47.738522 -18.228537 -13.015703 -16.918922 7.4035749
-18.731899 49.554966 -3.1438878 -73.73642 -16.551262 5.4030118 -20.739798 1.2296169
450000000 -22.930645 7.6773233 -22.769808 32.534508 -3.1214843 -151.35445 -20.248825 -29.79237
-22.836361 32.409454 -24.679892 -4.203732 -20.373331 -28.262814 -3.008461 -149.74025
-3.1193419 -151.45381 -20.419891 -27.899279 -26.307343 -5.2873468 -29.077005 52.963428
-20.39189 -26.362965 -3.0460424 -150.34219 -26.774494 41.011646 -30.255533 -3.8476431
460000000 -18.412289 21.950207 -15.870915 26.342907 -3.5349283 133.95203 -18.860561 -96.196846
-15.907692 26.543003 -20.058084 19.535017 -18.663553 -95.28746 -3.2897472 135.53287
-3.489697 133.79288 -18.812637 -95.775543 -17.350887 6.4330425 -15.68014 31.265072
-18.908363 -94.1586 -3.3315961 135.05318 -15.445187 27.091492 -20.271103 19.310915
470000000 -19.958834 -1.9230903 -20.435091 3.6726866 -3.1718547 59.360977 -19.311491 176.48494
-20.459312 3.7648456 -20.957483 -7.8507776 -19.402782 177.47136 -3.0652316 60.603729
-3.1668127 58.997372 -19.615757 177.88229 -20.799772 -33.883045 -22.426353 -20.279911
-19.627117 179.57788 -3.0973868 59.992039 -21.702734 -18.492205 -23.207432 -29.52504
480000000 -19.893116 26.299501 -16.727205 37.423985 -3.5795686 -17.467596 -19.476444 114.80768
-16.755699 37.682404 -21.739105 20.772638 -19.054398 116.57237 -3.3440166 -15.612
-3.5454776 -17.569515 -19.165684 116.23974 -19.516874 17.154961 -17.251417 53.590305
-19.287422 117.83665 -3.4167261 -16.024706 -17.091898 46.583843 -22.922777 33.740681
490000000 -18.820208 9.7165298 -17.305202 4.7307997 -3.5214601 -89.491943 -17.853437 30.381495
-17.331438 4.9526701 -19.732515 5.8002009 -17.673309 30.193747 -3.3021319 -88.804108
-3.4989817 -89.864914 -17.8456 30.338062 -17.870222 -30.297285 -16.998819 -6.6564531
-17.888121 32.300064 -3.3482811 -89.153053 -16.761812 -8.6779985 -20.364683 -17.969994
500000000 -20.244322 25.911625 -19.30374 41.555271 -3.478554 -168.15088 -19.892904 -39.655041
-19.281816 41.75452 -21.876064 17.129936 -19.685047 -36.713253 -3.3005135 -166.181
-3.4695868 -168.22795 -19.729937 -36.592369 -26.907904 28.439104 -23.470762 74.145752
-19.817215 -35.290211 -3.373225 -166.75983 -22.981449 62.852131 -32.5923 54.172813
510000000 -16.993324 10.278843 -15.430669 12.736075 -3.9390795 119.32144 -17.388416 -111.18264
-15.447934 12.95742 -18.412788 7.2605314 -17.022926 -111.29655 -3.6087761 120.37611
-3.9087994 118.99926 -17.136408 -111.03866 -16.371429 -6.1973457 -15.19535 17.425245
-17.218729 -109.07008 -3.6919441 120.08167 -15.128091 13.053844 -19.168625 9.6135292
520000000 -19.773565 -4.2532029 -21.258312 9.2119255 -3.4128463 43.574055 -18.579691 161.83875
-21.238331 9.5614805 -20.718773 -10.880566 -18.609615 162.2522 -3.3012755 44.82682
-3.4161165 43.382992 -18.672707 162.61861 -21.952936 -47.411758 -26.332937 -24.738916
-18.681772 164.24988 -3.3412983 44.366032 -25.429073 -23.202553 -24.556711 -45.75676
530000000 -18.286533 15.480166 -15.654399 26.358315 -3.9861751 -32.947178 -18.110321 101.66412
-15.66383 26.431799 -19.885729 9.1361732 -17.716473 102.45592 -3.6933219 -31.078133
-3.9373035 -33.211517 -17.846901 102.51308 -18.031775 11.767046 -15.62629 40.85582
-18.009945 104.39115 -3.7784853 -31.569155 -15.529073 35.724689 -21.269983 30.356138
540000000 -18.569246 -9.0006933 -18.261688 -7.4520411 -3.753489 -105.23995 -17.060247 15.206482
-18.225121 -7.1386037 -19.675865 -15.273659 -16.941454 14.478328 -3.5445111 -104.23885
-3.7543983 -105.56783 -16.991627 14.755564 -17.77277 -35.060555 -17.897331 -17.27067
-17.018644 17.314962 -3.6116219 -104.49762 -17.626394 -19.347889 -20.327772 -22.668839
550000000 -21.626574 30.086109 -18.186974 45.183903 -3.7548091 176.13763 -18.954292 -55.278992
-18.192017 45.000465 -23.67968 19.490877 -18.791824 -53.157906 -3.5424404 178.2141
-3.7214911 176.12364 -18.795774 -53.839703 -22.591393 15.684645 -19.674675 60.826447
-18.840004 -52.137718 -3.6244581 177.78363 -19.61899 53.49955 -26.748714 32.380596
560000000 -16.681688 5.6282458 -15.195494 5.0958486 -4.0836959 103.17636 -17.118944 -127.48279
-15.180732 5.3262143 -18.246199 -0.56645793 -16.855545 -127.74236 -3.8059299 104.46524
