!Keysight Technologies,N5231B,MY57181281,A.17.25.05
!Date: Friday, March 07, 2025 17:13:30
!Correction: S11(C  4-Port  ) 
!S12(C  4-Port  ) 
!S13(C  4-Port  ) 
!S14(C  4-Port  ) 
!S21(C  4-Port  ) 
!S22(C  4-Port  ) 
!S23(C  4-Port  ) 
!S24(C  4-Port  ) 
!S31(C  4-Port  ) 
!S32(C  4-Port  ) 
!S33(C  4-Port  ) 
!S34(C  4-Port  ) 
!S41(C  4-Port  ) 
!S42(C  4-Port  ) 
!S43(C  4-Port  ) 
!S44(C  4-Port  ) 
!S4P File: Measurements: <S11,S12,S13,S14>,
!<S21,S22,S23,S24>,
!<S31,S32,S33,S34>,
!<S41,S42,S43,S44>:
# Hz S  dB   R 50
10000000 -21.037575 -69.916542 -23.497368 -89.084099 -1.6403815 -64.839722 -15.967695 150.36726
-23.620724 -89.643402 -20.846737 -68.384056 -15.877379 151.47108 -1.6800419 -64.650116
-1.6445476 -64.745605 -15.896345 151.20752 -13.061143 35.880283 -13.493546 43.17749
-15.969049 150.78329 -1.6651859 -64.770706 -13.528727 43.689793 -13.055371 34.711693
20000000 -20.544186 -0.2365001 -20.170147 13.333111 -1.0614948 -113.693 -21.408363 22.338818
-20.185684 13.048653 -20.244026 0.52562284 -21.230473 22.072762 -1.0842903 -113.71983
-1.0574389 -113.72946 -21.266308 22.089548 -15.183278 -37.370815 -15.740993 -32.267883
-21.374977 22.258654 -1.0829182 -113.67886 -15.740301 -32.339886 -15.239573 -37.042679
30000000 -34.25684 26.806513 -34.223473 24.830948 -0.74037796 -174.84171 -33.234715 -13.093456
-34.258484 26.065151 -32.894604 21.001562 -33.32523 -14.79952 -0.77496183 -174.76073
-0.74058646 -174.84404 -33.134796 -15.648194 -31.890841 0.32979017 -32.146122 -0.95021462
-33.267345 -14.474405 -0.77177435 -174.70483 -32.331165 -1.7247415 -30.778963 -1.0625713
40000000 -23.338015 5.7814322 -24.943634 15.194487 -1.453458 123.58159 -20.400963 -23.573317
-24.800476 15.163456 -23.132246 5.0012598 -20.144384 -23.372835 -1.4643559 123.81916
-1.4424847 123.64592 -20.227251 -23.600277 -15.427717 39.146049 -15.746491 41.609371
-20.362219 -23.398018 -1.4667665 123.77789 -15.694352 42.180702 -15.641005 37.788536
50000000 -21.878845 -7.4433908 -21.78681 2.9923363 -1.6557184 70.183189 -20.317875 -119.18739
-21.851248 2.5940933 -21.545397 -5.9072509 -20.220228 -120.01193 -1.6898854 70.252472
-1.6535913 70.132576 -20.243664 -119.8028 -14.20787 -11.147127 -14.352931 -9.7299938
-20.297518 -119.39097 -1.6860771 70.287903 -14.325788 -9.5084572 -14.242403 -10.969131
60000000 -29.707853 -6.6947818 -29.296619 -6.6993585 -1.2610929 13.678335 -23.935686 157.42831
-29.500923 -5.7268229 -28.273075 -7.4507265 -24.11269 156.7775 -1.3174149 14.003603
-1.2668842 13.731054 -23.854467 156.36433 -22.318758 -40.862976 -22.303772 -43.256062
-24.009418 156.87038 -1.3089664 14.053759 -22.433914 -43.437428 -21.766296 -40.983604
70000000 -20.828968 14.754961 -21.692509 21.369923 -1.3045901 -47.791626 -25.830345 157.14398
-21.615141 21.142323 -20.762777 13.35328 -25.576139 158.26039 -1.3260825 -47.40749
-1.2966104 -47.731537 -25.817862 156.43196 -18.438408 32.995689 -18.92588 35.559345
-25.885881 157.32066 -1.3169436 -47.345661 -18.783278 35.826912 -18.829226 32.078552
80000000 -22.89941 -43.960121 -23.848129 -34.832897 -1.8505602 -105.51338 -20.306831 89.311646
-23.974226 -35.17701 -22.66296 -42.519302 -20.268652 89.241562 -1.8863117 -105.24629
-1.8509209 -105.5094 -20.32555 89.010368 -14.554345 4.8941798 -14.640842 5.8607039
-20.368969 89.423935 -1.8658019 -105.24577 -14.636161 5.8401194 -14.575717 5.7679787
90000000 -26.16921 49.007778 -25.98604 50.174831 -2.0170448 -159.32471 -19.302456 1.0696956
-25.99703 49.958824 -25.748705 46.724037 -19.204432 1.4884825 -2.0532317 -158.86024
-2.007894 -159.23167 -19.147495 0.70190668 -16.935944 -33.283882 -17.066572 -34.750328
-19.28134 1.2365829 -2.0634553 -158.86145 -16.985312 -34.649799 -16.641088 -32.581242
100000000 -21.074799 13.008179 -22.315985 19.890697 -1.5025849 141.09167 -26.304386 -48.18343
-22.152201 20.03825 -21.258318 12.66152 -26.144463 -44.949348 -1.5166265 141.73137
-1.483529 141.22203 -26.44265 -49.482414 -20.582033 21.95142 -21.390158 22.627298
-26.437292 -48.237457 -1.4995515 141.82509 -21.138409 22.66855 -21.075352 18.612448
110000000 -22.985413 -57.013729 -24.951187 -50.295406 -1.9339579 80.680756 -20.959875 -73.664413
-24.982304 -50.784969 -23.162666 -53.432838 -20.693224 -73.978821 -1.9349452 81.100143
-1.9131782 80.685181 -20.959532 -73.256859 -15.793252 12.789693 -16.123264 12.806987
-21.002214 -73.181976 -1.909482 81.054863 -16.107847 12.203663 -15.918633 13.29403
120000000 -21.814322 74.186653 -21.137409 75.039932 -2.6254351 26.21048 -17.185677 -156.55766
-21.224436 75.011978 -21.391121 71.565498 -16.973188 -157.08795 -2.6418219 26.533737
-2.6069512 26.202036 -17.010614 -157.16653 -14.577106 -17.210215 -15.01031 -17.755911
-17.109837 -156.52962 -2.6610968 26.534138 -14.890375 -18.2096 -14.461962 -16.578341
130000000 -19.989872 9.7735949 -20.838255 14.19599 -1.9607196 -29.558723 -21.568806 123.16109
-20.706415 14.961709 -19.996626 7.9478874 -21.473143 124.93177 -1.9713588 -28.820448
-1.9206632 -29.447958 -21.672781 121.34673 -21.395243 -6.7102027 -22.243889 -6.8096409
-21.667477 122.741 -1.9467921 -28.674879 -21.912472 -7.0142055 -21.707676 -11.885105
140000000 -22.537874 -51.047867 -24.285383 -43.193459 -2.0566583 -91.260422 -21.716568 109.16446
-24.192459 -44.336243 -22.753305 -47.444729 -21.445683 107.96017 -2.0453191 -90.825569
-2.0251839 -91.452278 -21.784172 110.42828 -17.367313 10.65338 -17.509972 9.9733906
-21.76754 109.94078 -2.0156484 -90.88105 -17.62199 8.6431942 -17.456482 11.132268
150000000 -20.348518 84.355736 -19.841728 84.623268 -2.9771492 -147.61073 -16.288269 37.206059
-19.852528 84.819221 -20.159817 82.184174 -16.132179 36.516579 -2.9826524 -147.32716
-2.9675877 -147.69237 -16.154741 36.851345 -14.192181 -8.7622766 -14.596547 -9.5894232
-16.23037 37.185764 -2.9935365 -147.33479 -14.554523 -9.9727869 -14.135936 -8.3144188
160000000 -17.849705 11.54701 -18.509806 15.295259 -2.5020437 159.81499 -18.030186 -50.111885
-18.455564 15.817303 -17.766907 10.091696 -17.932884 -50.459854 -2.5352948 160.35149
-2.4657304 159.71913 -18.143797 -51.500072 -19.571245 -34.52145 -19.842495 -34.668686
-18.110115 -50.552998 -2.5043817 160.48589 -19.765276 -36.012184 -19.163324 -37.09338
170000000 -20.419752 -36.333179 -21.99795 -27.416542 -2.1654103 98.342255 -22.301315 -83.633026
-21.883848 -28.7062 -20.665762 -34.036179 -22.285757 -84.515778 -2.1849918 98.823135
-2.1621051 98.015213 -22.555319 -81.718437 -19.406137 3.5136063 -19.37048 0.23941819
-22.339228 -82.535927 -2.1510038 98.75605 -19.642151 -0.60565245 -19.462173 2.1899345
180000000 -24.052135 94.584061 -22.801018 94.762978 -2.9302852 39.187187 -17.13925 -131.53105
-22.704048 94.792381 -23.986185 93.423355 -17.068619 -131.55151 -2.9410412 39.654903
-2.945683 39.131641 -17.016459 -131.10497 -15.310236 0.60717666 -15.995104 -0.9305262
-17.0891 -131.64879 -2.9389429 39.55265 -16.014971 -0.70574087 -15.389584 0.16341557
190000000 -16.795849 22.195467 -17.08968 27.581625 -3.0270371 -13.24218 -16.4165 147.01627
-17.056528 27.815687 -16.748951 22.661146 -16.389627 146.36371 -3.0764933 -12.871896
-3.0217285 -13.338055 -16.451441 146.55515 -16.430861 -35.201256 -16.679195 -33.708748
-16.41927 146.80174 -3.0619752 -12.799313 -16.763805 -34.798042 -15.965664 -35.466
200000000 -18.048513 -28.804752 -19.329348 -20.944014 -2.424891 -71.991455 -20.323828 86.373695
-19.25786 -21.645132 -18.336851 -26.364777 -20.533684 86.638428 -2.4722922 -71.276901
-2.4366667 -72.181877 -20.661058 87.839508 -20.504995 -10.341963 -20.326313 -15.472254
-20.399813 86.914146 -2.4430802 -71.395073 -20.545752 -14.987317 -20.510651 -16.829632
210000000 -34.576801 164.16252 -30.445791 134.01204 -2.7716844 -132.49854 -18.991302 52.501152
-30.28022 132.34341 -34.828011 145.8336 -18.859659 53.284161 -2.7650602 -131.86725
-2.7828405 -132.49887 -18.782263 53.523888 -17.131697 -1.3829212 -18.362988 -3.9584045
-18.954081 52.363792 -2.7694945 -131.92566 -18.378109 -3.5427685 -17.712231 -3.6687193
220000000 -17.67857 44.239914 -17.116171 51.17807 -3.199084 171.89868 -16.699465 -13.359199
-17.101849 51.223377 -17.215708 44.092579 -16.696671 -13.755449 -3.2344189 172.16312
-3.2019916 171.828 -16.698759 -13.556632 -15.464858 -27.890945 -16.100443 -24.57445
-16.688749 -13.365053 -3.2287481 172.17137 -16.155952 -24.98476 -15.485298 -27.959801
230000000 -16.471027 -16.693666 -16.877504 -8.8518753 -2.7930229 116.24973 -18.418688 -84.801758
-16.817198 -9.0511522 -16.147211 -15.02518 -18.712683 -84.81282 -2.876663 116.92012
-2.8066986 116.12971 -18.753834 -84.305252 -20.181345 -31.055286 -19.6509 -31.08732
-18.461821 -84.61853 -2.8502386 116.87947 -19.857336 -30.533524 -19.996258 -35.100407
240000000 -27.165361 -113.84705 -29.599735 -122.88434 -2.63908 55.876648 -20.790514 -126.01545
-29.780205 -123.37048 -27.279488 -104.4576 -20.736166 -123.58584 -2.6480241 56.76759
-2.6455989 55.877628 -20.660252 -123.56889 -20.53651 -7.8004365 -21.568256 -14.756484
-20.750126 -126.20194 -2.6515961 56.763981 -21.612379 -14.604611 -20.84053 -13.09833
250000000 -18.086313 71.221931 -17.410475 76.695679 -3.0876858 -3.6499836 -17.865124 -169.38689
-17.399212 76.699471 -18.328373 68.830963 -17.824232 -168.97728 -3.0817349 -3.1993716
-3.0968559 -3.7036834 -17.807093 -168.9707 -15.836383 -8.740181 -16.446579 -5.5612645
-17.840826 -169.25636 -3.0746031 -3.213614 -16.494532 -5.4077935 -16.152588 -11.225625
260000000 -14.534048 2.0895784 -14.727489 9.1413965 -3.2432611 -57.917915 -17.17045 116.48463
-14.705594 9.026844 -14.551551 1.4351078 -17.331739 116.70592 -3.3058348 -57.502632
-3.2547972 -57.928673 -17.330811 116.70851 -17.445854 -35.036289 -17.031078 -35.104065
-17.159384 116.3302 -3.2930701 -57.484333 -17.124102 -34.825188 -17.595928 -40.772224
270000000 -20.023661 -83.279137 -21.687387 -83.159584 -2.9321561 -115.99134 -19.24197 59.577213
-21.765316 -83.103142 -20.086079 -84.890053 -19.358276 61.73933 -2.9847884 -115.14237
-2.9320726 -115.9827 -19.328619 61.615887 -20.966467 -30.870478 -21.595209 -43.111858
-19.233938 59.468578 -2.9901025 -115.14896 -21.612209 -43.481236 -22.254696 -37.766888
280000000 -19.709404 92.215523 -18.154348 94.189003 -3.0462768 -176.53818 -18.523186 22.441212
-18.158266 94.274025 -19.185482 90.562531 -18.537304 23.350161 -3.0580249 -175.88739
-3.0547175 -176.56633 -18.54171 23.188366 -17.300629 -4.1651196 -18.48662 2.5106425
-18.499382 22.705742 -3.0491552 -175.90681 -18.497717 2.9257154 -17.922478 -1.8211054
290000000 -14.31313 19.963762 -13.850858 26.763306 -3.4126647 127.63532 -16.880161 -45.471741
-13.833778 26.738361 -13.938359 20.829947 -17.108347 -44.900742 -3.4688778 128.15054
-3.4223173 127.64227 -17.129892 -45.011063 -16.036308 -33.477882 -15.844566 -29.326418
-16.846708 -45.612785 -3.461318 128.1727 -15.878876 -29.117813 -16.135696 -34.299717
300000000 -16.561253 -51.623936 -17.075018 -45.238228 -3.192564 70.613029 -18.162325 -105.71072
-17.096869 -45.377823 -16.156261 -48.35405 -18.488781 -103.53568 -3.2699778 71.471161
-3.1924431 70.628395 -18.522852 -103.52232 -19.124266 -50.207764 -18.689009 -56.472
-18.16984 -105.96603 -3.2623994 71.478622 -18.728519 -56.604454 -19.139019 -55.461765
310000000 -22.62888 130.33852 -20.96913 125.35829 -3.1130302 10.077683 -18.459026 -144.85179
-20.936991 125.45428 -23.404625 127.70115 -18.488392 -142.21445 -3.1182134 11.114781
-3.1187696 10.067316 -18.511267 -142.24277 -19.191704 -9.9692755 -21.158573 -4.2470245
-18.432024 -144.50487 -3.1063762 11.051404 -21.131449 -3.7444737 -20.388422 -11.212215
320000000 -14.197955 36.218987 -13.505981 42.222061 -3.5979946 -47.357319 -16.259336 153.65578
-13.491396 42.260502 -14.036038 35.858803 -16.450399 154.81194 -3.5969028 -46.74371
-3.6029708 -47.33894 -16.491066 154.74443 -14.901968 -35.302277 -15.094924 -29.319721
-16.216965 153.47575 -3.5927179 -46.742336 -15.087127 -29.299305 -15.411694 -35.533119
330000000 -14.119651 -30.473911 -14.251344 -24.197701 -3.6125276 -103.6888 -16.327085 91.433868
-14.239944 -24.384998 -13.760773 -28.732826 -16.759428 93.337509 -3.6717622 -103.10868
-3.6136684 -103.69444 -16.81768 93.536041 -16.303984 -66.480949 -15.886966 -67.625458
-16.328459 91.082939 -3.65832 -103.06327 -15.954506 -67.830833 -16.381092 -68.630554
340000000 -23.711124 -175.34198 -23.011253 171.16013 -3.522064 -161.45432 -17.004738 34.47332
-22.949646 171.44699 -23.919044 -168.01682 -17.285322 38.588856 -3.5508749 -160.3222
-3.5272748 -161.49611 -17.314016 38.539165 -23.756456 -55.441544 -27.164013 -70.890999
-17.020603 34.668087 -3.5321152 -160.31166 -27.384249 -69.348663 -24.943542 -65.036301
350000000 -15.471758 49.703983 -14.516469 56.045303 -3.6485455 140.49542 -16.53112 -19.026327
-14.427536 56.12241 -15.612447 51.585373 -16.752415 -16.646704 -3.6388516 141.19263
-3.6652446 140.49382 -16.884113 -16.338518 -16.943558 -37.30323 -17.535706 -27.901321
-16.48682 -19.37793 -3.6032364 141.22612 -17.558786 -27.358973 -17.475666 -38.24229
360000000 -14.223493 -9.531867 -14.094084 -2.4638133 -3.5372343 83.649551 -17.104366 -77.927414
-14.113935 -2.9156151 -14.130802 -5.596292 -17.547396 -74.994896 -3.5708299 84.412773
-3.5413392 83.714615 -17.560148 -74.175217 -16.25985 -68.998398 -16.154158 -68.241913
-17.133215 -78.307655 -3.5532074 84.275116 -16.170319 -67.892509 -16.400812 -73.077553
370000000 -19.865004 -88.814293 -21.613461 -90.070534 -3.4636242 22.684271 -16.359737 -120.14982
-21.711035 -91.051201 -19.792025 -78.082664 -16.742382 -115.69475 -3.4938729 23.544561
-3.474602 22.715038 -16.74165 -115.05903 -19.41379 -79.370117 -20.806845 -91.072708
-16.398323 -120.31404 -3.4641933 23.462358 -20.893526 -90.332352 -19.696777 -90.671356
380000000 -16.920519 82.600182 -15.166484 86.231468 -4.1522589 -35.691486 -14.127673 175.8183
-15.173457 85.716194 -17.289873 83.139069 -14.411222 -179.78931 -4.1749272 -34.738964
-4.1540523 -35.606167 -14.364289 -179.31586 -17.497288 -71.374931 -19.774546 -62.228016
-14.167028 175.88097 -4.15588 -34.972012 -19.717607 -61.607201 -19.005539 -76.542824
390000000 -12.820893 3.1457672 -12.313668 10.334069 -4.385592 -89.97242 -14.23473 108.35169
-12.344073 10.255054 -12.630504 6.4658704 -14.533198 112.10555 -4.3927522 -89.136436
-4.3838515 -89.949715 -14.480764 112.36254 -15.33386 -102.29196 -15.610482 -97.300652
-14.245703 108.30989 -4.3991795 -89.268318 -15.630638 -97.120399 -15.721808 -104.36762
400000000 -17.795351 -79.156754 -19.255157 -76.232491 -4.0476141 -146.15614 -15.508933 48.542858
-19.32922 -76.510643 -17.531624 -70.274002 -16.003033 53.257771 -4.0965128 -145.12033
-4.0544538 -146.11331 -15.949537 53.570789 -18.198679 -140.09752 -17.544334 -149.47165
-15.557631 48.585205 -4.0815072 -145.25136 -17.65443 -149.23166 -17.477856 -145.8029
410000000 -18.848314 97.103279 -16.303164 95.902756 -4.1521139 154.95692 -15.204979 -4.7301331
-16.303549 95.490196 -19.410398 96.020737 -15.53816 0.52981365 -4.1525054 156.27684
-4.1590095 155.02893 -15.472769 0.76382869 -25.854153 -130.46677 -30.284365 163.52565
-15.197141 -4.4842291 -4.1485586 156.01794 -30.930277 163.25786 -25.376804 -160.45648
420000000 -14.364739 18.600134 -13.02672 25.430672 -4.0264359 98.465218 -15.912815 -63.179913
-13.054327 25.357206 -14.176696 21.342783 -16.400442 -58.145382 -4.0041108 99.685715
-4.023736 98.546234 -16.327522 -58.20298 -19.721699 -107.42388 -21.605619 -90.265213
-15.906867 -63.256969 -4.0240827 99.562523 -21.420105 -89.710297 -21.084541 -113.35166
430000000 -16.307373 -39.733082 -16.413174 -29.85928 -3.7879903 38.847435 -16.278112 -110.15176
-16.476194 -29.922045 -15.758195 -29.43483 -16.698982 -103.09684 -3.7660427 40.121185
-3.7881327 38.954861 -16.634026 -103.18441 -17.691126 -137.834 -17.527977 -141.92085
-16.307371 -110.16857 -3.7704928 39.997807 -17.523973 -141.22252 -17.419796 -143.8777
440000000 -24.959459 151.04091 -22.958082 125.61136 -4.3032727 -22.332985 -13.878552 -162.84863
-23.072123 124.69508 -31.771818 149.22905 -14.075037 -157.01944 -4.2125125 -21.013018
-4.2936015 -22.189098 -14.037607 -157.38942 -18.503798 -149.56671 -19.623901 -175.45148
-13.883622 -162.77103 -4.2309699 -21.165146 -19.627516 -174.17046 -18.032238 -166.55563
450000000 -13.999923 39.04998 -12.692724 41.6395 -4.9439249 -75.94146 -13.14822 125.36559
-12.713264 41.685799 -14.264621 37.308853 -13.560637 130.94893 -4.8585954 -75.034477
-4.9273462 -75.943581 -13.556778 130.80423 -16.98687 -163.29517 -20.358616 -176.49002
-13.142903 125.28111 -4.8824372 -75.005829 -20.242195 -176.17616 -17.944584 -179.12178
460000000 -14.625482 -24.243042 -14.499371 -17.626701 -4.3074255 -132.23331 -15.056741 69.658432
-14.527432 -17.735188 -14.069937 -19.373409 -15.597781 76.491203 -4.2617593 -131.39195
-4.3035178 -132.17944 -15.571342 76.396004 -16.394602 -170.42523 -17.152287 -174.03885
-15.099598 69.670197 -4.2615876 -131.43616 -17.160583 -173.47466 -17.285933 -175.35533
470000000 -23.658007 -123.4305 -28.637539 -146.3196 -4.5132546 165.99582 -13.676372 21.328476
-28.963568 -146.39568 -23.061392 -95.283157 -13.975365 28.870981 -4.4575729 167.2149
-4.5028992 166.10165 -13.961859 28.604441 -15.855489 173.35719 -15.388797 154.97006
-13.693083 21.488333 -4.4681296 167.11342 -15.389153 155.61987 -15.339094 165.67896
480000000 -15.279416 57.742695 -13.424564 57.302418 -5.307775 111.27081 -12.507246 -47.564163
-13.453815 57.284615 -16.183584 55.275688 -12.896635 -41.065723 -5.2177658 112.23785
-5.2901649 111.24152 -12.899367 -41.179264 -14.892591 161.38676 -16.207851 138.88922
-12.506158 -47.504848 -5.2367268 112.25975 -16.146082 139.22827 -14.785813 148.3447
490000000 -13.821066 -9.202033 -13.178402 -4.3644085 -4.8254981 56.548801 -13.960596 -108.45968
-13.193755 -4.460403 -13.519505 -5.9657049 -14.550954 -101.21905 -4.7632227 57.332001
-4.8260221 56.595123 -14.532866 -101.31544 -15.053292 156.74875 -16.466213 149.14157
-13.978593 -108.34814 -4.761034 57.271477 -16.4722 149.70691 -15.889268 147.07507
500000000 -19.992348 -81.877922 -22.713736 -72.944199 -4.8127656 -4.0924587 -13.63246 -158.61523
-22.839806 -72.238541 -18.394835 -65.25943 -14.040409 -149.6301 -4.7645988 -2.9100552
-4.7985425 -3.9709358 -14.043833 -149.93507 -13.687722 143.69533 -12.918845 132.76564
-13.635003 -158.46616 -4.7776947 -2.9879022 -12.889785 133.19754 -13.581 138.21851
510000000 -17.666822 79.293625 -15.636121 72.968002 -5.4675016 -61.371151 -12.343621 140.19537
-15.688653 72.947975 -20.302971 73.941513 -12.764153 148.12799 -5.3643842 -60.302032
-5.4443302 -61.413433 -12.780862 147.99117 -13.562866 136.69307 -13.328804 115.71044
-12.335448 140.24181 -5.3854513 -60.234966 -13.274127 116.00176 -13.091108 125.86972
520000000 -12.83106 8.36059 -12.097136 11.245214 -5.5287318 -115.26395 -12.622219 75.522629
-12.11491 11.258289 -12.962084 10.568498 -13.064088 83.939865 -5.4126549 -114.60485
-5.5191479 -115.20634 -13.066591 83.754471 -12.992413 130.32791 -13.953104 116.73364
-12.629234 75.612846 -5.4173675 -114.61204 -13.927437 117.09322 -13.473809 117.35226
530000000 -16.487751 -61.417267 -17.859306 -52.781532 -5.3719563 -173.64546 -12.88991 19.854727
-17.898766 -52.372555 -15.262923 -51.909904 -13.344392 29.419859 -5.3263464 -172.69666
-5.3473687 -173.58318 -13.37204 29.169092 -11.937326 122.14695 -11.300446 113.57223
-12.887898 19.943951 -5.3372874 -172.67378 -11.256955 113.74792 -12.363774 114.85768
540000000 -19.923197 98.25708 -17.42518 84.254593 -5.8180685 129.44809 -12.214509 -39.734791
-17.495758 84.303299 -25.027748 97.325607 -12.586621 -30.68717 -5.7124267 130.42218
-5.7950382 129.36072 -12.612845 -30.77424 -11.704762 112.82711 -10.657993 95.91288
-12.20872 -39.622616 -5.7206216 130.48985 -10.625682 96.092194 -11.579639 104.31938
550000000 -12.932863 25.32201 -11.904426 25.563257 -6.0050063 73.934593 -12.028725 -100.79265
-11.919533 25.640682 -13.623347 28.05238 -12.363771 -91.251038 -5.8535538 74.60144
-5.9877634 73.94323 -12.383417 -91.417511 -11.351774 107.57442 -11.601813 90.535004
-12.018246 -100.6926 -5.8628402 74.613182 -11.561387 90.757759 -11.485373 95.031654
560000000 -14.250575 -45.251644 -14.691562 -38.321407 -5.9557471 18.513136 -12.100054 -162.7081
