!Keysight Technologies,N5231B,MY57181281,A.17.25.05
!Date: Friday, March 07, 2025 17:15:28
!Correction: S11(C  4-Port  ) 
!S12(C  4-Port  ) 
!S13(C  4-Port  ) 
!S14(C  4-Port  ) 
!S21(C  4-Port  ) 
!S22(C  4-Port  ) 
!S23(C  4-Port  ) 
!S24(C  4-Port  ) 
!S31(C  4-Port  ) 
!S32(C  4-Port  ) 
!S33(C  4-Port  ) 
!S34(C  4-Port  ) 
!S41(C  4-Port  ) 
!S42(C  4-Port  ) 
!S43(C  4-Port  ) 
!S44(C  4-Port  ) 
!S4P File: Measurements: <S11,S12,S13,S14>,
!<S21,S22,S23,S24>,
!<S31,S32,S33,S34>,
!<S41,S42,S43,S44>:
# Hz S  dB   R 50
10000000 -24.860315 13.065651 -29.156952 32.561157 -0.32856694 -40.73595 -38.699417 170.11165
-29.17894 33.158276 -23.707005 12.184966 -39.147652 170.83717 -0.39714921 -40.800632
-0.34134868 -40.782845 -37.50444 169.75905 -25.204348 19.036572 -28.802357 40.224014
-37.902695 169.72797 -0.40903527 -40.845486 -28.971024 40.737576 -25.161724 11.875011
20000000 -24.594173 -21.094128 -27.956038 0.50476509 -0.41880402 -80.505211 -37.41357 133.26877
-27.884155 0.96838433 -23.551006 -17.844971 -37.861122 133.93805 -0.49208575 -80.633652
-0.43691289 -80.542763 -36.188702 130.8252 -24.763615 -8.4822102 -26.82818 12.220323
-36.604614 131.86639 -0.50894576 -80.6754 -26.98473 12.204746 -25.572628 -10.833465
30000000 -30.937939 -56.495853 -34.765095 -20.200459 -0.48865479 -120.25234 -35.858093 102.42834
-34.522106 -21.128305 -29.789101 -43.248573 -36.375492 104.35528 -0.56805032 -120.427
-0.51217699 -120.27738 -34.816448 97.692986 -30.253 -28.36381 -31.104643 -4.2779064
-35.11248 99.23278 -0.59143668 -120.45742 -31.438339 -4.9299927 -31.508766 -15.908088
40000000 -34.313549 72.806717 -31.960892 69.386086 -0.58367705 -160.00073 -33.160824 62.640808
-32.196945 70.629372 -31.856485 55.624886 -33.461689 66.076866 -0.67047936 -160.17426
-0.6143207 -159.95148 -32.366535 56.71172 -33.170002 55.630932 -32.031898 57.945877
-32.615028 58.261406 -0.70177156 -160.14998 -32.189041 61.395466 -30.100809 48.410236
50000000 -26.286114 35.858479 -26.900406 42.005978 -0.68814635 160.98064 -32.974358 -0.86510807
-26.79047 42.571697 -24.882679 31.198709 -32.913605 2.8036692 -0.78033996 160.86696
-0.69416541 161.14226 -32.889389 -6.2185912 -25.914654 42.791348 -26.299854 47.410229
-32.994637 -4.9774265 -0.78533453 161.01056 -26.171253 48.569462 -25.380699 32.119263
60000000 -24.002899 8.8532763 -24.818253 20.263493 -0.65641558 121.25896 -34.971786 -8.711565
-24.779909 20.517548 -22.939543 9.7760239 -34.988312 -8.485774 -0.72844207 121.05561
-0.66746843 121.24763 -34.343075 -12.718651 -23.915392 26.556479 -24.084146 33.459717
-34.641403 -10.654903 -0.73985189 121.04336 -24.146049 33.714371 -24.564827 22.630566
70000000 -28.154631 -34.345695 -29.982895 -16.634087 -0.71121591 81.548927 -32.430038 -40.935757
-29.818602 -16.741413 -27.050692 -25.236973 -32.655521 -39.861427 -0.78760618 81.2248
-0.73247504 81.536407 -31.991867 -46.426991 -27.012579 3.975215 -27.107252 11.860078
-32.098114 -44.101326 -0.80997115 81.218735 -27.291346 12.01691 -27.864317 9.2081833
80000000 -36.274826 112.21552 -32.891209 102.71023 -0.79514539 41.725586 -29.573833 -80.445168
-33.143642 104.07774 -34.389053 83.118652 -29.714897 -78.147797 -0.88240606 41.340195
-0.82567602 41.764664 -29.319052 -85.801628 -31.572308 58.719799 -30.538027 63.976456
-29.363319 -84.140388 -0.91309953 41.380718 -30.626556 66.84742 -29.048014 60.392479
90000000 -23.186245 62.810474 -22.856548 68.027512 -0.95316255 2.233387 -27.381405 -132.97357
-22.831573 68.872337 -22.041882 57.829983 -27.377014 -130.37488 -1.0556352 1.8307678
-0.98387271 2.417865 -27.286655 -138.29926 -23.059259 62.420162 -22.632933 64.275917
-27.333439 -136.88051 -1.0852081 2.0154924 -22.542543 65.674477 -22.235468 55.527138
100000000 -21.438555 20.723831 -21.867676 30.17955 -1.0534008 -36.180099 -28.217379 165.77023
-21.782339 30.220142 -20.466837 19.850676 -27.97331 167.79939 -1.1605064 -36.458652
-1.0514903 -35.996925 -28.322552 162.756 -21.445374 34.358978 -21.211149 35.237019
-28.378246 163.44617 -1.1568829 -36.302834 -21.102116 35.603424 -21.402489 27.165203
110000000 -23.711317 -11.673862 -24.634954 3.1437235 -0.9329533 -75.354401 -32.851345 140.97525
-24.584213 2.9771543 -23.001623 -7.3452215 -32.681835 140.75664 -1.0135932 -75.651993
-0.93904746 -75.300537 -32.56802 136.99846 -23.44632 19.973593 -23.490665 18.71501
-32.810516 139.1842 -1.0203537 -75.617119 -23.507914 18.885494 -24.327099 18.263384
120000000 -35.838974 -60.840183 -42.054008 -5.4099402 -0.94314909 -115.61867 -29.241377 127.4453
-41.904087 -9.2099028 -35.649166 -26.491447 -29.319262 128.17038 -1.0223212 -116.11118
-0.96191198 -115.56138 -29.256039 123.15497 -28.452967 30.106012 -29.815588 31.229876
-29.206078 125.00592 -1.0412313 -116.07243 -29.982128 32.221405 -28.079279 39.99192
130000000 -24.77957 92.965607 -23.423992 94.732796 -1.087674 -155.68166 -25.761614 82.279099
-23.439032 95.392349 -23.451571 85.07357 -25.768362 83.716469 -1.1819261 -156.30325
-1.1120812 -155.55388 -25.827297 78.784317 -23.502104 72.297379 -23.133244 79.211601
-25.798552 79.927284 -1.2060021 -156.19069 -23.051056 80.314827 -22.372791 69.11113
140000000 -19.293121 47.516167 -18.835245 53.934948 -1.2943461 165.28664 -24.428446 25.976923
-18.790621 54.304031 -18.137758 45.510712 -24.332634 27.606966 -1.4122193 164.64703
-1.3104082 165.49811 -24.488945 23.062771 -19.221235 51.384823 -18.590584 53.638271
-24.496864 23.930248 -1.428775 164.82809 -18.495222 54.275124 -18.676107 46.657135
150000000 -19.447178 5.6170378 -19.531351 14.964122 -1.342371 127.11237 -25.79571 -28.026361
-19.457039 14.938028 -18.510929 6.3600936 -25.585608 -27.02475 -1.4651626 126.59107
-1.340525 127.31671 -25.883453 -31.134718 -19.560459 24.697784 -18.888754 23.399557
-25.91947 -30.27577 -1.4670405 126.80541 -18.812666 23.548698 -19.476059 19.982409
160000000 -24.759724 -36.197723 -25.844715 -20.445517 -1.2059748 88.080917 -29.218956 -58.606972
-25.801849 -20.945105 -24.230536 -28.773853 -29.070223 -58.737156 -1.3081204 87.591957
-1.2044832 88.133469 -29.230614 -60.327946 -24.448641 11.863629 -24.274378 4.2510419
-29.332541 -59.126133 -1.3050586 87.640884 -24.274799 4.3895111 -24.992887 11.539985
170000000 -32.882298 135.6884 -30.001339 121.06099 -1.1764444 47.525032 -26.640545 -70.66613
-30.029329 121.80563 -31.739887 110.39157 -26.636917 -70.328781 -1.2650957 46.831612
-1.1886674 47.580326 -26.698109 -72.989769 -26.461002 67.766304 -27.387573 76.627464
-26.656548 -71.857109 -1.2733562 46.901192 -27.364946 77.453667 -25.269648 68.312263
180000000 -19.733372 76.620453 -18.767233 81.363174 -1.369195 7.3943973 -23.359053 -117.05074
-18.763695 81.595787 -18.661581 72.86908 -23.333492 -116.42627 -1.4741509 6.5291972
-1.3908437 7.4931011 -23.382395 -119.08176 -19.310991 68.57061 -18.61298 73.049492
-23.374981 -118.38932 -1.4864706 6.5889311 -18.557072 73.45018 -18.709066 65.235222
190000000 -16.799238 31.585497 -16.311113 39.3727 -1.6056287 -31.294718 -22.369337 -172.87341
-16.290857 39.597015 -15.762452 30.896118 -22.334827 -172.12668 -1.7384688 -32.230606
-1.6186982 -31.092411 -22.369883 -175.06027 -17.010628 40.961643 -16.045322 41.640583
-22.396809 -174.3712 -1.7555178 -32.087379 -16.003042 41.979103 -16.558863 37.517803
200000000 -18.321827 -11.67135 -18.418978 -1.3216918 -1.5907066 -69.280853 -24.053547 136.39507
-18.363682 -1.2634519 -17.484314 -10.475834 -23.97941 137.42737 -1.7421107 -70.035156
-1.5903492 -69.110184 -24.157263 134.37291 -18.704372 14.00528 -17.7728 10.258279
-24.17264 135.07373 -1.7406117 -69.87104 -17.713326 10.581689 -18.526344 10.388471
210000000 -26.844496 -67.248238 -29.749722 -51.658962 -1.4388151 -108.52651 -26.641579 107.56425
-29.632563 -52.112244 -26.827229 -59.590599 -26.49803 107.81234 -1.5611727 -109.17818
-1.4380692 -108.46757 -26.607597 106.61333 -26.314344 10.938764 -26.891388 -2.5850899
-26.678442 107.05394 -1.5618336 -109.14733 -26.879398 -2.775806 -26.436882 12.382349
220000000 -24.194281 109.9296 -22.335716 108.73777 -1.4444665 -149.24796 -24.142756 87.715698
-22.355007 109.07806 -23.325144 103.09811 -24.080978 88.274452 -1.5409673 -150.10008
-1.4579833 -149.19881 -24.058554 86.244736 -22.403486 74.63591 -22.213095 84.470169
-24.130644 86.802048 -1.5543499 -150.0661 -22.186432 84.853302 -21.646566 71.336761
230000000 -16.950026 59.971786 -16.003998 65.942047 -1.6595128 171.00542 -21.910433 40.985058
-16.002157 66.155487 -16.071793 58.682705 -21.860085 41.484478 -1.763437 169.90521
-1.6798323 171.09856 -21.82095 39.185299 -16.964184 58.475742 -16.008314 62.069672
-21.890156 39.930996 -1.7827725 169.98056 -15.974228 62.426167 -16.572001 55.0051
240000000 -15.431534 17.908972 -14.880757 25.558954 -1.8350894 132.46556 -21.385935 -9.9300728
-14.859571 25.77788 -14.575371 18.358971 -21.355066 -9.1756372 -1.9765199 131.20355
-1.8572655 132.63206 -21.305605 -11.994374 -15.676793 30.456545 -14.598996 30.018488
-21.360537 -11.245483 -1.9988915 131.34993 -14.55787 30.391886 -15.288191 27.130751
250000000 -18.212866 -26.843649 -18.264318 -18.100243 -1.8022705 94.363121 -22.840483 -57.44099
-18.195448 -18.001328 -17.520496 -24.94532 -22.734293 -56.312508 -1.9726301 93.292732
-1.8097031 94.581314 -22.854324 -59.605499 -18.508955 2.0221174 -17.575281 -3.25212
-22.890594 -59.042198 -1.9805069 93.500931 -17.504622 -3.0048597 -18.228872 -2.1655495
260000000 -33.650871 -116.26267 -37.752254 -147.04019 -1.6310692 55.091518 -25.081076 -87.41291
-37.408676 -144.90768 -36.1073 -117.84023 -24.948154 -87.042068 -1.7840481 54.323887
-1.6347235 55.167351 -25.022764 -88.555435 -28.965939 36.468342 -32.734623 34.489269
-25.140301 -88.000557 -1.7846516 54.38335 -32.742542 34.712444 -29.671757 39.386829
270000000 -19.884661 86.797119 -18.408684 92.203178 -1.695479 14.25483 -22.470423 -112.54655
-18.41415 92.496536 -18.864912 84.227081 -22.37067 -112.116 -1.8021926 13.206147
-1.7136321 14.33928 -22.365387 -114.1853 -19.284004 71.595657 -18.29154 77.901482
-22.456896 -113.47775 -1.8187892 13.261541 -18.256395 78.146912 -18.759058 69.167168
280000000 -15.327727 42.787544 -14.324565 50.942974 -1.9225627 -25.015991 -20.941191 -160.5192
-14.316133 51.131294 -14.386301 43.210651 -20.865967 -160.04114 -2.0391414 -26.35173
-1.9441882 -24.868406 -20.86434 -162.42189 -15.7665 48.493439 -14.357728 49.691666
-20.936644 -161.71864 -2.0608625 -26.227058 -14.317227 49.923889 -15.312719 45.836903
290000000 -15.082273 2.5927882 -14.288866 11.915717 -1.9973335 -63.416496 -21.121674 153.02242
-14.263931 12.079599 -14.111355 4.8111224 -21.086407 153.86331 -2.1481798 -64.931229
-2.0189633 -63.225151 -21.085285 151.02806 -15.431807 21.264088 -13.92202 18.326427
-21.129627 151.57971 -2.1701524 -64.747192 -13.881743 18.614841 -14.78904 18.07415
300000000 -19.235264 -46.734467 -19.00297 -36.377312 -1.9987164 -101.95332 -21.676851 107.92934
-18.92243 -36.343452 -18.184898 -42.464439 -21.528049 109.38261 -2.2195311 -103.33771
-2.0028911 -101.7 -21.7306 106.41962 -19.86902 -9.8469362 -18.331726 -18.709871
-21.799206 106.48813 -2.2198155 -103.08786 -18.252028 -18.412504 -18.857016 -17.22019
310000000 -30.190491 142.12889 -28.222712 133.39505 -1.8020977 -141.58215 -23.626287 82.17041
-28.256878 134.27792 -30.621881 128.44612 -23.444805 82.54924 -1.9435 -142.45654
-1.8086293 -141.46695 -23.562599 80.66156 -25.466183 67.178131 -26.389412 76.948875
-23.686373 81.409683 -1.9484981 -142.36131 -26.373314 76.784798 -25.878874 66.108444
320000000 -17.118113 68.592216 -15.933365 76.21122 -1.942251 178.12265 -21.410608 46.979702
-15.931685 76.422211 -16.352219 67.288406 -21.298326 47.226707 -2.0465543 176.88925
-1.9581922 178.24277 -21.33824 45.261658 -17.073202 63.083389 -15.802053 65.773201
-21.425713 46.050652 -2.0616643 176.98959 -15.771485 65.935944 -16.882221 60.346001
330000000 -14.333999 26.979324 -13.371799 37.000515 -2.1346638 139.48318 -20.689278 -1.8995616
-13.358324 37.134533 -13.496375 28.39156 -20.606394 -1.4398073 -2.2574644 137.94977
-2.1504791 139.65712 -20.644884 -3.6159286 -14.967005 39.066265 -13.35333 37.420853
-20.709629 -2.9813378 -2.2724473 138.10002 -13.310134 37.575443 -14.57125 36.349613
340000000 -15.130285 -11.762917 -14.346528 -0.43706048 -2.0962863 101.11397 -21.607468 -44.584076
-14.322828 -0.3639541 -14.15271 -8.0917158 -21.533344 -43.696865 -2.2519245 99.42765
-2.1085403 101.29482 -21.582603 -46.03923 -15.479684 13.179117 -13.89885 7.1882339
-21.637791 -45.787682 -2.2642891 99.59153 -13.858115 7.3697186 -14.692199 9.1492138
350000000 -20.660988 -60.731113 -20.717209 -48.160629 -2.0745039 61.711006 -21.616308 -82.31913
-20.657164 -48.269997 -19.410749 -53.159126 -21.418344 -81.22348 -2.30073 60.220551
-2.0820291 61.919136 -21.542463 -83.581642 -21.527935 -13.005093 -20.337084 -28.33934
-21.713854 -83.529602 -2.3052921 60.407593 -20.263512 -27.947227 -20.212555 -25.817736
360000000 -24.260201 110.82127 -22.18984 110.97313 -2.0326233 22.159294 -22.220554 -116.09
-22.212502 111.25593 -24.539312 103.75179 -21.991961 -115.96153 -2.1828082 21.148514
-2.0359657 22.301674 -22.142168 -117.65796 -21.658762 71.041824 -21.18955 81.560776
-22.299482 -116.70048 -2.1838369 21.267681 -21.194927 81.399391 -22.581785 70.489777
370000000 -15.541962 52.738777 -14.217786 61.094624 -2.192225 -17.548431 -20.744709 -155.03819
-14.214884 61.208664 -14.981333 51.824276 -20.621305 -155.10149 -2.298434 -18.983395
-2.2030759 -17.401869 -20.691048 -156.74963 -15.802708 51.514153 -14.216134 53.722431
-20.771933 -155.86568 -2.308495 -18.870115 -14.186 53.802261 -15.883184 49.12738
380000000 -14.013716 12.513628 -12.838562 22.638083 -2.3142073 -55.595802 -20.729771 155.53079
-12.831826 22.731768 -13.285859 13.955998 -20.661934 155.83609 -2.4574294 -57.324657
-2.3237629 -55.424591 -20.700373 153.95894 -14.710486 28.048244 -12.841267 25.056034
-20.764076 154.54376 -2.4665749 -57.178249 -12.803098 25.125755 -14.407057 24.740358
390000000 -16.10111 -24.338762 -15.048919 -13.18876 -2.1729176 -94.073402 -22.405336 115.41306
-15.033558 -13.131615 -15.201481 -20.158531 -22.258814 116.17119 -2.348505 -95.727333
-2.1817107 -93.921547 -22.292305 114.20863 -16.400715 3.6063502 -14.660448 -4.6001301
-22.443901 114.46263 -2.3547642 -95.606537 -14.624647 -4.458859 -15.710585 -2.6436505
400000000 -25.087124 -74.06517 -24.98098 -61.426548 -2.1538622 -133.96518 -22.021383 81.81868
-24.922234 -61.234634 -23.227816 -61.832912 -21.862316 82.690681 -2.3717277 -135.41069
-2.1613061 -133.75774 -21.976847 80.271065 -24.79669 -0.82664746 -24.831865 -21.928738
-22.108068 80.738235 -2.3772471 -135.23544 -24.674118 -21.38789 -24.176105 -24.043247
410000000 -20.661173 82.382942 -18.922091 89.376671 -2.1909604 -173.51157 -22.040548 45.473087
-18.950275 89.547028 -20.710146 77.475029 -21.859468 45.245392 -2.3282728 -174.62355
-2.1917591 -173.37627 -21.97753 43.871376 -18.980234 63.709251 -17.751734 68.978714
-22.095491 44.923843 -2.3277407 -174.53474 -17.75033 68.947517 -19.876215 62.971668
420000000 -14.726077 36.53931 -13.347729 46.638542 -2.3744812 147.35074 -20.829355 2.4123056
-13.348309 46.77668 -14.298137 35.882725 -20.758167 2.3340192 -2.48877 145.76883
-2.3821044 147.50291 -20.788382 0.70734388 -15.311821 42.32156 -13.321484 41.626781
-20.846687 1.6087468 -2.498812 145.86641 -13.287976 41.660751 -15.516786 40.00848
430000000 -14.228114 -1.6536095 -12.967014 9.6327467 -2.396899 109.66543 -21.598791 -47.836212
-12.95408 9.731822 -13.701734 -0.45438272 -21.586086 -47.551346 -2.5516789 108.06244
-2.3993788 109.83404 -21.608543 -49.44096 -14.971615 20.081942 -12.906163 14.183481
-21.621908 -48.76926 -2.5597341 108.18668 -12.874104 14.20126 -14.828901 16.238941
440000000 -17.778395 -38.511692 -16.763569 -25.675203 -2.211673 70.943031 -23.743727 -85.902924
-16.731955 -25.582243 -17.062574 -33.956192 -23.601921 -85.365829 -2.3764198 69.436424
-2.2095129 71.08799 -23.680099 -87.733765 -17.936991 -1.6636521 -16.276176 -12.835535
-23.80019 -87.039246 -2.3822746 69.581566 -16.243637 -12.730835 -17.400394 -9.2991343
450000000 -38.726364 -66.132462 -41.152481 -8.1837702 -2.1538081 30.376682 -23.118515 -109.03777
-41.014851 -11.193141 -32.374828 -43.019962 -23.090406 -108.62689 -2.3107553 28.898699
-2.1566837 30.491158 -23.217775 -110.46686 -24.246176 23.011316 -25.749008 19.960981
-23.205532 -109.90642 -2.3147311 29.020988 -25.58778 20.156893 -25.149719 2.9591696
460000000 -18.136106 59.717384 -16.258369 69.652679 -2.3789167 -9.2748203 -21.310753 -152.72169
-16.26726 69.807106 -18.000332 57.599586 -21.220852 -152.46434 -2.5135763 -10.730329
-2.3807828 -9.1588192 -21.338682 -153.90636 -18.072121 53.921364 -16.034521 57.986538
-21.376793 -153.31247 -2.5176542 -10.615346 -16.007008 57.813324 -18.896559 52.764244
470000000 -14.440267 19.983105 -12.815325 31.583168 -2.5225401 -46.999756 -21.285288 154.68456
-12.804549 31.669638 -14.066591 19.999199 -21.251627 154.65056 -2.6753755 -48.56319
-2.5260606 -46.893555 -21.312243 153.27458 -15.508478 33.771618 -12.978724 31.282499
-21.320641 154.0204 -2.6797886 -48.44183 -12.950193 31.238495 -15.64131 30.612078
480000000 -14.869599 -13.91079 -13.316527 -1.9718161 -2.3906498 -85.256912 -23.025072 111.36718
-13.301447 -1.9434104 -14.392128 -11.301025 -23.087902 111.87736 -2.5325539 -86.814651
-2.3986673 -85.142998 -23.09956 110.20019 -15.488117 12.914088 -13.151021 5.3227787
-23.044352 110.49956 -2.5367758 -86.692963 -13.119746 5.4064345 -15.079939 8.6716452
490000000 -20.913311 -49.131996 -19.519657 -35.194118 -2.2288914 -124.79344 -24.66354 80.456505
-19.481773 -35.273602 -19.740688 -42.413845 -24.55854 81.230347 -2.3856282 -126.24195
-2.2366688 -124.64116 -24.596642 78.715141 -19.792297 -2.2034533 -18.264389 -15.860847
-24.719311 79.365135 -2.3915601 -126.11572 -18.199451 -15.52768 -18.951967 -14.129393
500000000 -25.724043 59.1703 -23.853968 68.00444 -2.2680595 -165.29527 -23.321503 54.262375
-23.875799 68.354218 -25.532156 42.326263 -23.272469 54.006207 -2.3867974 -166.71904
-2.2711358 -165.14243 -23.474943 52.158985 -21.824562 41.296062 -21.401911 47.392002
-23.40457 53.517445 -2.3871722 -166.58121 -21.294662 46.820412 -23.629799 27.710461
510000000 -16.242231 37.324089 -14.55326 49.020359 -2.5618508 155.44406 -21.078671 6.5586276
-14.546127 49.078953 -16.281279 34.40921 -21.13069 6.5965233 -2.6851068 153.77625
-2.5636692 155.60399 -21.272173 5.2661395 -16.792484 42.224209 -14.288448 44.194317
-21.130455 5.8807578 -2.6832304 153.90433 -14.247978 43.872086 -17.581835 39.368847
520000000 -14.466373 5.7842221 -12.608106 17.696135 -2.6051257 118.2011 -21.865629 -47.855156
-12.60315 17.739016 -14.299556 5.7456932 -21.942595 -47.756905 -2.7499771 116.59692
-2.6064124 118.33523 -21.988985 -49.001148 -15.457581 25.265186 -12.567357 20.64258
-21.885096 -48.58532 -2.749567 116.69557 -12.538611 20.47332 -15.552445 21.738949
530000000 -15.865904 -26.730457 -13.997332 -15.32548 -2.4321799 79.642319 -23.88073 -89.528053
-13.983047 -15.314821 -15.303 -23.86977 -23.938192 -88.423248 -2.5769155 78.036568
-2.4331799 79.806747 -23.980808 -90.633064 -16.33585 4.9958158 -13.754378 -4.3945785
-23.909445 -90.703644 -2.5772891 78.166527 -13.71434 -4.4345551 -15.7204 -1.3487799
540000000 -26.47703 -45.407772 -23.906517 -32.508957 -2.2705145 38.995029 -24.856102 -105.34222
-23.914839 -32.872818 -23.613064 -38.329967 -24.723167 -105.5212 -2.391597 37.389896
-2.2713742 39.171249 -24.97942 -107.86314 -21.242056 5.8652835 -20.220167 -7.8942976
-24.976515 -106.49561 -2.389823 37.536808 -20.135073 -7.6307931 -20.610971 -12.168985
550000000 -19.76889 44.342075 -18.547541 54.45541 -2.5856996 -1.7043821 -20.786184 -143.45035
-18.522486 54.509312 -19.874077 34.080822 -20.885675 -143.99266 -2.7106872 -3.7007113
-2.5771635 -1.4898745 -21.170628 -145.07228 -18.958136 37.077206 -17.388832 42.55912
-20.916033 -144.16333 -2.6998782 -3.5329337 -17.279066 41.946373 -20.315039 27.96167
560000000 -15.091324 16.765434 -13.42152 29.395918 -2.9424257 -39.423512 -19.250483 159.53671
-13.41703 29.421593 -15.056697 12.311685 -19.393318 160.02544 -3.1596191 -41.486942
-2.9257755 -39.238781 -19.585003 159.04922 -16.303822 24.272354 -13.215673 26.272251
