!Keysight Technologies,N5231B,MY57181281,A.17.25.05
!Date: Friday, March 07, 2025 16:30:34
!Correction: S11(C  4-Port  ) 
!S12(C  4-Port  ) 
!S13(C  4-Port  ) 
!S14(C  4-Port  ) 
!S21(C  4-Port  ) 
!S22(C  4-Port  ) 
!S23(C  4-Port  ) 
!S24(C  4-Port  ) 
!S31(C  4-Port  ) 
!S32(C  4-Port  ) 
!S33(C  4-Port  ) 
!S34(C  4-Port  ) 
!S41(C  4-Port  ) 
!S42(C  4-Port  ) 
!S43(C  4-Port  ) 
!S44(C  4-Port  ) 
!S4P File: Measurements: <S11,S12,S13,S14>,
!<S21,S22,S23,S24>,
!<S31,S32,S33,S34>,
!<S41,S42,S43,S44>:
# Hz S  dB   R 50
10000000 -20.860102 22.663986 -22.982218 34.641716 -0.45445889 -42.178768 -28.022272 -168.42807
-22.98037 34.652439 -20.905737 22.438456 -27.988201 -167.75989 -0.45120025 -42.104252
-0.45207113 -42.178917 -27.986446 -167.76904 -20.873989 21.436693 -23.11688 33.512852
-27.985723 -167.75061 -0.44825229 -42.130245 -23.006987 33.665039 -21.030329 21.331923
20000000 -21.350084 -33.948483 -23.770432 -27.063831 -1.0398583 -80.729767 -22.355165 110.85696
-23.758484 -27.073507 -21.18627 -34.453014 -22.119137 110.70583 -1.0181245 -80.644783
-1.0376027 -80.717804 -22.13282 110.55041 -21.696102 -35.734074 -24.768654 -25.287981
-22.121897 110.50274 -1.0387373 -80.640633 -24.427198 -26.462486 -21.992376 -34.648579
30000000 -23.485357 -5.5271921 -23.625357 5.2737093 -0.93176872 -117.3407 -23.716013 34.676697
-23.624533 5.3234053 -23.520109 -8.2752876 -23.650141 33.896713 -0.92096174 -117.25298
-0.92868751 -117.34272 -23.676685 33.806973 -23.255566 -13.23562 -23.253284 1.2179945
-23.669905 33.710785 -0.91977882 -117.18568 -23.244219 0.23805693 -23.207773 -12.036182
40000000 -28.705999 -35.836384 -29.558857 -31.245455 -0.64435416 -157.01007 -29.536427 -27.217165
-29.560045 -31.313112 -28.491529 -40.27924 -29.557491 -27.818913 -0.63422018 -156.839
-0.64258629 -157.01106 -29.574625 -27.633163 -29.304358 -45.730564 -29.799496 -35.752525
-29.577538 -27.746283 -0.63198209 -156.84384 -29.8489 -36.744202 -28.874914 -45.804153
50000000 -28.66135 37.664894 -28.942913 48.95649 -0.65099502 162.28593 -35.772949 -23.38324
-28.960167 48.271721 -29.073183 36.101513 -35.649399 -24.001284 -0.63639045 162.43639
-0.64509314 162.28729 -36.039021 -23.177715 -28.633932 33.94537 -28.899075 46.250423
-35.824558 -23.737907 -0.63212579 162.42178 -28.902714 45.753956 -29.275671 34.900379
60000000 -23.075272 21.839941 -23.329956 27.704718 -0.81765682 122.2259 -29.964016 -36.269352
-23.316668 27.847651 -23.189699 18.020544 -30.066463 -36.726395 -0.81670851 122.43949
-0.81469923 122.21946 -30.032 -36.849541 -23.167118 14.185206 -23.446983 25.235367
-29.991287 -36.578651 -0.81680036 122.45209 -23.42399 24.933426 -23.501005 16.284651
70000000 -24.160805 -2.4473364 -24.677795 2.0120921 -0.99609029 83.097763 -27.052574 -84.810837
-24.666832 1.9623532 -24.111475 -8.1021528 -27.167019 -84.867065 -0.99356574 83.420998
-0.99333924 83.084305 -27.165426 -84.821533 -24.195807 -13.53636 -24.511488 -0.50993443
-27.085835 -85.088318 -0.99239284 83.429985 -24.50671 -1.4004387 -24.223139 -9.4047766
80000000 -26.399134 10.334125 -27.266121 16.235348 -1.1533114 44.772041 -25.325508 -140.97256
-27.278879 16.233219 -26.964745 1.4151062 -25.404253 -140.8318 -1.1321261 45.191662
-1.1501334 44.758747 -25.399754 -140.84651 -27.541775 -2.111994 -27.156403 8.9277763
-25.374016 -141.20775 -1.1291183 45.196697 -27.32563 8.5086288 -26.847534 -3.0204377
90000000 -28.145151 12.241625 -29.125532 26.305464 -0.99538183 6.5877218 -28.29047 154.32686
-29.130926 26.282856 -29.200254 6.2106113 -28.345648 154.54022 -0.96291775 6.8989477
-0.9928304 6.5888691 -28.331579 154.5103 -29.005133 7.8363562 -29.656744 22.179152
-28.33061 154.26584 -0.96143067 6.888906 -29.713236 22.779398 -29.530659 2.6222279
100000000 -24.391674 32.003559 -24.037144 38.987991 -0.97374165 -33.77615 -31.253912 145.3568
-24.04188 38.893261 -24.863005 28.325985 -31.290865 144.46773 -0.9602409 -33.477375
-0.96866393 -33.779026 -31.404673 144.64342 -23.703081 21.487553 -23.597227 33.970058
-31.319273 145.07599 -0.95781648 -33.481419 -23.615017 33.799419 -24.386385 23.184816
110000000 -23.995922 21.41301 -24.166323 23.131596 -1.0686525 -73.484146 -29.100172 119.20985
-24.154608 23.226755 -24.475634 15.173117 -29.342081 119.23093 -1.0691299 -73.049278
-1.0664487 -73.48407 -29.308619 119.08704 -23.37459 -2.2630553 -23.474068 10.465319
-29.163675 119.09282 -1.0679427 -73.047348 -23.501175 10.329553 -23.84643 1.8433315
120000000 -24.444685 23.254204 -25.756289 26.165924 -1.2454852 -112.87153 -26.187441 79.286003
-25.756226 26.154209 -25.202873 16.148851 -26.340319 79.780289 -1.2405751 -112.24072
-1.2426091 -112.87529 -26.357193 79.859917 -26.941872 -11.232094 -27.03297 3.8203673
-26.267738 79.328384 -1.235772 -112.24964 -27.142452 3.5126672 -26.531378 -6.3228984
130000000 -23.245163 24.620945 -24.47864 34.993515 -1.3950616 -151.09143 -24.767656 24.117195
-24.476803 34.967915 -24.199078 18.490381 -24.85321 24.665848 -1.3608633 -150.36134
-1.3933851 -151.09769 -24.849665 24.773449 -27.10195 19.481159 -26.922094 32.046902
-24.821579 24.416212 -1.3573197 -150.39717 -26.98527 32.876522 -27.092604 12.495266
140000000 -23.708096 25.327257 -23.683531 38.35574 -1.2999473 170.46414 -26.843882 -27.364273
-23.670971 38.433731 -24.660549 21.149313 -26.821384 -27.180153 -1.2470158 171.03795
-1.2954329 170.47261 -26.841654 -27.559509 -24.250624 23.970919 -24.012922 38.437542
-26.878906 -27.220873 -1.2473646 171.01758 -23.968403 38.650845 -25.708099 23.429689
150000000 -22.554047 23.758492 -22.117914 28.218739 -1.2490619 130.80231 -28.735044 -54.899918
-22.120092 28.155054 -23.169823 18.197575 -28.840525 -56.199165 -1.2215167 131.30171
-1.2461618 130.78583 -28.876833 -55.852432 -21.947906 6.2782087 -21.724277 19.000969
-28.766201 -54.715698 -1.2209722 131.29195 -21.740292 19.004503 -23.037483 10.923339
160000000 -23.847971 20.197771 -24.549616 19.328499 -1.2984701 90.977043 -27.955519 -79.165924
-24.553778 19.365601 -24.740427 11.907254 -28.228279 -79.193527 -1.2910479 91.627586
-1.2966763 90.97187 -28.219261 -79.128838 -24.532248 -19.824411 -24.787621 -5.0744362
-27.997658 -78.98349 -1.2892456 91.618584 -24.817545 -5.0343485 -25.214848 -10.885365
170000000 -23.519831 36.050949 -25.147461 46.605579 -1.468469 51.286896 -25.297279 -113.40437
-25.144892 46.600056 -24.827639 29.997324 -25.418587 -112.87852 -1.4573504 52.178505
-1.4666954 51.27813 -25.424759 -112.85556 -32.502411 15.17807 -31.085093 39.843464
-25.3244 -113.05169 -1.4519038 52.172249 -31.120205 40.770012 -30.6192 15.079303
180000000 -20.781601 30.069952 -21.26404 43.58709 -1.6758009 13.112866 -23.423222 -167.08994
-21.267868 43.53688 -21.854866 24.915974 -23.446207 -166.93765 -1.6282667 14.139151
-1.6774914 13.111226 -23.454599 -166.9169 -23.551008 37.990059 -22.821394 51.251347
-23.425802 -166.81259 -1.6239043 14.079397 -22.75609 51.49065 -24.644064 33.086815
190000000 -21.433046 23.420961 -20.825985 34.874226 -1.5431339 -24.944912 -25.641123 139.48567
-20.817358 34.896942 -22.362942 17.788208 -25.598667 138.72835 -1.4758145 -24.141581
-1.5378059 -24.920477 -25.621939 138.59178 -21.540672 18.905581 -20.836208 34.149498
-25.642586 139.673 -1.4761654 -24.166868 -20.813625 34.079239 -23.25602 21.824398
200000000 -21.196478 15.784492 -20.763632 18.453131 -1.4587065 -64.708923 -27.63394 112.56803
-20.768536 18.445774 -22.070831 7.3206377 -27.796305 110.54666 -1.4235941 -63.950665
-1.4559468 -64.730896 -27.808401 110.94549 -21.042091 -7.1524029 -20.688107 7.1080971
-27.641367 112.85017 -1.4237525 -63.979038 -20.700975 7.1402531 -22.59897 0.28937483
210000000 -24.249353 16.61821 -25.618391 16.381737 -1.4881988 -104.83638 -26.990467 91.778702
-25.622864 16.450739 -25.905943 5.1592016 -27.299137 91.520767 -1.4727136 -103.88669
-1.486518 -104.83784 -27.284391 91.553055 -27.243921 -35.631287 -27.828445 -13.87437
-26.990013 92.046783 -1.4727979 -103.90955 -27.85918 -13.580725 -28.64616 -16.097788
220000000 -22.503622 49.186543 -23.153177 63.397953 -1.6673298 -144.69054 -24.283785 57.694527
-23.152061 63.402439 -24.339016 45.768288 -24.410082 58.033974 -1.6451679 -143.50171
-1.6647351 -144.69344 -24.417643 58.069977 -27.767467 70.204025 -25.725872 77.556931
-24.268354 57.990807 -1.6445913 -143.53307 -25.658627 77.624809 -27.197226 61.124989
230000000 -18.254501 37.071796 -18.252562 46.249828 -1.9468229 176.65367 -22.014124 8.4780312
-18.252079 46.254715 -19.577061 33.133801 -22.022182 8.1392984 -1.8827757 178.03032
-1.9440712 176.65657 -22.028984 8.1385431 -19.243134 41.642071 -18.763891 50.954483
-21.987282 8.6726093 -1.8846431 178.00078 -18.724182 50.875729 -20.326153 39.713806
240000000 -18.477911 15.855081 -18.443724 21.288725 -1.9215883 139.49915 -22.819187 -48.519989
-18.440828 21.261757 -19.666206 10.948339 -22.807203 -49.719685 -1.8292382 140.59839
-1.919057 139.49925 -22.817366 -49.679661 -18.197109 7.63375 -18.238661 18.971176
-22.792049 -48.445007 -1.8309442 140.58859 -18.227322 18.869888 -19.783606 9.8304081
250000000 -20.434137 6.1579084 -21.138878 5.3706656 -1.7073599 100.12303 -25.75856 -84.339226
-21.141113 5.3780947 -21.644123 -1.0738759 -25.900537 -86.413544 -1.6530751 101.12987
-1.7060587 100.11569 -25.895615 -86.23719 -20.090006 -21.405075 -20.81609 -9.3286648
-25.741131 -84.198174 -1.6544396 101.11332 -20.81805 -9.3067102 -21.958298 -14.681323
260000000 -24.761404 19.920231 -28.178791 33.070011 -1.7398682 59.617867 -25.136076 -102.71073
-28.174116 32.978973 -26.692852 13.478836 -25.399416 -103.5435 -1.7024128 60.808327
-1.7391946 59.62241 -25.402079 -103.66036 -30.982561 -46.564781 -36.020683 -5.5688524
-25.109188 -102.59213 -1.7039313 60.794464 -35.960064 -4.7595744 -32.767639 -14.613591
270000000 -20.121885 49.499626 -20.000492 65.233963 -1.9031017 19.675558 -22.959047 -136.81529
-19.997772 65.254448 -21.532728 47.047588 -23.034582 -136.91548 -1.8749861 21.134912
-1.9018252 19.677591 -23.044718 -136.87985 -22.939613 64.659828 -21.157349 75.109398
-22.925938 -136.73146 -1.8780844 21.112732 -21.125372 74.941666 -23.306978 60.83614
280000000 -16.759197 31.028328 -16.493116 39.305283 -2.183583 -18.650198 -21.109541 172.73784
-16.490639 39.294598 -17.913717 27.187511 -21.10569 171.9008 -2.1108263 -17.037924
-2.1822939 -18.645821 -21.114178 171.90689 -17.359797 31.292578 -16.771614 41.261482
-21.075006 172.70638 -2.1147699 -17.048302 -16.758871 41.067719 -18.581306 31.310188
290000000 -17.506014 8.4270058 -17.538193 11.975307 -2.1107976 -55.860027 -22.190516 118.4643
-17.537027 12.044349 -18.576876 3.4550896 -22.180374 116.93959 -2.0218689 -54.514454
-2.1081293 -55.857071 -22.184385 116.90317 -17.139795 -2.1001031 -17.171169 7.9810481
-22.182869 118.39699 -2.0258329 -54.509583 -17.167395 7.8758445 -18.714033 0.67262971
300000000 -20.544374 -3.8453393 -22.069441 -4.0152211 -1.8938055 -95.558281 -24.907909 86.655098
-22.068398 -4.036797 -21.738428 -9.5866928 -24.999662 84.638512 -1.8363832 -94.212822
-1.8939948 -95.557243 -24.993059 84.674316 -20.175476 -32.731331 -21.441837 -23.119478
-24.87537 86.645203 -1.8388054 -94.218224 -21.438972 -23.104538 -22.081947 -26.29133
310000000 -25.254467 36.939949 -26.023582 67.040558 -1.9228166 -135.56125 -24.335249 60.350479
-26.016998 67.100288 -26.652277 31.181293 -24.542845 59.316921 -1.8908495 -134.19464
-1.9221722 -135.55632 -24.539734 59.318848 -40.785496 29.585297 -31.997244 94.459518
-24.306505 60.278366 -1.8942635 -134.20177 -31.974297 93.962326 -35.537712 39.166386
320000000 -18.607851 47.682518 -17.661346 60.229935 -2.1213427 -175.60211 -22.08497 26.587997
-17.658438 60.238895 -19.753325 42.611404 -22.107042 25.449743 -2.0884278 -173.88652
-2.1197081 -175.59564 -22.116833 25.446297 -19.828089 53.092133 -18.367136 66.528442
-22.060482 26.461319 -2.0919344 -173.88618 -18.365522 66.307938 -20.930498 52.364174
330000000 -16.131546 27.094984 -15.535421 32.604248 -2.3136916 146.46703 -21.116127 -24.188364
-15.53286 32.633968 -17.243795 21.16011 -21.124191 -25.912357 -2.2444413 148.21646
-2.3111994 146.47586 -21.133965 -25.93326 -16.125757 20.363258 -15.613386 32.137989
-21.104912 -24.346506 -2.2473757 148.2301 -15.622907 31.988338 -17.665882 21.958372
340000000 -16.573565 5.6274986 -16.816133 5.9772773 -2.1898751 108.33645 -22.510899 -70.079498
-16.811872 5.9132328 -17.782999 -1.1248753 -22.575706 -72.149879 -2.1278095 109.95589
-2.1885774 108.34441 -22.594465 -72.160988 -16.070333 -10.745055 -16.384367 -0.65577078
-22.49054 -70.209267 -2.1294503 109.96741 -16.38726 -0.73860449 -17.858467 -7.6102705
350000000 -20.427952 -12.499849 -23.16675 -14.022391 -2.114542 68.362724 -23.311028 -98.912338
-23.168627 -14.045739 -21.85231 -19.453455 -23.43812 -100.70399 -2.0692363 70.10202
-2.1124451 68.376022 -23.454996 -100.76007 -19.539194 -45.301544 -21.872112 -37.454353
-23.298162 -99.122299 -2.0708139 70.118835 -21.858366 -37.576488 -21.836044 -40.215244
360000000 -23.735884 47.347172 -22.471439 76.219902 -2.1576817 28.868484 -22.928062 -133.29967
-22.465729 76.220024 -24.925747 43.897194 -22.95442 -134.8855 -2.1215751 30.620455
-2.1556575 28.880831 -22.957277 -134.90852 -34.745293 75.280533 -26.150326 99.73111
-22.926306 -133.49719 -2.1234193 30.638214 -26.168837 99.712181 -32.682404 70.17067
370000000 -17.096382 42.631207 -15.97312 52.6045 -2.3209975 -10.623049 -21.449718 -171.13139
-15.969038 52.620224 -18.270315 36.938557 -21.478046 -173.09236 -2.284651 -8.6301079
-2.3187237 -10.614838 -21.493822 -173.13559 -17.926083 44.687801 -16.471725 57.70454
-21.452379 -171.30594 -2.2856824 -8.6083574 -16.485468 57.629524 -19.299036 45.373798
380000000 -15.212882 21.195333 -14.759388 24.332842 -2.4414694 -48.586716 -21.012125 140.13304
-14.74758 24.299438 -16.538155 15.148146 -21.064438 138.06639 -2.3741543 -46.579239
-2.4400532 -48.577404 -21.095194 138.00006 -15.086937 10.558352 -14.717207 21.604128
-21.018675 139.96252 -2.3717508 -46.551823 -14.729383 21.553711 -16.881609 12.357935
390000000 -16.340117 -0.83479893 -17.067106 -2.3896139 -2.2751317 -86.827896 -22.716587 95.526176
-17.070644 -2.3928559 -17.810141 -6.9997888 -22.77903 93.560867 -2.2263427 -84.999985
-2.2741294 -86.812897 -22.799282 93.618164 -15.832894 -21.632856 -16.502831 -12.710497
-22.728079 95.371422 -2.2246127 -84.99015 -16.510775 -12.776009 -17.877024 -19.4634
400000000 -21.826769 -10.846575 -26.653507 -3.7833562 -2.1915808 -126.92283 -23.538534 68.114685
-26.663097 -3.7566233 -23.755291 -14.76614 -23.575333 66.378998 -2.1690285 -124.94965
-2.1897423 -126.89867 -23.606806 66.383514 -21.623638 -57.064526 -25.881804 -51.939552
-23.554451 67.941795 -2.1660352 -124.936 -25.88476 -52.168076 -24.496456 -55.151184
410000000 -21.705517 47.205788 -19.792334 71.075737 -2.3537643 -166.92059 -21.926319 35.293716
-19.779495 71.04631 -22.492071 45.438847 -21.836401 33.216927 -2.3169589 -164.68376
-2.3491561 -166.89517 -21.870848 33.236385 -26.546486 62.870609 -21.783779 84.077133
-21.949745 35.146729 -2.3127811 -164.67409 -21.790909 84.172165 -26.916933 67.490059
420000000 -15.780377 37.060745 -14.626113 44.528194 -2.521229 154.74652 -20.983915 -10.867792
-14.62198 44.47998 -16.778561 31.876322 -21.018364 -13.635915 -2.4611735 156.97966
-2.5161219 154.76134 -21.046322 -13.534551 -16.850468 33.011433 -15.506646 46.367226
-21.009928 -10.959044 -2.4575229 156.97287 -15.516747 46.380192 -18.569984 36.440342
430000000 -14.631866 13.677686 -14.335752 15.44211 -2.4905777 116.91201 -21.563116 -58.538651
-14.339646 15.437636 -15.768658 7.9288073 -21.649574 -60.925228 -2.4265628 118.97711
-2.4853354 116.91889 -21.657206 -60.79184 -14.859154 2.4742582 -14.50559 13.098399
-21.584827 -58.604233 -2.4267509 118.96433 -14.518785 13.104187 -16.695568 6.3466077
440000000 -16.318523 -10.006084 -17.661093 -11.388645 -2.3367608 78.01767 -23.109982 -98.635643
-17.662088 -11.411903 -17.683867 -16.063583 -23.225952 -100.43954 -2.2944944 80.088547
-2.3309879 78.017212 -23.248213 -100.38832 -15.927303 -30.406267 -16.976404 -22.675257
-23.134333 -98.707481 -2.2936804 80.087418 -16.99202 -22.671026 -17.926863 -27.492788
450000000 -23.581413 -8.9886055 -28.872852 27.669037 -2.2518137 37.773754 -23.979446 -123.73232
-28.869553 27.738432 -25.329317 -12.247082 -23.925064 -125.30887 -2.2308033 40.006931
-2.2473435 37.759193 -23.945305 -125.22591 -23.889299 -58.247108 -32.10498 -51.125835
-24.008419 -123.7649 -2.2302928 40.010799 -32.17831 -51.188927 -26.635784 -56.530338
460000000 -19.177504 47.424782 -17.143042 62.955547 -2.4777157 -2.2568326 -21.651516 -157.44864
-17.140905 62.848354 -20.316622 42.978714 -21.617157 -160.20485 -2.4299188 0.22794773
-2.4742558 -2.2760198 -21.657785 -160.054 -22.712669 49.245762 -19.311329 71.492676
-21.680319 -157.43137 -2.4280422 0.22951259 -19.297024 71.57354 -24.187586 54.672718
470000000 -14.835799 28.735382 -13.860041 33.91074 -2.6997852 -39.940205 -20.580122 151.34697
-13.876236 33.886845 -16.118738 23.904722 -20.660969 148.90848 -2.6026161 -37.638836
-2.6992435 -39.9631 -20.66777 149.28314 -15.749835 19.105167 -14.72914 34.018684
-20.600409 151.39214 -2.6036201 -37.66423 -14.725221 34.043736 -17.675745 23.890684
480000000 -14.349916 5.9586964 -14.524875 5.8018608 -2.5882769 -77.625122 -21.563976 102.67505
-14.53 5.7748995 -15.767276 0.47326252 -21.662151 100.44958 -2.5207753 -75.504372
-2.589292 -77.629898 -21.676079 100.55807 -14.410884 -11.195222 -14.513758 -0.37402478
-21.580503 102.70418 -2.5211046 -75.499153 -14.512465 -0.34511256 -16.362139 -7.7905931
490000000 -16.869719 -12.6752 -19.383682 -13.269015 -2.3698339 -116.62337 -23.799997 62.134838
-19.404783 -13.143011 -18.591436 -17.826902 -23.939379 60.798199 -2.3304915 -114.49332
-2.3709393 -116.61452 -23.944109 61.064632 -16.885979 -45.87418 -18.99872 -38.418736
-23.812899 62.124046 -2.3307509 -114.49751 -19.002897 -38.393513 -19.071955 -44.151016
500000000 -22.172709 4.0544853 -24.056868 47.127216 -2.3458068 -157.4512 -24.065018 43.084839
-24.045866 47.094646 -23.877571 3.3960178 -23.893875 42.242302 -2.3190322 -155.03185
-2.3451011 -157.43291 -23.902937 42.299007 -30.57004 -61.149845 -33.786503 97.534348
-24.092382 43.046177 -2.3181541 -155.02148 -33.746468 97.317986 -35.204849 -67.624573
510000000 -17.948296 33.47617 -16.131002 49.680973 -2.6960609 163.26744 -21.268003 1.6834137
-16.14212 49.703289 -19.211031 31.266134 -21.067289 -0.95656681 -2.5956059 165.84906
-2.6930816 163.26917 -21.066702 -0.6400035 -19.680174 40.925339 -16.906677 59.565765
-21.296446 1.7616601 -2.5944738 165.83141 -16.903301 59.546471 -21.564383 48.420265
520000000 -15.104217 21.56645 -14.083866 25.928072 -2.6988902 126.58156 -21.584784 -52.613731
-14.082004 25.96122 -16.206083 17.282227 -21.539848 -56.100647 -2.6094949 128.49561
-2.698076 126.59662 -21.528763 -56.083149 -15.418942 12.613437 -14.240517 25.800337
-21.60214 -52.581894 -2.6095374 128.495 -14.239291 25.804626 -17.238995 18.319744
530000000 -14.561039 -0.26483643 -15.185089 -0.70392781 -2.5253017 88.07679 -22.890736 -97.791779
-15.185806 -0.63605595 -16.016205 -5.6508145 -23.075462 -100.74168 -2.4819431 90.096024
-2.5227003 88.089722 -23.076525 -100.67562 -14.714701 -18.681002 -14.995267 -9.1884489
-22.911877 -97.767998 -2.4820037 90.090118 -14.995204 -9.1841202 -16.653418 -15.258987
540000000 -18.03985 -16.578699 -21.706663 -9.8757429 -2.3290074 48.10759 -25.388653 -128.52298
-21.683247 -9.7709255 -19.775234 -21.132917 -25.65015 -129.2356 -2.3125086 50.270893
-2.3263371 48.122448 -25.655413 -129.15225 -18.642138 -48.571068 -21.825708 -40.685711
-25.420258 -128.56223 -2.3124156 50.272587 -21.834768 -40.634972 -20.686245 -47.378613
550000000 -21.222799 20.81646 -19.962893 54.872158 -2.4803333 7.3914337 -23.533146 -150.46405
-19.976931 54.80542 -22.834768 19.191723 -23.429676 -151.09883 -2.4500403 9.8958426
-2.4753516 7.3982329 -23.419306 -151.00314 -28.983688 6.5296435 -24.363213 71.901764
-23.581795 -150.26566 -2.4498127 9.8919382 -24.33803 71.930115 -32.536945 13.30119
560000000 -16.501797 26.672228 -14.810685 38.737976 -2.801631 -30.540665 -21.456284 159.19299
-14.809717 38.77573 -17.875601 25.0532 -21.332874 157.61037 -2.6937144 -28.303844
