!Keysight Technologies,N5231B,MY57181281,A.17.25.05
!Date: Friday, March 07, 2025 16:19:33
!Correction: S11(C  4-Port  ) 
!S12(C  4-Port  ) 
!S13(C  4-Port  ) 
!S14(C  4-Port  ) 
!S21(C  4-Port  ) 
!S22(C  4-Port  ) 
!S23(C  4-Port  ) 
!S24(C  4-Port  ) 
!S31(C  4-Port  ) 
!S32(C  4-Port  ) 
!S33(C  4-Port  ) 
!S34(C  4-Port  ) 
!S41(C  4-Port  ) 
!S42(C  4-Port  ) 
!S43(C  4-Port  ) 
!S44(C  4-Port  ) 
!S4P File: Measurements: <S11,S12,S13,S14>,
!<S21,S22,S23,S24>,
!<S31,S32,S33,S34>,
!<S41,S42,S43,S44>:
# Hz S  dB   R 50
10000000 -22.877878 -0.17632149 -26.848475 21.122511 -0.47592574 -59.545849 -35.065243 152.23077
-26.772465 21.363937 -22.948463 -0.57266563 -34.851215 152.4903 -0.47454447 -59.567589
-0.46400928 -59.490505 -35.681644 151.46843 -23.890869 -1.542621 -28.340633 23.034168
-35.518791 151.5164 -0.46609294 -59.516754 -28.333614 22.311501 -23.860733 -2.0498765
20000000 -27.145519 -42.921669 -29.780897 -15.593566 -0.67163253 -117.38416 -32.339127 81.345558
-29.566236 -15.028981 -27.370672 -42.500584 -32.043839 80.529747 -0.66567814 -117.48245
-0.64671874 -117.37787 -33.10675 83.046494 -29.442192 -23.651161 -29.931396 13.235489
-32.93795 82.528221 -0.64443552 -117.48861 -30.032604 13.410955 -29.378454 -24.684008
30000000 -36.027897 37.353333 -36.055428 46.509506 -0.66437423 -174.56328 -38.230347 -2.7544291
-36.087669 45.856842 -36.329399 37.064835 -38.184776 -2.3971391 -0.6552183 -174.66946
-0.65938962 -174.58295 -38.46384 -0.97961742 -35.851742 37.679909 -35.318035 41.644577
-38.406662 -1.5086873 -0.65455097 -174.69463 -35.311932 41.947521 -36.443069 34.581696
40000000 -23.60862 11.025142 -24.643547 22.06068 -0.80914772 127.00644 -33.326839 -20.154119
-24.584688 21.955925 -23.736988 12.956118 -33.018543 -21.019129 -0.79294991 126.78125
-0.79133141 127.04079 -33.79734 -18.7787 -25.170729 24.66589 -25.72344 35.8312
-33.747593 -19.41008 -0.78041464 126.78828 -25.771601 34.801701 -25.049147 24.300657
50000000 -28.083773 -39.52507 -29.853466 -24.091244 -0.95838422 69.481773 -30.952765 -86.067085
-29.620708 -23.716246 -28.515638 -35.759357 -30.674408 -88.265877 -0.94249779 69.125221
-0.92892569 69.439186 -31.425486 -82.994316 -28.079548 13.128925 -27.468962 26.18223
-31.374657 -83.715904 -0.92064816 69.062759 -27.644566 26.017303 -28.110596 10.717269
60000000 -30.010563 45.27998 -29.519033 52.446404 -1.0783907 12.78644 -29.7152 -169.09932
-29.751276 51.67915 -29.22839 43.992645 -29.713589 -171.45819 -1.0811644 12.352746
-1.0704112 12.611666 -29.761438 -165.65977 -27.808228 26.668903 -27.321272 30.657591
-29.8393 -166.26021 -1.0798172 12.205329 -27.497215 30.283983 -27.701773 25.743189
70000000 -23.067684 19.41544 -23.584539 29.765974 -1.0094738 -45.26886 -34.356747 156.6114
-23.583052 29.577499 -23.186167 20.750624 -34.05265 155.79709 -0.99237722 -45.734505
-0.99531704 -45.287239 -34.510368 158.47191 -23.952854 36.734894 -23.956894 42.452465
-34.607975 157.60046 -0.98487705 -45.762596 -24.018469 41.804417 -23.904606 36.495018
80000000 -26.149523 -40.039089 -27.895309 -27.278032 -1.147867 -102.99948 -31.002798 103.62831
-27.786209 -27.462925 -26.726151 -36.479259 -30.679296 100.92858 -1.1290501 -103.61601
-1.1207857 -103.08253 -31.132626 106.3335 -25.679264 19.782791 -25.611725 26.650305
-31.271143 105.91888 -1.1148422 -103.70277 -25.831869 26.376003 -25.724724 18.080576
90000000 -30.056498 71.320992 -28.197697 76.921967 -1.3192923 -160.09502 -28.199575 32.929531
-28.384233 77.253189 -28.929785 68.355827 -28.14641 29.318066 -1.3191128 -160.87166
-1.3028857 -160.33121 -28.111704 35.401299 -24.888695 33.433781 -24.582674 40.454605
-28.248259 35.505642 -1.3176414 -161.0246 -24.758533 39.898163 -24.68342 34.197304
100000000 -22.963438 25.927874 -22.94327 35.566692 -1.2179848 142.9447 -33.069218 -39.1679
-22.963472 35.54417 -23.101051 26.907879 -32.949593 -39.118828 -1.2112873 142.31436
-1.2115555 142.91655 -33.058407 -37.595222 -23.388851 38.200226 -23.018715 42.961037
-33.130978 -38.571621 -1.2106729 142.28194 -23.073904 42.829742 -23.391798 36.260555
110000000 -24.395962 -32.546089 -25.528397 -22.861584 -1.3092134 84.805229 -31.199764 -68.564705
-25.554234 -22.961594 -25.069715 -28.42787 -30.822466 -71.661827 -1.2896992 83.969612
-1.2868241 84.737083 -31.133589 -67.466751 -23.953108 19.862406 -23.957832 23.0555
-31.394352 -67.29966 -1.2824057 83.92086 -24.187735 22.688173 -24.135525 16.948597
120000000 -31.050713 96.180305 -28.371168 99.925575 -1.488732 27.219824 -27.525856 -127.5849
-28.347527 99.916611 -29.345249 89.519135 -27.504446 -131.979 -1.4835584 26.148859
-1.4638262 27.003519 -27.570518 -126.59111 -23.676708 39.392796 -23.437679 47.734077
-27.655367 -125.76619 -1.4740204 26.060631 -23.616385 47.40992 -23.709543 42.055252
130000000 -21.839941 27.732811 -21.502419 36.548306 -1.5380192 -28.732216 -27.688538 142.01738
-21.507845 36.491062 -21.576958 26.825508 -27.936546 140.95752 -1.5662138 -29.611788
-1.5474805 -28.826406 -27.709826 143.37534 -22.642181 29.342899 -21.938467 32.856903
-27.68623 143.12469 -1.5682552 -29.685125 -22.055273 33.834091 -22.416714 26.718395
140000000 -22.774315 -23.520916 -23.382511 -14.522914 -1.4779265 -86.985451 -30.933588 109.96764
-23.422853 -14.308562 -23.18487 -21.958826 -30.612896 107.37672 -1.4635209 -88.024231
-1.4592643 -87.07328 -30.902588 111.11372 -22.608294 19.312849 -22.391996 19.274231
-31.132252 110.71758 -1.4590104 -88.061592 -22.606951 18.860096 -22.597788 17.128126
150000000 -33.604446 123.30696 -29.754448 118.2711 -1.6346942 -144.8871 -27.368494 61.705444
-29.729122 117.1348 -31.449768 114.59409 -27.366348 57.951664 -1.6312683 -146.18976
-1.6108598 -145.07343 -27.47695 62.586178 -23.428574 39.33749 -23.60338 47.430431
-27.569435 63.232014 -1.6174515 -146.2312 -23.791494 47.753784 -23.411411 41.043476
160000000 -20.360886 39.483276 -19.582119 46.574322 -1.8324925 158.85469 -24.992561 -18.788771
-19.596668 46.311607 -19.962337 39.205215 -25.270115 -20.734499 -1.8783389 157.55977
-1.8412788 158.61603 -25.056671 -16.924829 -20.763689 25.745085 -19.96187 30.578255
-25.046555 -17.112791 -1.873511 157.4171 -20.160181 31.730137 -20.207481 22.938494
170000000 -21.26812 -13.977606 -21.519611 -6.3961368 -1.6750878 101.66838 -29.402491 -78.296196
-21.541538 -6.2050581 -21.709148 -13.336532 -29.15991 -80.545609 -1.6779448 100.38387
-1.6610649 101.50721 -29.399057 -76.296227 -21.747074 15.155966 -21.160618 15.798687
-29.558743 -77.368988 -1.6711974 100.34078 -21.40382 15.557344 -21.670696 11.678722
180000000 -39.430687 176.47787 -33.121452 143.63147 -1.754541 43.510349 -27.825348 -116.38827
-33.241879 142.03548 -35.822567 143.91664 -27.806335 -119.02691 -1.7674651 42.0732
-1.7433085 43.362495 -27.880295 -115.5004 -24.44244 33.752975 -24.749168 42.597027
-28.027916 -115.25521 -1.7509402 42.006908 -24.877981 43.732136 -24.741991 35.590519
190000000 -19.968445 53.087784 -18.709394 61.364464 -2.0021017 -13.672916 -24.396713 179.00497
-18.73284 60.991901 -19.361113 53.411453 -24.615709 176.40358 -2.0363882 -15.284575
-1.9956397 -13.96191 -24.485991 -178.896 -19.97035 30.253595 -18.795719 35.97319
-24.49638 -179.1319 -2.0235608 -15.469069 -19.010109 36.968353 -19.274055 28.672619
200000000 -19.575922 -7.4593711 -19.519161 1.8831536 -1.9139085 -69.728615 -26.630486 102.0628
-19.539106 1.9407119 -19.830912 -7.4426584 -26.656622 100.43803 -1.9397821 -71.205376
-1.913565 -69.930336 -26.63175 104.40037 -20.876778 12.512327 -19.882843 11.505917
-26.689907 103.20577 -1.9413017 -71.31662 -20.102865 12.012425 -20.668379 7.2378917
210000000 -32.509205 -101.6673 -38.161995 -140.92358 -1.8865483 -127.87945 -27.899551 61.522118
-38.580395 -140.45486 -35.458179 -127.62523 -27.938759 60.200775 -1.9052815 -129.48706
-1.884496 -127.99369 -27.845228 62.726681 -24.830276 22.625637 -26.131044 26.667486
-28.040558 62.248241 -1.8982269 -129.53294 -26.260561 28.98595 -25.695749 23.357389
220000000 -20.445927 68.051132 -18.722534 73.906349 -2.0970755 174.16399 -24.554939 12.770309
-18.746977 73.418251 -19.491968 68.512695 -24.756533 10.176592 -2.1261616 172.28767
-2.0870135 173.88078 -24.655645 14.671834 -19.740108 34.861164 -18.766626 42.587906
-24.66588 14.35431 -2.1094565 172.14346 -18.931822 43.891132 -18.981039 34.578285
230000000 -17.854038 4.26474 -17.533743 11.460268 -2.1651435 118.38626 -24.430325 -66.136902
-17.562767 11.34614 -17.740358 5.2777038 -24.610765 -67.622185 -2.2149627 116.61679
-2.1736529 118.13638 -24.456938 -63.486259 -19.395706 10.367803 -18.484617 10.905469
-24.490295 -64.799767 -2.214241 116.45493 -18.674654 12.127832 -18.850798 4.4063802
240000000 -25.402441 -68.826134 -29.161543 -74.354576 -2.062634 60.884022 -26.650829 -121.25066
-29.209467 -73.5019 -27.342022 -70.234337 -26.80549 -121.92323 -2.0994985 59.098186
-2.0745728 60.771507 -26.495035 -119.49419 -23.883703 2.997752 -25.602081 3.8706679
-26.708111 -120.56181 -2.0993037 59.037746 -25.815914 7.1692324 -24.977434 -4.8142147
250000000 -22.896585 79.63031 -19.535751 86.22773 -2.1553936 2.4746284 -25.41814 -158.41771
-19.568024 85.726295 -21.226883 77.499306 -25.575422 -161.41763 -2.1804588 0.42438233
-2.1438856 2.2491345 -25.531658 -157.22353 -20.861298 34.726021 -19.282423 48.255264
-25.564072 -156.97527 -2.1634996 0.31107327 -19.360477 49.79784 -20.305742 37.821957
260000000 -17.782656 14.529052 -16.309614 23.714546 -2.3292589 -53.723274 -23.710346 127.79126
-16.338238 23.491827 -17.106857 14.881934 -24.014299 125.89357 -2.3882372 -55.787048
-2.336072 -54.006699 -23.862288 130.12372 -19.422911 11.574518 -17.380562 14.203807
-23.79023 129.25189 -2.3822365 -55.978207 -17.511988 15.769403 -18.582767 7.9733539
270000000 -22.473879 -58.640469 -23.160841 -48.413124 -2.2464538 -110.7188 -25.183994 66.13636
-23.187122 -48.17527 -22.661346 -58.032887 -25.582211 65.376251 -2.3015342 -112.7345
-2.267792 -110.89625 -25.199598 68.711868 -23.876921 -1.0421218 -23.254101 -11.358258
-25.209969 67.153084 -2.3057232 -112.85526 -23.547573 -8.1743879 -23.779621 -11.051713
280000000 -23.889011 99.005203 -20.981934 97.272919 -2.2414918 -168.7906 -25.985792 21.974174
-21.023304 96.855225 -22.553055 95.812187 -26.066648 20.712717 -2.2680883 -170.90224
-2.2330511 -168.9465 -26.088802 23.953276 -21.10741 43.326935 -20.456774 55.012081
-26.157625 23.151834 -2.2537656 -171.00383 -20.37286 56.455395 -20.792891 44.050335
290000000 -17.469625 30.64555 -15.84971 35.854301 -2.4423892 134.51314 -23.682903 -43.463551
-15.880768 35.594852 -16.819431 30.838718 -23.940687 -44.911804 -2.4890912 132.2569
-2.4464018 134.23854 -23.834867 -40.790291 -18.537495 16.553991 -16.907829 21.083092
-23.7572 -42.071163 -2.483706 132.06564 -16.941755 22.7321 -17.82749 12.04281
300000000 -19.864523 -33.659016 -19.498749 -26.672527 -2.3670058 77.816422 -24.97261 -108.01878
-19.535995 -26.77272 -19.681061 -31.255087 -25.304676 -109.00935 -2.4162207 75.532799
-2.3815382 77.595757 -25.072985 -104.73347 -21.993441 -6.8574805 -20.873575 -11.247241
-25.035816 -106.7646 -2.4174211 75.36792 -21.047792 -8.6913481 -21.558588 -17.273825
310000000 -28.246767 125.8911 -24.384253 118.37335 -2.3213961 19.849947 -26.35084 -155.01167
-24.426996 117.97045 -26.967142 116.1538 -26.461159 -155.91599 -2.354214 17.586172
-2.3229451 19.679152 -26.316881 -152.33575 -22.808527 42.794834 -22.24161 54.82914
-26.450306 -153.83018 -2.3489304 17.468773 -21.994772 56.555416 -23.114849 44.308201
320000000 -17.647764 43.49715 -15.802525 49.020241 -2.5043924 -37.589672 -24.154724 150.6456
-15.83125 48.761059 -16.94334 42.419708 -24.460915 148.80385 -2.531836 -40.076511
-2.5067978 -37.879402 -24.278936 153.38585 -18.325058 23.284662 -16.636051 27.682053
-24.204559 152.04518 -2.5270123 -40.269161 -16.586714 29.51807 -17.824999 20.098419
330000000 -18.026081 -18.934067 -17.342426 -11.302924 -2.4981143 -94.181572 -24.568457 86.262962
-17.387135 -11.477711 -17.575378 -17.828766 -24.998692 84.629349 -2.5393081 -96.806755
-2.513278 -94.468056 -24.692909 89.737038 -20.019417 -5.1143522 -18.752922 -8.6961288
-24.612097 87.662994 -2.5406642 -97.005539 -18.843822 -6.0572152 -19.467556 -12.337554
340000000 -29.91522 -167.13849 -28.408354 159.75404 -2.5391977 -151.86446 -24.269859 32.841393
-28.488785 159.04353 -30.278015 -172.93674 -24.720379 33.215473 -2.5979316 -154.42288
-2.5633287 -152.05695 -24.219912 36.256573 -25.497547 32.807682 -26.413658 49.35355
-24.241404 33.873169 -2.6080217 -154.57372 -25.51136 51.902889 -26.679827 29.490234
350000000 -17.746616 56.441128 -15.667583 59.686913 -2.6766937 150.9928 -23.299856 -24.956373
-15.69397 59.516644 -17.199661 55.174107 -23.575729 -25.885708 -2.7131464 148.33073
-2.6906812 150.74742 -23.291201 -22.459995 -18.238907 24.943916 -16.730303 31.877207
-23.293316 -23.948006 -2.7186291 148.16487 -16.523575 33.397091 -17.946943 20.710117
360000000 -17.34441 -1.7780695 -16.340076 3.7528429 -2.6209002 95.204399 -24.078991 -98.55397
-16.366426 3.6195312 -17.06871 -0.92287385 -24.376909 -99.410294 -2.6612022 92.453026
-2.6296113 95.003998 -24.317308 -95.796677 -19.292885 -3.4812539 -18.0611 -3.975816
-24.158075 -97.769852 -2.6620526 92.322304 -17.943638 -2.1788464 -19.180014 -11.596431
370000000 -28.014248 -67.022125 -33.239994 -63.074017 -2.5025961 37.10313 -26.170933 -145.35597
-33.497391 -63.008339 -28.492464 -60.998768 -26.627491 -146.88792 -2.5503352 34.303703
-2.5168982 36.846424 -26.303226 -141.20213 -26.56262 13.193531 -28.252558 29.030834
-26.193521 -143.98108 -2.5551894 34.137936 -27.420435 33.349346 -28.548563 10.126338
380000000 -19.739321 65.536827 -16.978025 69.559105 -2.6950355 -20.677633 -24.017113 164.34129
-16.985701 69.275955 -19.125559 63.497536 -24.403416 163.26839 -2.7439468 -23.527668
-2.7148941 -20.968843 -23.983883 167.67857 -19.169714 32.604885 -17.203188 40.722435
-23.996746 165.46669 -2.751044 -23.708349 -16.904068 41.750389 -18.930239 29.975309
390000000 -16.683929 10.043802 -15.33041 15.25377 -2.6995423 -76.79792 -24.296412 94.270897
-15.355687 15.103889 -16.4237 9.9956446 -24.72097 92.87883 -2.7418633 -79.663788
-2.7258971 -77.047874 -24.380148 97.534821 -18.332773 4.6988473 -16.824461 4.1991444
-24.29464 95.1791 -2.7522039 -79.814888 -16.586905 6.0255756 -18.380117 -2.0133502
400000000 -22.975737 -50.294941 -24.841665 -42.544575 -2.5860367 -134.48631 -26.226753 43.000771
-24.960821 -42.390007 -23.266579 -47.850422 -26.902334 41.17384 -2.620497 -137.48421
-2.618608 -134.71245 -26.22991 46.644039 -24.129152 -9.831255 -25.79954 -8.2231264
-26.179865 44.035141 -2.632668 -137.6351 -25.189341 -2.7675741 -25.132998 -17.228794
410000000 -22.028814 77.643524 -18.187056 80.130562 -2.7933035 167.46484 -23.713812 -4.9115973
-18.192741 79.773216 -21.056673 76.401619 -24.324785 -5.0490661 -2.848933 164.38158
-2.8247972 167.24083 -23.711895 -1.8957628 -21.07226 36.770115 -18.581562 49.651344
-23.655445 -4.1282506 -2.8626382 164.22372 -18.081728 49.097546 -20.956493 35.534122
420000000 -16.50683 19.610849 -14.643083 24.40132 -2.8589296 111.84649 -23.398323 -79.85569
-14.653271 24.269129 -16.110975 20.151722 -23.896629 -80.453674 -2.9041176 108.86699
-2.8879979 111.6692 -23.526899 -77.06086 -18.480328 10.418737 -16.403425 12.349916
-23.369122 -79.291176 -2.9186087 108.74811 -16.023417 12.906815 -18.429237 3.8125365
430000000 -19.859097 -33.617584 -20.263721 -26.372196 -2.6841092 54.626553 -25.936966 -139.30576
-20.328318 -26.425222 -19.894909 -30.686817 -26.52298 -141.06857 -2.7064419 51.496193
-2.7202406 54.44524 -25.896551 -135.80423 -22.149033 -15.79121 -22.598377 -15.398869
-25.874186 -138.60249 -2.7260602 51.373627 -21.976244 -12.693906 -22.776094 -23.636671
440000000 -27.277788 74.592422 -20.918516 82.883232 -2.7676713 -3.9971611 -25.156883 -175.67969
-20.877033 82.455803 -25.280802 74.115257 -25.892736 -176.62306 -2.8044939 -7.3484631
-2.7972791 -4.1958971 -25.183371 -173.52252 -23.820765 32.185226 -20.475859 52.619106
-25.102612 -175.2916 -2.8208477 -7.4620652 -19.930363 50.620552 -23.747522 31.726963
450000000 -17.24481 26.998901 -14.580601 32.51482 -2.9885116 -60.101013 -22.874207 113.55607
-14.585307 32.261459 -16.590555 27.727825 -23.569189 112.86987 -3.0523481 -63.361843
-3.0303798 -60.303371 -23.00898 116.0154 -19.776573 15.250747 -16.665565 19.836721
-22.832047 113.93905 -3.0742466 -63.468796 -16.184452 18.969242 -19.583815 8.8838797
460000000 -18.812965 -25.098513 -18.09086 -17.832603 -2.831311 -116.50311 -24.704962 45.216568
-18.138283 -17.994989 -18.55324 -21.126684 -25.339092 43.846031 -2.8689926 -119.79508
-2.8733606 -116.6495 -24.760778 47.824242 -22.206717 -11.2557 -21.169662 -11.433241
-24.672678 45.627571 -2.8918982 -119.86925 -20.469154 -11.557638 -22.586948 -20.858332
470000000 -33.113224 56.702106 -24.412527 80.576271 -2.8287179 -175.02592 -25.393223 5.1596198
-24.313707 80.119461 -29.86636 51.859024 -26.184181 3.5903649 -2.8739862 -178.49695
-2.8652782 -175.17632 -25.476162 6.5393481 -25.472519 39.073906 -21.716959 60.110043
-25.370209 5.4868484 -2.8930261 -178.56313 -21.449537 56.142086 -26.088219 41.905308
480000000 -18.208002 32.056919 -15.075257 38.147579 -3.0741079 128.63493 -22.678263 -60.999184
-15.074131 37.887264 -17.657393 30.27387 -23.492945 -62.450047 -3.1501007 125.21087
-3.117703 128.43239 -22.997311 -59.137356 -19.746914 26.06167 -16.148773 30.366854
-22.659317 -60.344162 -3.171586 125.11076 -15.860906 28.230057 -19.696966 22.635651
490000000 -17.623056 -12.590183 -16.319136 -6.9891567 -2.9313481 72.317535 -24.16547 -130.61581
-16.365986 -7.2243853 -17.499502 -10.625205 -24.913673 -131.83174 -2.9774904 68.932587
-2.9917812 72.18087 -24.211025 -127.22343 -20.694279 -3.9683814 -18.86372 -3.8963544
-24.077883 -129.9397 -3.0065761 68.868645 -18.356371 -5.5541511 -21.235643 -8.8254719
500000000 -32.042183 -30.001156 -30.722816 52.709492 -2.8548458 13.900501 -26.000427 -174.09909
-30.487553 53.058453 -30.965681 -7.0443535 -26.877735 -175.82198 -2.9090827 10.32576
-2.9094782 13.848818 -25.887314 -173.23105 -26.453226 26.085361 -23.050446 52.629169
-25.889736 -173.98305 -2.9333231 10.309099 -22.969328 47.432678 -26.601372 33.556698
510000000 -19.518965 37.416027 -15.628134 44.456928 -3.1475096 -43.182011 -22.768337 129.57092
-15.627048 44.185181 -18.561777 34.304863 -23.592052 128.29599 -3.2386773 -46.736107
-3.2003059 -43.265026 -22.948593 130.38818 -20.408165 29.021847 -16.030878 34.909992
-22.705664 129.89783 -3.2621965 -46.790279 -15.896841 32.163414 -19.74168 27.280542
520000000 -17.350462 -1.9421622 -15.231938 2.0651405 -3.0656507 -99.134979 -23.391834 58.033516
-15.275007 1.813229 -16.834587 -2.8072166 -24.273146 56.671482 -3.1308408 -102.51415
-3.1342292 -99.153748 -23.442736 59.95491 -20.352844 2.7039528 -17.344822 1.9599538
-23.275532 58.308949 -3.1629088 -102.52839 -17.033821 -0.79877752 -20.057863 -0.4623839
530000000 -26.498735 -40.212925 -28.808214 -10.955235 -2.9647911 -157.12198 -25.196442 6.5582299
-28.856098 -9.8668327 -25.91707 -36.598896 -26.146654 5.1790886 -3.0272903 -160.6622
-3.0202639 -157.01598 -25.151997 6.2201686 -26.848173 17.245344 -24.161839 38.42487
-25.096813 6.2791176 -3.0519748 -160.61987 -24.369652 31.963348 -26.182734 15.925481
540000000 -20.435165 43.680618 -16.28957 50.08894 -3.2566783 145.26131 -22.529984 -43.002941
-16.289186 49.828732 -19.905193 39.749294 -23.282305 -43.469639 -3.3420324 141.71509
-3.3014526 145.33093 -22.696653 -43.138561 -20.848019 33.028332 -16.159462 39.560852
-22.499565 -43.011204 -3.3627496 141.72499 -16.254232 36.870525 -20.25326 27.502602
550000000 -17.104506 6.6646013 -14.68035 8.4873457 -3.2527566 89.897476 -22.149788 -116.44047
-14.7122 8.2645884 -16.896057 4.3238711 -22.883577 -117.97801 -3.3155639 86.521233
-3.3065815 89.978241 -22.254856 -116.26034 -20.265581 9.6877041 -16.333193 9.2061558
-22.087965 -116.31166 -3.3433361 86.54628 -16.326685 6.1877065 -19.888288 5.0713873
560000000 -22.591084 -36.433247 -23.844038 -27.839582 -3.0778942 32.590973 -24.021164 -177.66792
-23.920568 -27.547962 -22.846376 -37.028709 -24.768915 179.39761 -3.126214 28.957106
-3.1172991 32.761242 -24.071888 -179.84618 -26.535213 8.4462223 -23.225554 20.993231
