!Keysight Technologies,N5231B,MY57181281,A.17.25.05
!Date: Friday, March 07, 2025 16:33:35
!Correction: S11(C  4-Port  ) 
!S12(C  4-Port  ) 
!S13(C  4-Port  ) 
!S14(C  4-Port  ) 
!S21(C  4-Port  ) 
!S22(C  4-Port  ) 
!S23(C  4-Port  ) 
!S24(C  4-Port  ) 
!S31(C  4-Port  ) 
!S32(C  4-Port  ) 
!S33(C  4-Port  ) 
!S34(C  4-Port  ) 
!S41(C  4-Port  ) 
!S42(C  4-Port  ) 
!S43(C  4-Port  ) 
!S44(C  4-Port  ) 
!S4P File: Measurements: <S11,S12,S13,S14>,
!<S21,S22,S23,S24>,
!<S31,S32,S33,S34>,
!<S41,S42,S43,S44>:
# Hz S  dB   R 50
10000000 -28.385904 35.593426 -31.610659 53.795609 -0.20964059 -22.526815 -37.230328 -148.29079
-31.601223 53.720078 -28.345604 35.396175 -37.37009 -148.29999 -0.20687433 -22.478985
-0.20786864 -22.533802 -37.308319 -148.32829 -27.960562 35.294899 -30.836515 52.494316
-37.279247 -148.27081 -0.20630124 -22.475477 -30.908752 52.434734 -27.87536 35.854214
20000000 -26.111681 22.339312 -28.127132 40.121578 -0.29506639 -44.302734 -33.806675 -171.63593
-28.13306 40.022667 -25.980564 21.66914 -33.930477 -171.38513 -0.2936132 -44.190899
-0.29468131 -44.311401 -33.871487 -171.53629 -25.000921 15.776535 -26.960356 32.004429
-33.857975 -171.50299 -0.29268879 -44.185562 -27.030127 31.88554 -24.919729 17.260977
30000000 -26.190264 12.782414 -27.313602 29.966328 -0.36550361 -65.998154 -31.536314 167.35544
-27.330936 29.932812 -25.858778 10.988131 -31.64237 167.73601 -0.36397374 -65.81736
-0.36625665 -66.010231 -31.581507 167.46455 -24.528372 -5.4109864 -26.095268 10.994226
-31.582119 167.57072 -0.36308768 -65.817482 -26.172443 10.682043 -24.360466 -2.5794156
40000000 -27.635859 13.577441 -27.869305 29.275223 -0.44725677 -87.751572 -29.250799 145.15916
-27.887421 29.410183 -27.080227 8.6758385 -29.31872 145.72623 -0.44503385 -87.463074
-0.44919634 -87.75161 -29.270012 145.34325 -26.263004 -27.861197 -27.884884 -8.8933535
-29.284971 145.49385 -0.4426716 -87.472687 -28.009888 -9.6594028 -25.848345 -22.513803
50000000 -27.450272 23.327799 -27.264452 33.552361 -0.56564647 -109.17359 -27.749847 115.02415
-27.263252 33.39146 -27.218641 14.389973 -27.706505 115.21133 -0.55459589 -108.77884
-0.56565857 -109.16175 -27.677593 114.94177 -31.389814 -42.802795 -32.833214 -12.925159
-27.762907 115.33925 -0.55279744 -108.80048 -33.250557 -13.180199 -29.753265 -33.715572
60000000 -25.735603 38.023514 -25.86977 44.032391 -0.69839501 -130.75681 -25.703463 88.797913
-25.783554 44.246826 -26.602711 27.672316 -25.768717 89.490433 -0.6771192 -130.27156
-0.70560539 -130.74228 -25.756617 88.736115 -42.085743 68.379852 -35.21452 67.152832
-25.715504 89.371353 -0.66886783 -130.28503 -35.530949 71.816002 -39.202377 14.508304
70000000 -23.132435 25.784464 -23.648857 32.849281 -0.90749556 -151.23932 -24.630463 48.486687
-23.691402 32.414433 -24.109549 20.321985 -24.333569 48.756538 -0.83376062 -150.77788
-0.89695209 -151.17039 -24.441576 48.544224 -27.147589 53.135223 -26.826967 57.469997
-24.514729 48.962261 -0.84047216 -150.86736 -26.39747 59.500053 -28.693644 42.479614
80000000 -25.352354 -3.9033768 -26.726967 6.7252846 -0.81356269 -170.14188 -26.669123 -8.7030735
-26.725794 6.7612929 -26.208221 -9.817173 -26.478436 -10.305998 -0.75242871 -170.04431
-0.80533862 -170.16772 -26.559523 -10.312874 -26.663462 10.217381 -27.365822 24.597984
-26.579916 -9.2960453 -0.75537622 -170.0202 -27.17033 23.640202 -27.627831 6.0150299
90000000 -27.804722 48.124046 -26.445009 61.067234 -0.53489524 167.34224 -36.333519 8.1128969
-26.491747 61.071583 -28.744104 46.430626 -36.477638 6.6573 -0.51514971 167.52594
-0.53211319 167.3244 -36.366657 7.9374738 -27.774147 44.664566 -26.441631 60.282009
-36.449505 8.0171518 -0.51394475 167.51091 -26.487673 60.397007 -28.685335 44.494011
100000000 -23.289795 45.516438 -22.456491 50.950397 -0.5687145 144.95618 -31.014565 21.892576
-22.4716 51.096992 -23.90678 43.128242 -31.014889 21.083691 -0.55828369 145.27934
-0.56752229 144.94438 -30.924816 20.74507 -23.249308 30.755068 -22.585571 42.657402
-31.021862 22.19235 -0.55924755 145.26286 -22.601141 42.81422 -23.869253 31.776892
110000000 -22.026659 35.472298 -21.571825 37.883984 -0.63890994 122.94508 -27.74325 3.9427793
-21.574186 38.047737 -22.517017 32.444477 -27.720728 2.8962979 -0.63112587 123.39555
-0.63831621 122.93684 -27.69207 2.4761128 -22.174715 5.6701312 -22.01293 17.860592
-27.727297 4.2029095 -0.6318441 123.37871 -22.036747 17.914074 -22.650181 7.8375406
120000000 -22.082317 31.085039 -22.123983 31.164074 -0.74133092 100.95461 -25.172537 -18.95084
-22.102686 31.306602 -22.475761 26.948799 -25.135826 -20.173452 -0.73280019 101.55761
-0.7424174 100.95505 -25.136812 -20.565336 -23.881268 -22.966074 -24.358852 -8.5961876
-25.137144 -18.768007 -0.73239785 101.53001 -24.417725 -8.7769089 -24.174706 -18.615648
130000000 -21.919952 34.107822 -22.665773 34.03532 -0.8937546 79.065536 -23.032497 -45.079353
-22.662273 34.101547 -22.316898 27.916286 -23.035545 -46.804428 -0.87386584 79.826462
-0.89493775 79.059212 -23.046005 -47.102154 -29.962839 -59.215363 -32.649696 -38.555561
-22.996899 -45.030598 -0.87371105 79.803444 -32.782307 -38.945141 -29.77404 -48.099674
140000000 -19.717234 36.771706 -20.916117 39.937057 -1.2148126 57.279736 -20.476364 -78.309784
-20.892645 39.728909 -20.473972 30.125216 -20.436003 -79.725822 -1.1571836 58.282764
-1.2167531 57.346035 -20.483578 -79.999779 -30.374836 125.44976 -28.625168 116.528
-20.435865 -78.236786 -1.1578703 58.201355 -28.349863 118.71663 -33.562786 113.98788
150000000 -17.981583 17.994045 -19.397076 23.096983 -1.5983583 38.311085 -19.500418 -123.24291
-19.438148 23.026642 -18.837326 12.228608 -19.397566 -125.77497 -1.4578511 39.021461
-1.5795572 38.325623 -19.450752 -125.52052 -21.438875 65.804817 -21.118793 72.905525
-19.427103 -123.27386 -1.4760166 38.979832 -20.822983 73.038872 -22.948112 62.911583
160000000 -19.348375 -1.0037736 -21.069929 8.4462748 -1.4883403 19.905434 -20.699692 -164.72917
-21.144043 8.8574858 -20.058636 -6.2049174 -20.749491 -167.7774 -1.3866998 20.112989
-1.4840831 19.829782 -20.662529 -167.49846 -20.714014 29.766081 -20.580599 43.517372
-20.623116 -165.1517 -1.4043385 20.197254 -20.474735 42.598808 -21.659044 29.218504
170000000 -24.257259 -8.2377872 -26.024832 15.56545 -1.1093889 -0.088586509 -24.190666 153.35643
-25.961605 16.152248 -24.977999 -16.234135 -24.32712 150.11169 -1.0620883 0.08956252
-1.1094936 -0.12612307 -24.278879 149.84123 -23.605579 9.0719976 -23.216154 30.863293
-24.195887 152.37312 -1.0540897 0.1949349 -23.305506 30.142735 -24.47393 6.6442494
180000000 -24.258636 33.847237 -22.671556 48.67178 -0.86345917 -22.790291 -30.52692 148.64888
-22.607546 48.62347 -25.617685 28.335457 -30.845497 146.19144 -0.84526718 -22.41815
-0.86852217 -22.824024 -30.798986 145.66664 -23.992344 29.10454 -22.131447 45.546005
-30.707626 148.44714 -0.83455449 -22.423914 -22.18638 45.977779 -25.324772 28.967392
190000000 -20.672222 33.114559 -19.72357 38.568489 -0.8676945 -45.458847 -29.711342 168.7749
-19.684294 38.413582 -21.75016 29.305344 -29.784706 167.43391 -0.85050452 -44.921886
-0.86939204 -45.441128 -29.827776 166.77863 -21.110828 19.115164 -19.988007 31.015179
-29.721592 169.49213 -0.84535336 -44.946411 -19.970545 31.40881 -22.242901 20.461079
200000000 -19.479132 23.449339 -19.203535 25.327711 -0.94836354 -67.816872 -26.094181 161.15778
-19.176105 25.090038 -20.365992 19.928738 -26.046474 158.51648 -0.93734759 -67.165558
-0.94955653 -67.804474 -26.121635 158.25256 -20.881792 -5.1632652 -20.570791 6.9702702
-26.042107 161.40286 -0.93466973 -67.203323 -20.533331 6.9044452 -21.94179 -3.7679081
210000000 -19.366186 18.144463 -19.873743 18.382936 -1.1335181 -90.068169 -22.787077 138.59789
-19.882187 18.03266 -19.984049 14.481671 -22.76906 134.83604 -1.1211791 -89.240128
-1.1311399 -90.035591 -22.835587 134.79713 -24.645967 -34.496262 -25.669643 -19.657196
-22.726099 138.57635 -1.1234169 -89.284897 -25.75419 -20.66663 -25.72205 -33.992069
220000000 -18.639856 15.203963 -19.999235 16.360481 -1.4678934 -111.491 -20.184669 105.95647
-20.04434 16.394489 -19.024662 9.6644945 -20.256012 101.28232 -1.4335699 -110.49243
-1.4588449 -111.47659 -20.314173 101.40562 -39.490067 73.752609 -32.815281 98.021347
-20.123913 105.66926 -1.4433458 -110.51386 -32.240406 101.64584 -40.540413 89.958878
230000000 -17.950397 4.8381319 -20.101313 9.0739727 -1.7659371 -130.83086 -19.048948 65.933372
-20.08659 9.166584 -18.359951 -2.6338243 -19.289883 60.63937 -1.7052686 -129.84676
-1.7582889 -130.86266 -19.32551 60.894203 -22.13435 60.53484 -21.102377 75.863792
-19.012304 65.456345 -1.7120318 -129.80318 -20.872379 75.659584 -22.880964 64.258369
240000000 -18.812696 -13.151694 -21.958612 -3.9373822 -1.7243456 -149.47153 -19.652348 25.673365
-21.953035 -3.9235959 -19.195473 -21.746698 -20.049576 20.525698 -1.6536636 -148.58467
-1.7222865 -149.51717 -20.050056 20.858444 -19.499382 28.950863 -19.236132 47.994865
-19.648005 25.100515 -1.6532689 -148.51715 -19.143595 47.415623 -20.224293 30.452402
250000000 -22.158545 -19.600851 -25.761154 9.2179127 -1.5092363 -169.53467 -21.256992 -8.153183
-25.734913 9.256156 -22.48439 -30.7764 -21.785585 -13.05796 -1.4461231 -168.70161
-1.5113548 -169.56793 -21.754877 -12.880339 -20.064402 9.6241512 -19.87286 33.766945
-21.289644 -8.8199759 -1.4393131 -168.64099 -19.88604 33.09206 -20.947315 8.6167727
260000000 -25.948502 2.1919987 -24.486217 42.358593 -1.272211 169.26888 -23.984587 -36.933887
-24.443445 42.124874 -27.040709 -13.517631 -24.622105 -41.276577 -1.2168583 170.08127
-1.2759386 169.24948 -24.591562 -41.428829 -21.986532 5.5428009 -20.779242 33.958462
-24.064959 -37.655815 -1.2051328 170.11412 -20.88871 33.832947 -23.550983 2.9438415
270000000 -23.252792 28.038193 -20.587067 42.215237 -1.1325682 147.28267 -27.229872 -52.621376
-20.596172 41.812801 -24.793823 18.899605 -27.862415 -55.424618 -1.0927987 148.10771
-1.1372066 147.28722 -27.905146 -55.698761 -21.736738 12.969857 -19.667971 33.908485
-27.406012 -52.945282 -1.0793449 148.0743 -19.702007 34.614738 -23.692293 14.283175
280000000 -20.327402 24.120636 -18.713606 27.676088 -1.1062994 125.0965 -28.787664 -51.443153
-18.772112 27.492779 -21.364145 16.123117 -28.94558 -55.225716 -1.0848439 126.01205
-1.1057862 125.11723 -29.01462 -54.735867 -20.362722 5.4356441 -18.911932 20.63356
-28.872543 -50.703728 -1.0828162 125.93264 -18.877172 20.924879 -22.172916 7.5058446
290000000 -19.275515 10.248485 -18.736118 8.6663952 -1.1631126 103.27827 -27.207575 -58.013927
-18.787085 8.9034109 -20.066721 1.1155214 -27.719564 -65.899185 -1.1527891 104.34704
-1.161055 103.26332 -27.679817 -65.263786 -21.077806 -8.5627279 -20.482821 5.1113062
-27.198357 -58.018665 -1.1577628 104.33723 -20.48926 5.5986028 -23.295837 -6.6815338
300000000 -20.345572 -3.8335488 -21.159649 -9.2611132 -1.223386 81.880775 -25.881647 -77.19223
-21.120899 -8.8622866 -20.853949 -14.262246 -27.060844 -85.432953 -1.2129158 83.086029
-1.2245274 81.850967 -26.960566 -85.094025 -23.346468 -14.749127 -24.029142 1.8927923
-25.935671 -77.495209 -1.2104583 83.104385 -23.908258 2.6166742 -26.022905 -5.6277757
310000000 -22.836382 -6.295815 -26.757952 -11.543096 -1.2454838 60.613853 -25.399094 -100.15755
-26.723183 -11.566857 -23.255156 -21.325724 -27.06274 -104.79586 -1.2423 62.012081
-1.2494413 60.604782 -26.970623 -104.82248 -26.261896 -5.1194067 -27.526121 27.100113
-25.490057 -100.34058 -1.2374445 62.016979 -27.338741 26.127634 -27.114756 10.857279
320000000 -26.06282 -3.3379207 -34.320721 43.766163 -1.257674 38.838097 -25.089155 -116.27238
-34.347313 43.437042 -26.438475 -26.09189 -26.713091 -115.25406 -1.2505106 40.533722
-1.2615691 38.845356 -26.628397 -115.58388 -26.190313 23.825089 -24.599598 60.431881
-25.206583 -116.00277 -1.2432405 40.517342 -24.680964 59.957962 -25.710329 25.251577
330000000 -26.291834 34.231449 -24.052094 82.191933 -1.3583838 17.458344 -24.142988 -139.22475
-24.058813 82.232819 -29.558544 9.1257858 -25.40325 -136.60196 -1.3247994 19.353933
-1.362142 17.478783 -25.346052 -137.14227 -22.962002 33.686691 -20.72422 61.339622
-24.22637 -138.78535 -1.3189582 19.322008 -20.782873 61.550587 -23.665909 25.918064
340000000 -21.925467 46.376236 -19.150063 69.743187 -1.4726318 -3.7095606 -23.507607 -164.08806
-19.159109 69.740082 -25.503546 35.619278 -24.397598 -160.60689 -1.3856928 -1.6011294
-1.4730191 -3.6680033 -24.38336 -161.20056 -19.875776 28.639008 -18.118721 51.017982
-23.559498 -163.49956 -1.3817848 -1.6511242 -18.101768 51.325672 -22.057354 20.499874
350000000 -19.257479 35.889252 -17.073236 51.193462 -1.5514222 -24.013187 -23.741144 165.74959
-17.071175 51.234486 -22.260231 30.118467 -24.302475 168.75626 -1.3950595 -22.135706
-1.548756 -23.99855 -24.324596 168.28534 -18.819029 15.123895 -17.288006 37.914219
-23.757547 166.03902 -1.3939749 -22.157782 -17.297152 37.995487 -21.936007 11.904356
360000000 -18.427343 26.496099 -16.498478 35.685448 -1.4385555 -44.719658 -25.691822 144.34131
-16.511551 35.643486 -20.852568 22.639467 -25.981848 146.28406 -1.2994553 -43.190735
-1.4367408 -44.687122 -26.018465 146.15811 -18.209446 9.4889746 -16.599659 28.195091
-25.782883 144.94205 -1.2946614 -43.242924 -16.561323 28.531788 -21.24597 11.797547
370000000 -17.848331 13.826181 -16.70849 17.881138 -1.4123254 -66.122131 -26.069088 131.31601
-16.70977 18.032265 -19.979359 10.19125 -26.349817 130.46162 -1.2782795 -64.662178
-1.4087811 -66.129616 -26.306061 130.35455 -17.310114 -4.8935614 -16.448088 10.736693
-26.046949 132.11475 -1.2802305 -64.701752 -16.407158 10.823833 -20.220112 -1.3759431
380000000 -19.006788 0.81096745 -18.792704 0.68118137 -1.3743174 -87.391396 -26.103868 115.52229
-18.78931 0.60173208 -20.80303 -3.6570656 -26.785925 113.62443 -1.2746332 -86.045166
-1.3755683 -87.37838 -26.806414 113.22419 -17.886587 -22.632963 -17.933834 -8.7336063
-26.094017 115.63176 -1.272662 -86.062218 -17.893406 -8.6396875 -20.78599 -18.987492
390000000 -21.101658 -0.10771272 -23.252031 -3.3151867 -1.2438954 -108.74039 -27.628477 101.76443
-23.260836 -3.2879245 -23.161427 -5.9894028 -28.732357 102.69526 -1.1992786 -107.29652
-1.2444377 -108.73167 -28.730955 102.44794 -20.950191 -41.295013 -22.731447 -27.158884
-27.662474 102.21713 -1.1952513 -107.32033 -22.670187 -27.190805 -24.113249 -37.289246
400000000 -23.839434 0.6572184 -30.559435 25.953941 -1.1903086 -131.38077 -26.022707 102.2457
-30.573517 25.944145 -26.026817 -3.4656241 -26.573975 106.38023 -1.1723193 -129.56544
-1.1921315 -131.3632 -26.580082 106.03571 -27.771866 -45.360493 -36.518517 7.8771138
-26.020824 102.78008 -1.167347 -129.60228 -36.507248 6.5498123 -31.766735 -35.137268
410000000 -24.919399 38.613831 -22.985718 86.72364 -1.3041644 -153.67409 -23.573124 82.527252
-22.980347 86.810333 -26.807171 36.852276 -23.794804 85.298431 -1.2743728 -151.5394
-1.3045433 -153.64461 -23.811043 84.929016 -31.623476 47.720676 -23.928219 90.750404
-23.53927 82.970543 -1.2710932 -151.59537 -23.955435 90.816589 -31.843212 56.167858
420000000 -20.48061 52.134201 -17.459166 76.669769 -1.469198 -175.60168 -21.807804 58.009159
-17.455662 76.685905 -22.059233 48.594227 -21.956005 59.171909 -1.4172238 -173.14708
-1.4670691 -175.56404 -21.989223 58.843018 -21.725189 55.191742 -17.787067 75.225174
-21.80109 58.236351 -1.4162059 -173.19208 -17.802332 75.432533 -23.571712 56.423668
430000000 -17.147135 44.408718 -14.670088 59.379711 -1.6599494 163.0152 -20.681454 30.731579
-14.669629 59.397266 -18.886713 39.631073 -20.884556 31.098436 -1.569953 165.74757
-1.6551845 163.0442 -20.919954 30.866827 -17.489738 39.410973 -14.873502 56.022259
-20.671938 31.148987 -1.5680078 165.68875 -14.857673 56.249508 -19.837416 40.393101
440000000 -15.281825 28.993822 -13.427557 39.922729 -1.8559726 142.17671 -20.047731 1.916159
-13.426617 39.929729 -17.272924 24.902855 -20.291473 2.1533628 -1.6987391 145.11395
-1.8513812 142.19286 -20.316278 1.9768231 -15.266212 20.24556 -13.491605 35.716305
-20.015297 2.2813296 -1.6997496 145.04311 -13.461549 35.870945 -17.954622 21.573853
450000000 -14.877364 9.9671011 -13.507419 19.294817 -2.0142109 122.29921 -20.111086 -29.235275
-13.511583 19.340015 -16.907227 7.9561238 -20.304205 -29.212805 -1.7651862 124.97233
-2.0065682 122.31236 -20.332729 -29.463398 -14.583363 -1.5012567 -13.449487 14.520417
-20.080011 -29.020552 -1.7721894 124.91962 -13.415256 14.539595 -17.472437 1.3149282
460000000 -16.296179 -6.7302895 -15.213612 1.2941034 -1.9249609 102.97654 -21.736324 -58.130184
-15.203505 1.333372 -18.095097 -5.8242025 -21.968632 -59.145329 -1.6449996 104.81428
-1.9193406 102.94402 -22.005814 -59.306129 -15.445858 -21.529041 -14.722857 -4.414124
-21.71685 -58.044033 -1.6503298 104.80809 -14.704532 -4.4509239 -18.270794 -15.519588
470000000 -17.995493 -18.413113 -17.83967 -14.97629 -1.6971711 81.577248 -23.223293 -71.53241
-17.831564 -15.055656 -19.672665 -18.01317 -23.612608 -72.238289 -1.5228444 83.367577
-1.6992171 81.561745 -23.639364 -72.515724 -16.960695 -36.76125 -16.852671 -22.296196
-23.222597 -71.330765 -1.5234925 83.361 -16.832045 -22.202585 -19.405632 -32.182434
480000000 -22.030092 -31.700674 -24.484983 -31.25732 -1.5717139 59.227795 -23.270327 -76.940826
-24.496664 -31.345165 -23.479809 -27.738291 -23.545912 -77.32943 -1.4376104 61.23188
-1.5728806 59.23608 -23.590958 -77.565102 -20.151974 -51.195595 -21.696856 -38.554298
-23.244452 -76.725548 -1.4393296 61.211781 -21.647062 -38.569431 -22.381462 -47.281891
490000000 -35.275681 36.705097 -28.154629 109.35807 -1.6789223 36.451576 -20.926897 -92.226784
-28.117945 109.452 -32.259415 26.083715 -21.184107 -93.628845 -1.5482488 38.830322
-1.6811695 36.470573 -21.220144 -93.83786 -25.771948 -56.525364 -35.384033 -28.407406
-20.908768 -92.050728 -1.5474368 38.806225 -35.308563 -28.969297 -27.753311 -55.011684
500000000 -19.966951 64.166214 -17.35181 82.950233 -1.777548 15.302591 -20.36907 -117.54242
-17.34054 82.918137 -21.383207 53.309959 -20.85434 -118.60826 -1.6547862 17.749229
-1.7755313 15.338947 -20.917574 -118.72414 -31.078165 59.552891 -22.710964 92.063164
-20.352678 -117.30239 -1.6533595 17.709873 -22.730164 92.201302 -35.834904 51.59446
510000000 -16.447689 48.292736 -14.283999 63.428436 -1.8548787 -6.6117597 -19.566225 -137.94479
-14.28283 63.398949 -18.251898 39.401566 -20.027157 -138.07344 -1.7307229 -3.7524905
-1.8511829 -6.5931683 -20.066896 -138.06506 -19.382719 52.608288 -16.058889 70.482979
-19.538965 -137.68681 -1.7308556 -3.8024418 -16.046844 70.609177 -22.903763 53.816429
520000000 -14.486577 34.186893 -12.597667 46.017818 -2.0691762 -28.236097 -18.491497 -162.80609
-12.597556 46.00386 -16.600803 27.088381 -18.887642 -162.78333 -1.8876356 -25.016571
-2.0665038 -28.214869 -18.918669 -162.83249 -15.293042 30.360506 -13.243381 47.166851
-18.461613 -162.58975 -1.8887391 -25.067406 -13.221484 47.270039 -18.623322 31.655752
530000000 -13.334202 18.295183 -11.797173 27.504412 -2.3039513 -48.997681 -17.812477 169.50667
-11.800588 27.498425 -15.588902 13.047292 -18.170416 169.66252 -2.0510974 -45.677673
-2.2996972 -48.968109 -18.199087 169.58127 -13.458897 8.7399263 -12.095837 24.807108
-17.769604 169.75816 -2.0540717 -45.747612 -12.05218 24.842539 -16.739723 9.4609327
540000000 -13.073839 -2.3934655 -12.068457 5.6236992 -2.5511143 -68.815613 -17.523911 138.72729
-12.073776 5.6630158 -15.484492 -5.6659236 -17.764471 138.8002 -2.1782286 -65.593613
-2.542573 -68.786621 -17.792873 138.69978 -12.777678 -14.001929 -12.111791 1.8162758
-17.432434 138.79416 -2.1933808 -65.655365 -12.057974 1.5306691 -16.183294 -13.544424
550000000 -15.180508 -25.783403 -14.5741 -17.050169 -2.5531111 -86.741089 -18.496788 104.29298
-14.562677 -16.994305 -17.662077 -25.306744 -18.733952 103.13153 -2.1039915 -84.764908
-2.5441697 -86.753777 -18.771528 102.95203 -13.75212 -38.823524 -13.685541 -21.877087
-18.476557 103.53383 -2.1095607 -84.658157 -13.720537 -22.302883 -17.157465 -37.224403
560000000 -19.508831 -30.903025 -19.317514 -25.955738 -2.031652 -106.79161 -21.88805 80.927658
-19.327652 -26.034023 -21.416565 -26.996264 -22.339508 79.917175 -1.7601787 -105.53921
