!Keysight Technologies,N5231B,MY57181281,A.17.25.05
!Date: Friday, March 07, 2025 17:05:46
!Correction: S11(C  4-Port  ) 
!S12(C  4-Port  ) 
!S13(C  4-Port  ) 
!S14(C  4-Port  ) 
!S21(C  4-Port  ) 
!S22(C  4-Port  ) 
!S23(C  4-Port  ) 
!S24(C  4-Port  ) 
!S31(C  4-Port  ) 
!S32(C  4-Port  ) 
!S33(C  4-Port  ) 
!S34(C  4-Port  ) 
!S41(C  4-Port  ) 
!S42(C  4-Port  ) 
!S43(C  4-Port  ) 
!S44(C  4-Port  ) 
!S4P File: Measurements: <S11,S12,S13,S14>,
!<S21,S22,S23,S24>,
!<S31,S32,S33,S34>,
!<S41,S42,S43,S44>:
# Hz S  dB   R 50
10000000 -22.44096 -14.21722 -27.805361 -4.5075488 -0.53933531 -59.883678 -31.528238 156.76051
-27.821465 -4.5192614 -22.755322 -16.429661 -31.405899 157.31659 -0.53153592 -59.965019
-0.5323903 -59.868515 -31.570967 157.75655 -21.632935 12.238055 -24.574734 33.056973
-31.626368 156.80035 -0.52872556 -59.961151 -24.59454 32.961483 -21.880054 11.541344
20000000 -35.525757 -64.24424 -40.739986 68.772919 -0.81579077 -117.32053 -28.254829 73.891083
-41.11319 65.474022 -37.418686 -74.493576 -28.070633 74.654976 -0.81050056 -117.46239
-0.80524451 -117.34317 -28.102367 75.201691 -22.962584 -18.023161 -23.918125 -0.88531715
-28.380854 74.487602 -0.81120598 -117.47469 -23.923306 -0.80525452 -23.218788 -18.945101
30000000 -31.598335 14.569448 -31.785479 22.28825 -0.77613163 -173.89381 -31.614872 -17.268452
-31.855379 19.88582 -31.5135 15.284606 -31.480341 -16.836922 -0.78254449 -174.12508
-0.77707636 -173.87247 -31.456909 -14.954546 -31.619064 -3.4118659 -31.783049 0.95775455
-31.492119 -17.816225 -0.78780168 -174.17448 -31.788727 1.0243032 -31.334908 -5.4452
40000000 -24.706902 -1.9728321 -27.074099 5.648314 -0.88646114 127.19494 -30.785175 -33.364906
-27.060358 5.6918392 -25.332197 -6.0154943 -30.654274 -32.359177 -0.89701033 127.04536
-0.88388753 127.19159 -30.640882 -32.149925 -22.202223 24.540363 -23.160425 30.029535
-30.768288 -33.115108 -0.89857322 127.03387 -23.189997 29.96097 -22.565216 21.331085
50000000 -39.501896 -43.993557 -42.513115 60.341759 -1.0568072 69.990456 -28.762264 -104.18484
-42.53194 61.798618 -41.954971 -48.149387 -28.534069 -102.922 -1.0590043 69.823349
-1.0517946 70.007538 -28.66326 -103.2553 -23.217531 -6.606864 -24.031948 -0.43326339
-28.763788 -104.38309 -1.0563663 69.833672 -24.037832 -0.21958849 -23.417002 -9.6729822
60000000 -27.924349 42.003254 -27.663826 48.424332 -1.1103219 13.337943 -29.074932 178.63087
-27.733315 47.489891 -28.228964 39.061619 -28.800074 179.35059 -1.1068816 13.065742
-1.1032351 13.35146 -28.892899 -179.93617 -28.33293 10.673263 -29.057718 15.916277
-29.054237 178.25377 -1.1086642 13.034687 -28.941147 15.7345 -28.579603 4.3633914
70000000 -24.663393 14.580386 -25.986341 24.304066 -1.0647899 -44.540127 -32.388767 130.01295
-25.974672 24.330362 -25.576357 11.331186 -32.315338 130.98515 -1.0732791 -44.855579
-1.0562581 -44.560974 -32.518433 131.35155 -22.920237 29.054159 -23.49579 33.557934
-32.484444 130.02736 -1.0709862 -44.858921 -23.516188 33.248852 -23.385342 24.662903
80000000 -33.638508 -27.782654 -37.091976 12.352718 -1.2048661 -101.98052 -30.130203 72.691444
-37.087154 11.881412 -34.891308 -21.905354 -29.851759 74.33007 -1.2059929 -102.23165
-1.1935474 -102.00734 -30.075146 74.480591 -23.278173 -3.9796438 -24.09874 -0.49003342
-30.225973 72.89753 -1.2026638 -102.24293 -24.078253 -0.52966803 -23.381256 -9.2202406
90000000 -27.657068 62.936043 -27.229773 69.872681 -1.2601907 -159.15919 -30.261423 9.8074827
-27.230217 69.626846 -28.403887 54.509438 -29.992773 10.043687 -1.2504858 -159.46068
-1.2556311 -159.19 -30.112104 10.960946 -28.907961 27.014215 -29.603739 35.001015
-30.257162 10.022403 -1.2497902 -159.47972 -29.604671 34.610443 -29.966942 13.809418
100000000 -23.075079 24.316521 -24.006529 34.880234 -1.2705584 143.58733 -31.313471 -51.988251
-23.968264 34.784973 -24.21323 20.781984 -31.333239 -51.950771 -1.263948 143.19292
-1.2656929 143.57913 -31.452024 -52.44099 -22.567831 33.718822 -22.95517 36.998184
-31.382862 -52.027931 -1.260252 143.20399 -22.983292 36.939819 -23.507906 29.999762
110000000 -27.66083 -25.335594 -30.244804 -9.6907349 -1.2885801 85.742828 -32.723896 -95.849213
-30.270048 -9.6909494 -28.356211 -25.39674 -32.74968 -93.618027 -1.2906723 85.379608
-1.2841088 85.756607 -32.878498 -93.867752 -23.359751 9.404788 -24.275471 10.438148
-32.764053 -96.068924 -1.2883053 85.377823 -24.309229 10.721036 -23.538521 4.8284698
120000000 -27.512737 83.770813 -26.283308 91.448578 -1.4383082 28.051592 -29.951418 -144.13643
-26.292215 91.153114 -29.124241 77.362793 -29.774422 -143.15553 -1.423556 27.729094
-1.4314225 28.0411 -29.895035 -142.21422 -26.30757 37.949821 -27.073957 47.97287
-29.999043 -143.91127 -1.4204401 27.697466 -27.031635 48.068531 -27.217993 25.208172
130000000 -21.379755 32.156895 -21.770741 41.61359 -1.5210348 -28.623247 -29.232315 144.2413
-21.749063 41.652111 -22.707788 29.737024 -29.207111 144.31882 -1.4965308 -29.108019
-1.515196 -28.63154 -29.29216 144.19833 -21.343601 36.643364 -21.37093 40.475822
-29.287209 144.22969 -1.4938824 -29.110933 -21.385965 40.398224 -22.420839 32.05122
140000000 -25.349463 -19.074574 -26.997387 -7.7411299 -1.4819337 -85.96653 -31.287487 85.191765
-26.999084 -7.5399909 -26.181221 -18.948555 -31.442827 86.544342 -1.4724712 -86.477707
-1.4781855 -85.964996 -31.449125 86.898827 -22.400614 11.399433 -22.906738 11.283992
-31.29225 85.388863 -1.4757941 -86.507332 -22.940531 11.560262 -22.644253 7.0468111
150000000 -28.297428 97.950882 -26.669653 105.64172 -1.5798123 -144.13347 -29.893837 50.295578
-26.692816 105.52979 -30.340549 90.773468 -29.73662 51.541538 -1.56283 -144.55974
-1.5703673 -144.15201 -29.856798 52.525791 -25.704847 42.873344 -26.357264 51.683556
-29.929968 50.692833 -1.5634239 -144.57161 -26.299425 51.539169 -26.54495 28.107336
160000000 -19.892963 40.276981 -20.082941 49.836201 -1.7575884 159.28314 -27.473314 -22.395214
-20.067755 49.910725 -21.37796 37.355728 -27.405712 -22.436911 -1.7173501 158.72198
-1.7513931 159.25992 -27.464582 -22.277245 -20.42099 40.185394 -20.21591 43.763336
-27.487135 -22.400415 -1.7176418 158.7419 -20.232351 43.555122 -21.732599 34.691711
170000000 -22.776382 -12.855732 -23.950361 -1.5201443 -1.698339 102.49113 -29.18004 -90.55471
-23.950089 -1.5812002 -23.841457 -13.877216 -29.315151 -90.389839 -1.6807319 101.81085
-1.6940053 102.46863 -29.387094 -89.999611 -20.984766 12.590194 -21.107954 12.271688
-29.191629 -90.357269 -1.6781516 101.81857 -21.133814 12.316027 -21.414843 9.1978178
180000000 -31.447632 102.88754 -28.828667 112.66108 -1.6962028 44.409203 -30.377537 -130.03972
-28.828724 112.65462 -34.735126 94.348969 -30.390589 -128.30795 -1.6875223 43.878181
-1.6907014 44.39357 -30.612366 -127.66795 -26.848494 39.643433 -27.492071 48.040462
-30.440033 -129.96423 -1.6809949 43.846558 -27.441006 47.753971 -26.818424 21.756216
190000000 -19.162855 50.297062 -19.153887 61.104546 -1.9016206 -12.726789 -27.286493 168.1922
-19.147343 61.097389 -20.984196 48.496803 -27.24066 168.85585 -1.8548449 -13.256974
-1.8924878 -12.724706 -27.346264 169.37277 -20.070761 48.112572 -19.637814 50.728615
-27.324966 168.23877 -1.8530086 -13.271499 -19.661442 50.541138 -21.578501 39.310966
200000000 -20.080996 -3.4810398 -20.986666 9.2991581 -1.8711693 -69.14769 -28.350477 95.998131
-20.991381 9.2495422 -21.491423 -2.4740992 -28.364494 96.410782 -1.8315574 -69.890755
-1.8645009 -69.175987 -28.486736 96.905045 -19.60671 18.58798 -19.560673 17.093569
-28.400373 96.136337 -1.830181 -69.915543 -19.589592 17.061668 -20.365808 13.155758
210000000 -51.689339 122.80058 -35.725922 116.07573 -1.8001585 -127.07216 -31.125362 51.564693
-35.700733 116.01891 -44.158966 -4.7854342 -31.103201 53.07988 -1.7806712 -127.76294
-1.7918655 -127.0743 -31.316034 53.389168 -26.226009 29.069382 -27.746534 33.915028
-31.197441 51.596333 -1.7786562 -127.7689 -27.706598 34.045662 -26.125946 10.848186
220000000 -19.112446 64.401291 -18.713766 73.212502 -1.986535 175.16837 -27.859594 4.12433
-18.712158 73.175323 -21.168219 60.394138 -27.764791 4.35847 -1.9417922 174.57195
-1.9783615 175.14215 -27.881208 5.1403279 -19.533676 54.376713 -19.205118 58.552536
-27.902122 4.3396502 -1.9393784 174.5576 -19.2125 58.39941 -21.615055 45.316563
230000000 -18.057966 9.0515862 -18.674065 18.837141 -2.0567098 118.91903 -27.406641 -69.936333
-18.677349 18.792469 -19.772263 7.7877526 -27.351837 -70.006126 -1.997345 118.12132
-2.0506051 118.89384 -27.461449 -69.37912 -17.993015 22.313211 -17.976431 22.598024
-27.455648 -69.73056 -1.9944841 118.10177 -17.999775 22.528397 -19.369631 18.023973
240000000 -32.436485 -42.947392 -40.400589 -22.875111 -1.9273196 61.533066 -30.802832 -125.90868
-40.414734 -22.688572 -32.494652 -37.207581 -30.895035 -125.13021 -1.8975544 60.62603
-1.9207575 61.535339 -31.043791 -124.89072 -24.77169 15.044992 -25.910727 18.168404
-30.853323 -125.80692 -1.8955073 60.621407 -25.903675 18.385824 -24.825029 6.0136919
250000000 -19.5133 74.703316 -18.859573 84.198212 -2.0692847 3.235743 -28.168203 -161.87384
-18.86046 84.161224 -21.247471 71.30938 -28.066591 -161.53308 -2.0335617 2.5305216
-2.0619185 3.2230051 -28.169847 -160.7431 -19.647318 59.17577 -19.160519 63.031891
-28.20219 -161.6371 -2.0317128 2.5189381 -19.158998 62.902397 -21.475258 51.41658
260000000 -16.648537 20.64167 -17.05961 29.425064 -2.2158291 -53.061646 -26.633257 123.83338
-17.061024 29.397875 -18.03405 18.825939 -26.556711 123.80121 -2.1551554 -53.86105
-2.2097635 -53.08036 -26.645874 124.33916 -16.806438 28.031229 -16.715681 28.044399
-26.670006 123.99019 -2.1532819 -53.875259 -16.732573 27.956034 -18.058567 24.747412
270000000 -25.010744 -31.629595 -28.04875 -23.884449 -2.0840833 -109.80569 -29.53157 56.65213
-28.055096 -23.863111 -24.988758 -31.009977 -29.678989 56.540066 -2.0347335 -110.82594
-2.0809097 -109.80807 -29.771397 56.807346 -22.401323 4.7059956 -23.230225 7.010994
-29.564222 56.766026 -2.0349813 -110.83655 -23.246845 7.1635213 -22.030813 0.52019227
280000000 -20.813211 80.772278 -19.644281 93.198669 -2.1441116 -168.38243 -28.802753 26.805672
-19.644133 93.177063 -23.314737 77.122284 -28.701941 28.075598 -2.1067338 -169.1927
-2.1370912 -168.38864 -28.809944 28.748278 -20.743233 61.820282 -19.757063 66.116394
-28.843506 27.031446 -2.1055152 -169.20428 -19.748753 66.02433 -22.722517 48.348568
290000000 -15.933078 29.02158 -15.945324 39.025917 -2.3481636 135.06526 -26.289059 -44.013969
-15.945618 38.998405 -17.601269 26.885662 -26.142702 -43.508537 -2.2814202 134.1945
-2.3425136 135.04622 -26.228971 -43.030071 -16.351374 34.937977 -15.834078 34.019718
-26.324074 -43.873512 -2.2811756 134.18179 -15.845218 33.929661 -17.917189 29.957657
300000000 -20.94174 -24.772928 -22.422907 -15.538585 -2.2621326 78.805351 -28.151409 -116.92577
-22.42712 -15.530149 -21.777739 -25.080952 -28.115948 -117.13969 -2.187937 77.678413
-2.258662 78.797684 -28.191694 -116.77826 -20.05883 3.5302308 -20.277678 3.2336738
-28.17831 -116.76576 -2.1879253 77.667038 -20.298861 3.2701707 -20.381739 1.629074
310000000 -23.258125 87.369888 -21.645084 101.57722 -2.2082102 20.250992 -29.680737 -147.60562
-21.643234 101.55774 -26.242687 84.884537 -29.587646 -145.9057 -2.1727619 19.255575
-2.2020197 20.249794 -29.702065 -145.28255 -22.019457 59.96154 -21.047779 64.730659
-29.721848 -147.40549 -2.1716187 19.248978 -21.03652 64.71051 -23.515787 43.640121
320000000 -15.585069 37.826279 -15.45972 48.395977 -2.4506273 -36.782013 -26.245802 148.21794
-15.46039 48.37735 -17.251591 36.440205 -26.03293 149.30415 -2.383817 -37.766541
-2.444984 -36.794876 -26.097895 149.83379 -15.989959 40.812733 -15.389297 39.752525
-26.268103 148.39381 -2.3830788 -37.776962 -15.396451 39.672276 -17.533056 34.703472
330000000 -18.100401 -15.058562 -19.260561 -6.1477041 -2.436878 -92.896515 -26.990845 74.543655
-19.261419 -6.1402006 -19.142221 -15.687848 -26.830301 75.136742 -2.3508878 -94.010612
-2.4325264 -92.902603 -26.889593 75.524521 -17.725185 5.9935775 -17.87673 5.5950298
-27.015709 74.684212 -2.3509519 -94.020233 -17.897211 5.5833673 -18.375946 3.7421646
340000000 -27.675941 85.263504 -24.828489 108.25904 -2.3048494 -150.86066 -30.007261 31.085291
-24.828882 108.2552 -32.839275 74.271202 -29.858393 33.132996 -2.2584743 -152.05023
-2.2999523 -150.856 -29.932579 33.557167 -23.588903 48.143684 -22.491457 56.256893
-30.035793 31.223236 -2.2586539 -152.05209 -22.482025 56.39325 -24.217855 27.721756
350000000 -15.657749 45.613018 -15.332143 57.736572 -2.5476313 151.54332 -26.339024 -21.491447
-15.331229 57.726395 -17.607445 44.391056 -26.029333 -19.890125 -2.4701068 150.42332
-2.5416238 151.53871 -26.086704 -19.443586 -15.936711 45.75491 -15.15531 44.278786
-26.361458 -21.346367 -2.4693394 150.41856 -15.157924 44.218273 -17.710445 38.304405
360000000 -16.28826 -6.2279272 -17.169785 3.5540705 -2.6092064 95.674042 -25.935057 -96.452927
-17.169956 3.5459728 -17.661339 -7.4132433 -25.707922 -95.415794 -2.5074968 94.348602
-2.6055467 95.667877 -25.749893 -95.089058 -16.204144 10.604606 -16.221127 8.9361582
-25.95126 -96.34552 -2.5074914 94.347946 -16.236622 8.9173031 -17.255991 8.1594839
370000000 -32.610603 30.519114 -31.065228 93.071602 -2.3846703 38.294903 -30.156507 -154.75937
-31.061499 93.06678 -34.336929 -4.6884112 -29.930786 -152.20491 -2.3372693 36.799675
-2.3813159 38.297798 -30.010597 -151.89366 -23.558626 26.570431 -23.404333 38.818218
-30.190493 -154.66432 -2.3368642 36.80022 -23.406761 38.95985 -23.290638 13.210562
380000000 -16.321367 52.597374 -15.61517 65.687042 -2.625551 -20.048098 -26.525434 168.39558
-15.615533 65.678551 -18.33086 52.508987 -26.152796 170.44501 -2.5498848 -21.346176
-2.6223378 -20.051096 -26.182442 170.88199 -16.4016 48.567616 -15.309851 48.033058
-26.540607 168.54868 -2.5482099 -21.350172 -15.307337 48.034626 -18.08646 39.725948
390000000 -15.070879 3.8083701 -15.525263 12.99332 -2.7418988 -75.927597 -25.409473 94.301743
-15.5289 12.991892 -16.540045 2.699137 -25.111023 95.543053 -2.644243 -77.408859
-2.7409453 -75.920464 -25.128643 95.827911 -15.174267 15.635705 -14.89928 13.770039
-25.421446 94.381111 -2.6433718 -77.413071 -14.905061 13.768907 -16.430107 12.427967
400000000 -28.551039 -18.178976 -37.078873 17.757465 -2.6462703 -132.78741 -26.845583 30.834002
-37.040665 17.605555 -28.91074 -31.380369 -26.831018 33.864235 -2.5627589 -134.50116
-2.6472297 -132.77309 -26.819805 34.307487 -21.475471 8.6738968 -21.707552 16.8295
-26.848347 30.954172 -2.5623751 -134.5058 -21.717598 16.955645 -21.099497 2.1842399
410000000 -17.537006 55.85471 -16.480755 72.660568 -2.7254341 169.15663 -26.509867 -13.655517
-16.480782 72.682106 -19.533079 57.840302 -26.184483 -9.8178167 -2.6439037 167.5656
-2.722553 169.20023 -26.196039 -9.8570108 -17.840475 49.972313 -16.190346 49.696442
-26.516102 -13.653789 -2.643044 167.56055 -16.172646 49.643181 -19.197182 38.926842
420000000 -14.774133 10.375047 -14.833348 22.050142 -2.9081926 113.16536 -24.485376 -82.770668
-14.831213 22.070021 -16.11035 11.365792 -24.147425 -79.981758 -2.7872 111.37775
-2.9032872 113.2037 -24.155224 -80.009903 -15.12178 20.27437 -14.389917 17.441914
-24.492432 -82.76976 -2.7881472 111.3705 -14.386818 17.375887 -16.21126 15.507898
430000000 -24.460606 -27.163633 -28.279291 -15.433856 -2.7333457 56.245502 -26.415586 -146.99655
-28.263401 -15.498403 -24.364223 -32.973644 -26.371964 -143.15994 -2.6630342 54.273762
-2.726898 56.273582 -26.377773 -143.12975 -19.312387 5.8528261 -19.571604 7.9154439
-26.414202 -147.04256 -2.6658757 54.272518 -19.57634 7.9118247 -19.24036 -1.6956739
440000000 -18.897379 56.033035 -17.682039 75.83577 -2.8229651 -1.4021546 -26.252314 162.52838
-17.673021 75.845215 -21.260679 56.671932 -25.843315 167.39726 -2.728559 -3.3244336
-2.8128231 -1.3692539 -25.905888 167.02971 -19.487629 45.547848 -17.49192 48.830647
-26.280006 162.36784 -2.7278421 -3.3154991 -17.485235 48.742027 -20.81851 32.343426
450000000 -14.679955 18.971224 -14.433545 31.178326 -3.0028141 -57.653496 -24.184752 100.55242
-14.429068 31.167858 -16.1525 19.395742 -23.770866 103.84035 -2.88396 -59.851719
-2.9941874 -57.652794 -23.816267 103.75702 -15.177206 25.009321 -14.115703 22.576122
-24.206085 100.53599 -2.8854759 -59.848133 -14.121793 22.511908 -16.385553 19.28664
460000000 -19.776989 -22.046133 -21.83827 -14.93069 -2.7895725 -114.56335 -26.145102 33.982502
-21.836899 -14.976134 -20.607092 -26.490301 -26.03157 37.323208 -2.7341313 -116.84049
-2.7836015 -114.57777 -26.096828 37.239708 -17.728991 2.76489 -17.763439 4.0858359
-26.158739 33.907516 -2.736918 -116.82393 -17.76919 4.0644264 -18.085812 -2.0520611
470000000 -20.176968 52.24712 -18.974442 78.602791 -2.9573069 -172.46347 -25.281111 -12.916235
-18.966824 78.566544 -22.715893 53.772316 -24.946426 -7.392828 -2.8614519 -174.57216
-2.9520891 -172.45181 -25.025463 -7.5636568 -20.934492 31.776594 -18.591873 40.710915
-25.321251 -13.028174 -2.8607731 -174.55437 -18.598984 40.77821 -21.544819 18.928722
480000000 -14.862206 24.612125 -14.284556 39.182743 -3.123759 131.32475 -23.587885 -73.565132
-14.285672 39.139626 -16.349405 25.219826 -23.108189 -70.21862 -3.0132406 128.8683
-3.120662 131.30847 -23.166035 -69.97702 -15.774323 28.540232 -14.182668 25.434559
-23.610586 -73.503181 -3.0146735 128.87691 -14.193042 25.434683 -16.890556 21.873941
490000000 -17.310057 -14.488668 -18.421276 -5.8954606 -2.8839438 74.912933 -25.094149 -145.83261
-18.427088 -5.927772 -18.44438 -18.256031 -24.898361 -143.043 -2.8312719 72.348824
-2.8826823 74.908813 -24.956564 -142.83301 -16.836912 3.5615427 -16.560251 2.4360464
-25.113234 -145.82153 -2.831574 72.364487 -16.576633 2.445024 -17.366379 0.32135183
500000000 -22.974031 51.10503 -21.211355 84.688927 -2.9832399 15.936126 -25.82546 176.8143
-21.210808 84.654335 -26.222153 55.915688 -25.660175 -178.31932 -2.9097505 13.731959
-2.9838774 15.942174 -25.680492 -177.93192 -21.317741 23.480934 -19.246788 35.588165
-25.844769 176.92842 -2.9087443 13.736041 -19.258823 35.8671 -21.066996 12.310203
510000000 -14.757166 30.270948 -13.916062 45.251148 -3.3149288 -40.180744 -22.654598 117.6043
-13.923423 45.256763 -16.26347 32.423904 -22.312555 121.37135 -3.1897042 -42.735935
-3.3128908 -40.162994 -22.325869 121.6229 -16.376961 30.103481 -14.286746 28.114458
-22.660341 117.6309 -3.1912587 -42.735485 -14.274495 28.150135 -17.29216 21.588104
520000000 -15.930004 -6.9856768 -16.350224 1.7428896 -3.0574424 -95.639854 -23.546324 39.535213
-16.352978 1.7590365 -17.134123 -8.0135336 -23.315453 42.69178 -2.9788344 -98.433113
-3.0562129 -95.619217 -23.3262 42.8731 -16.441257 5.4260755 -15.575192 3.4022508
-23.555895 39.562664 -2.9802778 -98.423714 -15.579912 3.4330685 -17.069159 1.4134617
530000000 -25.525908 38.840626 -24.683683 84.694244 -2.9854395 -155.3542 -26.568783 2.7131701
-24.679192 84.693802 -29.333647 37.876499 -26.658022 6.7272854 -2.9248962 -157.73064
-2.9842057 -155.33498 -26.65918 6.8887024 -21.994516 20.498718 -19.838812 31.346598
-26.576881 2.7832592 -2.9252779 -157.72221 -19.819544 31.57284 -21.400385 10.257665
540000000 -14.625932 33.305962 -13.780792 50.230129 -3.5037134 147.81203 -22.034313 -48.306335
-13.785189 50.256149 -16.089682 36.064819 -21.75305 -43.759975 -3.3494108 145.22868
-3.4989924 147.83643 -21.759466 -43.586693 -16.30785 29.262781 -14.010569 28.566065
-22.042015 -48.379875 -3.3517547 145.23875 -14.001361 28.486738 -17.096493 21.647848
550000000 -15.273357 -5.0753007 -15.236473 6.3114896 -3.3507953 94.303932 -21.187538 -131.99803
-15.23308 6.3196383 -16.304079 -4.8852916 -21.01268 -128.91824 -3.2286563 91.127129
-3.3470495 94.328972 -21.018122 -128.88995 -16.84918 7.8941851 -15.256912 4.4079251
-21.198618 -131.97964 -3.2301717 91.142868 -15.25456 4.3795791 -17.131165 3.6892307
560000000 -25.982546 1.9013917 -30.401333 44.147045 -3.0060463 34.333313 -26.136856 176.84113
-30.39962 44.202835 -28.104668 -17.501608 -26.399605 -179.49165 -2.9555604 31.610947
-3.0022125 34.355091 -26.421625 -179.49152 -21.172764 14.040426 -19.667421 20.957422
-26.144213 176.84547 -2.9571948 31.627567 -19.660433 21.032827 -20.323568 3.8505905
