!Keysight Technologies,N5231B,MY57181281,A.17.25.05
!Automatic Fixture Removal (AFR)
!Date: Friday, March 07, 2025, 04:12:55
!S2P File: Measurements: S11,S21,S12,S22:
# MHz S  RI   R 50
10           -2.19848099558327E-05    -0.000519221159150814    0.998314886255921        -0.0186253408838665      0.99831488625592         -0.0186253408838665      0.00381779167423995      0.000826281826327677    
20           -7.20017296078206E-05    -0.00102545310731608     0.996868293933815        -0.0367627782594571      0.996868293933815        -0.0367627782594571      0.0030787476058704       0.000481049544270013    
30           -0.000130332493253535    -0.00151540448804257     0.99548350237188         -0.0542555738857352      0.99548350237188         -0.0542555738857352      0.00301772953792492      0.00144753283728297     
40           -0.000192636826141093    -0.00200621506336665     0.994361926332796        -0.0718328208517401      0.994361926332796        -0.0718328208517401      0.00360987776208171      0.000889404970355734    
50           -0.00027275063542702     -0.00249768619971612     0.992918418806614        -0.0895159683093553      0.992918418806615        -0.0895159683093553      0.0042128996074584       0.000802896127205149    
60           -0.000374208182890382    -0.00298948696043481     0.991006691523677        -0.107331079911469       0.991006691523677        -0.107331079911469       0.00456742941618911      0.000487661535411983    
70           -0.00049428748824529     -0.00346761184247169     0.988675858324208        -0.124702702618447       0.988675858324208        -0.124702702618447       0.0049767071023447       -0.000245969589748641   
80           -0.000637460436451608    -0.0039511529092232      0.985830995465481        -0.142482509085734       0.98583099546548         -0.142482509085734       0.00552121049017282      -0.000774017177023182   
90           -0.000797332718525635    -0.00442303267147349     0.98264392140705         -0.15994188381759        0.98264392140705         -0.15994188381759        0.00592137328432098      -0.00129147130162481    
100          -0.000968043099804361    -0.00488864948455674     0.979383446070734        -0.177284493896881       0.979383446070734        -0.177284493896881       0.00619700299993884      -0.00197764992683091    
110          -0.00115220757139582     -0.00534749497717517     0.975930118285929        -0.194516565166737       0.975930118285929        -0.194516565166737       0.00636066129492529      -0.00264448961460485    
120          -0.00135127586951712     -0.00580030258690971     0.972224171311459        -0.211693522958605       0.972224171311459        -0.211693522958605       0.00631314878120053      -0.00308766016684486    
130          -0.00156639775615689     -0.00624472509408664     0.968192465505326        -0.22874597841601        0.968192465505326        -0.22874597841601        0.00608521503991172      -0.00335630230495224    
140          -0.00179677318123456     -0.00667297523127433     0.963780176406394        -0.245365557380408       0.963780176406394        -0.245365557380408       0.00577567997393485      -0.00360410593412233    
150          -0.00205122878870734     -0.007110540042333       0.958888544999103        -0.262721073327261       0.958888544999103        -0.262721073327261       0.00542906168085956      -0.00387659636619155    
160          -0.00230834633063953     -0.00752666767963586     0.954064271812287        -0.279329184232923       0.954064271812287        -0.279329184232923       0.00518887609073309      -0.00435739041495       
170          -0.00258039178573703     -0.00793953562334542     0.948999733879205        -0.296084436263783       0.948999733879205        -0.296084436263783       0.00512576961827375      -0.00507296278692347    
180          -0.00287501513444441     -0.00834759936783317     0.943371763342103        -0.313041629716554       0.943371763342103        -0.313041629716554       0.00504441164502309      -0.00595557586363556    
190          -0.00318269648034315     -0.00873407463155829     0.937336446421997        -0.32942414676007        0.937336446421997        -0.32942414676007        0.00487996341298274      -0.00690914078762052    
200          -0.00350060447266724     -0.00911245960925242     0.931176529414552        -0.3457533907955         0.931176529414552        -0.3457533907955         0.00463834726702095      -0.00787176863611226    
210          -0.00382997036073309     -0.00947866174385034     0.924776906000229        -0.361894793626431       0.924776906000229        -0.361894793626431       0.00433897628078402      -0.00870619123220368    
220          -0.00417443257965922     -0.00983697724402178     0.918053193197679        -0.378092136108056       0.91805319319768         -0.378092136108056       0.00386773275671142      -0.00942814134532983    
230          -0.0045301574578214      -0.0101836260023525      0.911095394647683        -0.394151766419607       0.911095394647683        -0.394151766419607       0.00334199996770572      -0.00984173422694786    
240          -0.00489790722569884     -0.0105172020563901      0.90384176603642         -0.410049170480065       0.90384176603642         -0.410049170480065       0.00284022047278707      -0.0101412493271698     
250          -0.00527747077227826     -0.0108379829424733      0.896296682190757        -0.425809788129218       0.896296682190757        -0.425809788129218       0.00234247093940297      -0.0103217712757679     
260          -0.00566903952624213     -0.0111442672396686      0.888412716869531        -0.441391494309933       0.888412716869531        -0.441391494309933       0.00185162608540152      -0.010538651776909      
270          -0.00606890858753369     -0.0114377230776678      0.880353040102654        -0.45680590732002        0.880353040102654        -0.45680590732002        0.00137506763863698      -0.0108565913119857     
280          -0.00647861444261696     -0.0117172756406236      0.872028865186137        -0.472056614095281       0.872028865186137        -0.472056614095281       0.000951043723086795     -0.0113490866184005     
290          -0.00690052221857188     -0.0119839824753645      0.863364381835265        -0.487249269041932       0.863364381835266        -0.487249269041932       0.000423494969990147     -0.0120739544087354     
300          -0.00732501945194734     -0.0122330661084115      0.854607308976855        -0.502019968722165       0.854607308976855        -0.502019968722165       -0.000183339724049115    -0.0128359996674768     
310          -0.0077588930491545      -0.0124755442428067      0.845733155862163        -0.516929294607445       0.845733155862163        -0.516929294607445       -0.00084241159077812     -0.0136379137938121     
320          -0.00820760376567226     -0.0127024273516457      0.836346249590997        -0.531786504732165       0.836346249590997        -0.531786504732165       -0.00159826946072601     -0.0143738277473194     
330          -0.00866442070447024     -0.0129117511072212      0.826638297418547        -0.546393038972749       0.826638297418547        -0.546393038972749       -0.00233907287871062     -0.0149219888095218     
340          -0.00912720763108356     -0.013102687715965       0.816651410698177        -0.560688160457386       0.816651410698177        -0.560688160457386       -0.00300405538165232     -0.0152133541475741     
350          -0.00959488567725826     -0.0132798856568778      0.806520688785939        -0.574825564053626       0.806520688785939        -0.574825564053626       -0.00362704477424536     -0.0154336307893035     
360          -0.0100676730041839      -0.013441052684199       0.796171980375342        -0.588742343183849       0.796171980375342        -0.58874234318385        -0.00417152908695477     -0.0154926855520823     
370          -0.010546260493701       -0.0135873274983649      0.785598410398917        -0.60251010163323        0.785598410398917        -0.60251010163323        -0.00471900906057815     -0.0155421651067923     
380          -0.0110301999996782      -0.0137173325669927      0.774769200797134        -0.616085592403463       0.774769200797134        -0.616085592403463       -0.00537105100680299     -0.0156499432353878     
390          -0.0115184151725636      -0.0138319644052937      0.763733481836625        -0.629485983972567       0.763733481836625        -0.629485983972567       -0.0060883943447098      -0.0158806705223335     
400          -0.0120106730153704      -0.0139295852248506      0.752443208247302        -0.642664956195896       0.752443208247302        -0.642664956195896       -0.00695054044192693     -0.0162113765131861     
410          -0.0125069106308332      -0.0140112422171741      0.74091804233332         -0.655670947996375       0.74091804233332         -0.655670947996375       -0.00788765203101684     -0.0166579821663785     
420          -0.0130061429768769      -0.0140748136580769      0.729118346056417        -0.668423536210561       0.729118346056417        -0.668423536210561       -0.00888727340283532     -0.0171288932628876     
430          -0.0135057068446763      -0.0141212894068907      0.717142826344942        -0.680892418252004       0.717142826344942        -0.680892418252004       -0.00983720897950325     -0.0175108456794536     
440          -0.0140072471963827      -0.0141530190079705      0.704996314023762        -0.693211482070496       0.704996314023762        -0.693211482070496       -0.0106487099411699      -0.0178386128109619     
450          -0.0145093822424594      -0.0141687500893321      0.69267359259413         -0.705313049075737       0.69267359259413         -0.705313049075737       -0.0112841457551406      -0.0180848755566502     
460          -0.0150122824094201      -0.0141674471469062      0.680125187366429        -0.717183892640335       0.680125187366429        -0.717183892640335       -0.0117985937682338      -0.0182089204756002     
470          -0.0155165367892042      -0.0141508535563252      0.667375088095064        -0.72890840674507        0.667375088095065        -0.72890840674507        -0.0122708155629528      -0.018398528056303      
480          -0.0160213876314736      -0.0141161999944989      0.654346683290613        -0.740396676574769       0.654346683290613        -0.740396676574769       -0.0128639679893549      -0.0186739632346612     
490          -0.0165234160883707      -0.014064922854389       0.641169475787107        -0.751594352219278       0.641169475787107        -0.751594352219278       -0.0135472196985012      -0.0188623479243037     
500          -0.017023861523268       -0.0139971860092179      0.627797812375677        -0.76255761483019        0.627797812375677        -0.76255761483019        -0.0144697866511089      -0.0191060970997979     
510          -0.0175226849466367      -0.0139133457673745      0.614232623786312        -0.773307854283326       0.614232623786312        -0.773307854283326       -0.0155038788519124      -0.0192701949258186     
520          -0.0180194669043344      -0.0138136813622627      0.600482017385528        -0.783851288009005       0.600482017385528        -0.783851288009005       -0.0166740975400599      -0.0193952367219391     
530          -0.0185128360038038      -0.0136972720806613      0.586537868350425        -0.794130452451158       0.586537868350425        -0.794130452451158       -0.0178657837582786      -0.019473714021545      
540          -0.0190015702825621      -0.0135639446533613      0.572410448658495        -0.804112241705487       0.572410448658495        -0.804112241705487       -0.0189139041654595      -0.0194562492744718     
550          -0.0194854436934444      -0.0134152246829403      0.558142263105288        -0.813838808469007       0.558142263105288        -0.813838808469007       -0.0197862237435123      -0.0194082872845114     
560          -0.0199644906838503      -0.0132513807855239      0.543727273331722        -0.823328876102608       0.543727273331722        -0.823328876102608       -0.0204119227008996      -0.0194327858584499     
570          -0.0204372058160382      -0.0130730644710003      0.52920959723345         -0.832553068206039       0.52920959723345         -0.832553068206039       -0.0209239456615693      -0.0195371486440949     
580          -0.0209043137080435      -0.0128791517575504      0.514516909310387        -0.841520758051716       0.514516909310387        -0.841520758051716       -0.0213619702059236      -0.019664788168694      
590          -0.0213655128254005      -0.0126713327897587      0.499703012512647        -0.85026928829698        0.499703012512647        -0.85026928829698        -0.0218480683926629      -0.0198780844592151     
600          -0.0218203254499777      -0.0124489665220358      0.484741752970494        -0.858775752648391       0.484741752970494        -0.858775752648391       -0.0224738265108525      -0.0200576082668671     
610          -0.0222695873884222      -0.0122116589368445      0.469587289341846        -0.867074128220437       0.469587289341846        -0.867074128220437       -0.0232833519146005      -0.0202106597015978     
620          -0.0227108285329838      -0.0119580497834027      0.45422523343092         -0.875056440450665       0.45422523343092         -0.875056440450665       -0.0242567305772813      -0.0202538833793568     
630          -0.0231428309652086      -0.0116902970600386      0.438744301780111        -0.882731355969256       0.438744301780111        -0.882731355969256       -0.0253445390768168      -0.0201766001101541     
640          -0.0235656437251346      -0.011408338239644       0.423124254637321        -0.890110053363294       0.423124254637321        -0.890110053363294       -0.0263406760029938      -0.019996715969784      
650          -0.0239780197793803      -0.0111147601874355      0.407471260030166        -0.897200672901155       0.407471260030166        -0.897200672901155       -0.0271721231530232      -0.0197881986569165     
660          -0.0243822668108802      -0.0108072299423683      0.39163687161427         -0.904059057737967       0.39163687161427         -0.904059057737967       -0.0278754914341112      -0.0196433368596251     
670          -0.0247760889029798      -0.0104878200712289      0.375727388152649        -0.910640061589649       0.375727388152649        -0.910640061589649       -0.0285214762317041      -0.0195399889714658     
680          -0.0251593079262753      -0.0101554483850887      0.359686510471681        -0.916926807602206       0.359686510471681        -0.916926807602206       -0.0290490088964363      -0.0194759296710084     
690          -0.0255317826527805      -0.00981148399563225     0.343554184767164        -0.922943555781278       0.343554184767164        -0.922943555781278       -0.0295547732457121      -0.0194902716841225     
700          -0.0258932813322831      -0.00945475527754669     0.327270917068306        -0.928671371262553       0.327270917068306        -0.928671371262553       -0.0301049247974985      -0.0195110085235163     
710          -0.0262431397285817      -0.00908620682363157     0.310868044580177        -0.934106448196891       0.310868044580177        -0.934106448196891       -0.0307470510896483      -0.0194568673545781     
720          -0.0265790120903644      -0.00870591397016796     0.294362410246395        -0.939162769394956       0.294362410246395        -0.939162769394956       -0.0314674134307255      -0.0192667041163042     
730          -0.0269015432571589      -0.0083164672134597      0.277831244861951        -0.943907654791967       0.277831244861952        -0.943907654791968       -0.0321383379282454      -0.0190517140832502     
740          -0.0272119889703863      -0.00791869606375719     0.261276731376575        -0.948406524682148       0.261276731376575        -0.948406524682148       -0.0328078699426902      -0.0187845672025488     
750          -0.0275106259611318      -0.00751239711143307     0.244672603613995        -0.952673090058173       0.244672603613995        -0.952673090058173       -0.0334439956221641      -0.0185404152465781     
760          -0.0277958993256193      -0.00709713583678155     0.228002291281389        -0.956643563262048       0.228002291281389        -0.956643563262048       -0.0340235627623752      -0.0183529399479947     
770          -0.0280694312240012      -0.00667335907793594     0.21125223363013         -0.960396416525622       0.21125223363013         -0.960396416525622       -0.0345775150802661      -0.0182539995205444     
780          -0.0283289630281044      -0.00624137775209954     0.194441736005339        -0.96384596639689        0.194441736005339        -0.96384596639689        -0.0351177544099666      -0.0182484851820717     
790          -0.0285733637877028      -0.00580078744721598     0.177545136357837        -0.966947017873545       0.177545136357837        -0.966947017873545       -0.0356769274529633      -0.0183004645204875     
800          -0.0288025524905966      -0.00535382406706325     0.160638999838886        -0.969718832856955       0.160638999838886        -0.969718832856955       -0.0362994817308332      -0.0182359225806465     
810          -0.0290170339279664      -0.00489993592973137     0.143677847294969        -0.972183016195351       0.143677847294969        -0.972183016195351       -0.0369523658010953      -0.0180463200294111     
820          -0.0292175164653878      -0.00444059729509896     0.126703273666017        -0.974384163048869       0.126703273666017        -0.974384163048869       -0.0375583428876451      -0.0176781552908216     
830          -0.0294033242008135      -0.00397523708602395     0.109678112290545        -0.97629433616237        0.109678112290545        -0.97629433616237        -0.0381029596136241      -0.01721449280242       
840          -0.0295743260019256      -0.00350484554946556     0.0926285571359642       -0.977917644960451       0.0926285571359642       -0.977917644960451       -0.0385494132038117      -0.0166228617800786     
850          -0.029732589669453       -0.00302966355816416     0.0755405270457356       -0.979347802372519       0.0755405270457356       -0.97934780237252        -0.0389110212910801      -0.0160248410588479     
860          -0.0298742662670212      -0.00254965716726939     0.058409935439499        -0.980424582110319       0.058409935439499        -0.980424582110319       -0.0390991282012679      -0.015523076157991      
870          -0.0299999984034303      -0.00206509723647763     0.0412265989563422       -0.981180053823422       0.0412265989563422       -0.981180053823422       -0.0393102499753065      -0.0151484261771521     
880          -0.0301095067655484      -0.00157835631527251     0.0240741811935649       -0.981610753164201       0.0240741811935649       -0.981610753164201       -0.0394501483180999      -0.014923564297267      
890          -0.0302032946907569      -0.00108975591552373     0.00694759117033444      -0.981739034052836       0.00694759117033444      -0.981739034052836       -0.0396024664867268      -0.0148124272082608     
900          -0.0302814047009672      -0.000599631693220077    -0.0101560228216638      -0.981567438918567       -0.0101560228216638      -0.981567438918567       -0.0398449013673902      -0.0147436346530003     
910          -0.0303440308678956      -0.000106934488706963    -0.0272989198740865      -0.981107236462203       -0.0272989198740865      -0.981107236462203       -0.0401479172834431      -0.0146686915959492     
920          -0.0303899481450054      0.000385939091861364     -0.0443965150395577      -0.980305937307355       -0.0443965150395577      -0.980305937307355       -0.040489477171364       -0.0144543415820026     
930          -0.0304205607488785      0.000879661663893523     -0.06149407577219        -0.979226379639288       -0.06149407577219        -0.979226379639288       -0.0408314037974357      -0.0141458000753021     
