!Keysight Technologies,N5231B,MY57181281,A.17.25.05
!Date: Friday, March 07, 2025 17:08:33
!Correction: S11(C  4-Port  ) 
!S12(C  4-Port  ) 
!S13(C  4-Port  ) 
!S14(C  4-Port  ) 
!S21(C  4-Port  ) 
!S22(C  4-Port  ) 
!S23(C  4-Port  ) 
!S24(C  4-Port  ) 
!S31(C  4-Port  ) 
!S32(C  4-Port  ) 
!S33(C  4-Port  ) 
!S34(C  4-Port  ) 
!S41(C  4-Port  ) 
!S42(C  4-Port  ) 
!S43(C  4-Port  ) 
!S44(C  4-Port  ) 
!S4P File: Measurements: <S11,S12,S13,S14>,
!<S21,S22,S23,S24>,
!<S31,S32,S33,S34>,
!<S41,S42,S43,S44>:
# Hz S  dB   R 50
10000000 -27.674591 6.7813048 -26.191 41.140236 -0.87798363 -79.469307 -23.732204 134.33549
-26.047874 41.906368 -27.786692 5.305347 -23.799313 134.71379 -0.88105887 -79.481857
-0.88554251 -79.484993 -23.733784 134.67902 -24.594259 16.476255 -23.390978 38.665268
-23.668415 134.18829 -0.87994605 -79.49144 -23.354738 38.405972 -24.595682 16.126116
20000000 -27.710592 -41.833607 -26.171328 -34.496761 -0.73857737 -151.81964 -28.713099 -18.825502
-26.250233 -34.623543 -27.177925 -43.008865 -28.76137 -18.487404 -0.73339868 -151.83452
-0.73700476 -151.81349 -28.611898 -19.181395 -27.615353 -44.345184 -26.37162 -40.160355
-28.761259 -18.868826 -0.73278147 -151.80063 -26.438528 -40.462646 -27.098387 -46.688549
30000000 -23.375919 29.1675 -22.546247 39.927166 -0.96507245 129.66899 -27.657774 -28.426487
-22.426601 39.424915 -23.854061 28.959251 -27.571333 -27.928486 -0.95996898 129.61409
-0.96613294 129.67722 -27.528553 -28.196138 -22.498917 24.76553 -21.768713 32.286613
-27.55739 -28.604412 -0.96638453 129.60744 -21.743744 31.94529 -22.729368 23.803511
40000000 -23.896732 -27.195719 -22.167997 -19.623068 -1.1899289 56.205643 -24.821634 -148.73161
-22.335037 -21.168308 -23.38732 -26.541832 -24.866072 -147.94531 -1.188004 56.261784
-1.1849598 56.323986 -24.775854 -149.20551 -27.525438 -28.465811 -25.388525 -26.243496
-24.831396 -149.69537 -1.1871738 56.288971 -25.493473 -26.509319 -26.809542 -31.653934
50000000 -27.922024 29.008415 -27.489033 39.435219 -0.94656277 -20.192186 -32.889275 125.78617
-27.658619 40.032448 -28.650467 23.574369 -32.811497 126.6077 -0.93696469 -20.288679
-0.94561553 -20.184172 -32.566769 128.31213 -28.741955 36.446903 -28.221205 45.062885
-32.754868 126.54891 -0.94886464 -20.310658 -28.189533 44.761097 -29.838348 31.217619
60000000 -25.762924 -18.881912 -23.498005 -6.8703346 -1.3063253 -96.240318 -26.335012 74.177284
-23.76572 -6.7662344 -25.180508 -20.698902 -26.243938 74.15921 -1.2989696 -96.254074
-1.2831055 -96.274353 -26.486145 74.019974 -26.683853 14.745157 -24.447187 11.309105
-26.55348 74.351608 -1.2937411 -96.255241 -24.463831 11.6386 -26.632418 10.823272
70000000 -28.047607 20.998226 -28.92304 19.998209 -1.3000081 -170.4155 -26.013203 -29.051704
-28.598024 19.771603 -29.4652 8.4452171 -26.053572 -29.288343 -1.2778692 -170.50858
-1.3072815 -170.51802 -26.207474 -27.758549 -26.740519 17.783709 -27.364267 16.133221
-26.034853 -27.739178 -1.2764189 -170.58763 -27.404369 15.722413 -27.041765 7.067224
80000000 -25.39249 1.6094608 -23.69235 16.132105 -1.2861316 112.26896 -29.700188 -75.972916
-23.637949 16.667864 -25.767645 -0.091207087 -29.804514 -76.120903 -1.282702 112.14203
-1.283852 112.22726 -29.845215 -76.538795 -24.966274 28.169638 -23.069721 28.040684
-29.682165 -75.455238 -1.2810464 112.16015 -23.040428 27.968458 -25.314438 24.571764
90000000 -26.516624 37.750725 -26.310999 27.489206 -1.6410643 37.468216 -24.035934 -159.90762
-25.972879 26.764038 -27.702868 23.972065 -24.157305 -159.29288 -1.6233138 37.47773
-1.6550701 37.466282 -24.098242 -158.79445 -24.547434 31.144417 -24.615561 20.692204
-23.918613 -159.65707 -1.622566 37.449005 -24.693375 20.384298 -24.416182 18.984463
100000000 -23.659224 12.297764 -23.798691 26.325558 -1.4350585 -37.334835 -27.043789 100.84409
-23.759661 27.091099 -25.665398 9.1207333 -27.14683 101.64767 -1.412544 -37.50642
-1.440709 -37.277866 -26.775667 101.68155 -25.014713 28.500587 -24.157349 29.958952
-26.900537 101.08746 -1.4263761 -37.453083 -24.09164 30.041044 -26.250502 16.451754
110000000 -28.841259 13.789333 -25.901024 17.636354 -1.6990874 -114.45047 -25.303679 57.841381
-25.785511 16.797306 -27.942125 13.950503 -25.331825 59.128143 -1.6890061 -114.4321
-1.7030857 -114.3559 -25.316803 58.375374 -24.856848 37.923252 -24.94047 24.223988
-25.210888 57.162437 -1.6883047 -114.42693 -25.001539 23.961563 -25.59346 26.38172
120000000 -22.481243 18.988029 -22.788094 25.029524 -1.8444577 172.16602 -23.003815 -41.708477
-22.94981 25.045385 -23.300245 8.251688 -22.968969 -40.805328 -1.7944689 172.09019
-1.8302596 172.21899 -22.975243 -40.948902 -22.328714 23.078659 -22.836903 26.612736
-23.041697 -42.077312 -1.7988588 172.06288 -22.76819 26.75057 -23.904791 11.917862
130000000 -25.981701 -9.866334 -24.449247 6.5381589 -1.6830077 95.253098 -27.0425 -108.21513
-24.406883 5.6535993 -26.939426 -10.685996 -27.067759 -107.30926 -1.6674602 95.119423
-1.6721187 95.323021 -27.207312 -109.13956 -25.546534 34.022762 -24.345329 24.434755
-27.063969 -108.93565 -1.6594964 95.139191 -24.375078 24.226273 -26.354818 31.417458
140000000 -23.093307 39.940804 -23.278212 40.578484 -2.0828688 20.050367 -22.494095 -178.28687
-23.375126 41.139763 -24.215912 29.182741 -22.414774 -177.58815 -2.0362487 20.047237
-2.0612457 20.026423 -22.556051 -177.5443 -20.903738 41.78167 -21.691605 42.349155
-22.598469 -178.36621 -2.0361288 20.013269 -21.648163 42.306664 -21.754622 31.873106
150000000 -21.990705 -5.611671 -21.836494 9.363821 -1.8668275 -54.120369 -24.236311 84.038109
-21.76203 9.6902103 -23.687351 -8.2926559 -24.171598 84.438683 -1.8278145 -54.40332
-1.8631356 -54.128952 -24.132944 83.842186 -24.223814 21.458952 -22.589926 20.422926
-24.234394 84.135963 -1.829886 -54.340134 -22.619925 20.306616 -25.489609 13.018634
160000000 -29.383005 52.23344 -27.785542 42.948486 -2.0730796 -131.49223 -23.922436 36.165497
-27.818689 44.024746 -29.140018 34.965569 -23.869335 35.999565 -2.0535769 -131.59357
-2.0614331 -131.56857 -23.995787 36.67894 -22.388401 54.001293 -23.602936 47.862576
-23.982708 36.524521 -2.0526321 -131.61221 -23.568525 47.879433 -23.416014 43.729954
170000000 -19.714794 14.762281 -19.914724 25.054949 -2.2378404 155.06287 -21.651907 -56.799091
-19.867298 25.166275 -21.209105 6.5956707 -21.643217 -56.792004 -2.195956 154.9039
-2.2448909 154.99858 -21.61249 -56.327003 -20.29306 21.96229 -19.664783 24.905401
-21.630205 -56.39407 -2.1969748 154.92862 -19.697247 24.889532 -21.646168 12.327772
180000000 -29.142395 -31.474588 -27.029097 -7.1034541 -2.037545 78.504669 -24.898497 -129.04971
-27.029762 -7.3743572 -29.401789 -30.226549 -24.901924 -129.57169 -2.0325017 78.322479
-2.0392015 78.469742 -24.997847 -129.48912 -25.267891 43.22057 -24.96376 26.412416
-24.92281 -128.88135 -2.0234988 78.283524 -24.930716 26.356573 -25.895962 36.666603
190000000 -20.292431 45.225861 -20.470491 51.085541 -2.3740537 2.9230943 -21.919506 163.21204
-20.44323 50.830738 -22.003315 36.986107 -21.978424 163.60678 -2.3461509 2.958164
-2.3789489 2.9419029 -21.944574 163.80945 -19.07991 42.860252 -19.208252 44.522171
-21.877617 163.34181 -2.3481205 2.9425423 -19.23015 44.487892 -20.224741 32.46521
200000000 -20.251236 -18.622326 -20.356066 -4.5226593 -2.2734172 -71.247116 -22.515509 72.865639
-20.332989 -4.5973387 -21.550776 -20.585928 -22.454754 73.232903 -2.2391663 -71.372284
-2.2725587 -71.225304 -22.43939 73.031921 -22.248688 11.538578 -21.032883 7.1580348
-22.492649 72.7416 -2.2381487 -71.362907 -21.014805 7.2416039 -23.366951 3.7453117
210000000 -26.016993 69.619514 -25.408518 70.51265 -2.3471866 -148.24333 -23.198801 13.081653
-25.420681 70.260078 -27.844736 48.999554 -23.258389 13.259725 -2.3267953 -148.27023
-2.348772 -148.2198 -23.248062 13.254758 -20.865585 56.263836 -21.61832 57.053123
-23.17845 12.952156 -2.3270478 -148.27252 -21.632967 57.080379 -22.266247 43.130577
220000000 -17.720211 11.022249 -17.671911 21.14307 -2.5244651 137.45834 -21.500668 -69.665863
-17.683584 21.121475 -19.256575 3.0351965 -21.459032 -69.226761 -2.4875684 137.41396
-2.5222917 137.48778 -21.452999 -69.292664 -18.420071 21.19282 -17.646681 21.163975
-21.498714 -69.839401 -2.4877436 137.41791 -17.644703 21.176525 -20.152018 12.621598
230000000 -32.018925 -54.941837 -32.336327 -25.636129 -2.43294 61.592583 -22.89286 -144.54762
-32.318596 -26.065519 -31.174978 -56.417728 -22.892076 -144.75006 -2.4030042 61.582905
-2.4292312 61.616497 -22.906763 -144.9001 -25.887548 45.076504 -26.886003 34.363892
-22.903431 -144.75633 -2.4010789 61.591667 -26.908037 34.363251 -26.282864 36.574692
240000000 -18.309853 38.700848 -18.217308 47.69418 -2.6662271 -13.799941 -21.266132 143.87065
-18.224243 47.746952 -20.181776 30.748886 -21.250252 144.58206 -2.6293504 -13.804367
-2.6622548 -13.784203 -21.257727 144.56807 -17.57667 38.576233 -17.171036 39.636471
-21.282381 143.78412 -2.6288369 -13.799802 -17.170946 39.634907 -19.08107 28.516096
250000000 -20.087091 -29.282421 -20.455935 -16.857601 -2.5571032 -88.368462 -21.970909 58.497047
-20.44091 -16.866791 -21.192881 -34.005219 -21.87628 58.871315 -2.5322845 -88.423729
-2.5540755 -88.348808 -21.881912 58.704876 -21.957287 6.0354958 -21.187292 -2.4186442
-21.977346 58.34235 -2.5304863 -88.403809 -21.190609 -2.4041913 -23.203001 0.15493056
260000000 -22.263605 67.586807 -21.551865 74.666733 -2.6632183 -164.63841 -21.934607 -8.2462254
-21.55508 74.717232 -24.717077 56.934517 -21.929466 -7.7739549 -2.6365545 -164.66037
-2.6595182 -164.63023 -21.945036 -7.8343029 -19.266384 55.033474 -19.285448 58.003464
-21.966085 -8.3163576 -2.6345201 -164.65842 -19.283457 58.017437 -20.700632 43.142212
270000000 -17.350712 0.97114962 -17.145994 12.278757 -2.7184253 121.21799 -21.107738 -92.81382
-17.139784 12.282825 -18.780159 -5.0169659 -21.030539 -92.049065 -2.6929164 121.16846
-2.7168937 121.22706 -21.037609 -92.114304 -18.28779 18.123447 -17.251068 13.792402
-21.122133 -92.878662 -2.6918709 121.17561 -17.252434 13.811347 -19.833628 10.479423
280000000 -46.200218 138.53525 -38.285118 73.837715 -2.6424522 45.084988 -22.46587 -166.0956
-38.267151 74.076599 -41.425663 -73.353157 -22.40571 -166.01865 -2.6132751 45.118462
-2.6398473 45.093002 -22.420731 -166.04544 -23.405041 56.841251 -25.325825 55.492626
-22.492916 -166.22122 -2.6114376 45.121281 -25.347969 55.413105 -24.247126 42.942989
290000000 -17.037718 37.07552 -16.688719 43.277382 -2.8275015 -29.852982 -21.111568 118.92429
-16.684681 43.261944 -19.166496 31.857338 -21.058004 119.95245 -2.7849908 -29.888615
-2.8267999 -29.853621 -21.073578 119.9845 -16.445457 34.715607 -16.031076 35.922009
-21.133232 118.92287 -2.784229 -29.891928 -16.033587 35.929287 -18.130383 25.536922
300000000 -21.159224 -28.271589 -21.558132 -22.103256 -2.6532118 -104.70034 -22.230583 32.89959
-21.556784 -22.143932 -21.573988 -29.629196 -22.063219 33.9571 -2.623076 -104.80064
-2.6528938 -104.69181 -22.074278 34.019131 -21.669205 1.5013317 -21.476751 -1.2520595
-22.244785 32.839455 -2.6220179 -104.80029 -21.453207 -1.2263125 -22.21175 -5.1743455
310000000 -19.723749 57.832443 -19.058899 70.619156 -2.7433031 178.65311 -22.858122 -30.715763
-19.058432 70.630516 -22.487831 44.194473 -22.734264 -29.990675 -2.717485 178.60493
-2.7424195 178.65999 -22.740135 -29.953447 -18.794952 54.248619 -17.779091 54.12888
-22.89378 -30.809778 -2.7151325 178.60638 -17.786657 54.173599 -21.383266 42.209663
320000000 -16.86665 -4.4128842 -16.727419 6.4440465 -2.7792294 104.37345 -22.092653 -113.71975
-16.721455 6.417532 -18.245434 -13.072701 -21.964235 -113.18904 -2.7572401 104.18176
-2.7787144 104.38631 -21.966183 -113.15602 -17.491913 15.775989 -16.800253 9.4989586
-22.120787 -113.66556 -2.7564471 104.17434 -16.788183 9.5670214 -19.367378 13.606073
330000000 -29.889051 64.982475 -27.497829 84.340355 -2.7325094 27.776012 -23.472637 177.31651
-27.509806 84.309944 -39.479652 37.856331 -23.507746 178.0757 -2.7283902 27.807137
-2.7317722 27.794693 -23.504118 178.08891 -22.809021 50.942345 -22.647118 57.438736
-23.49287 177.23042 -2.7268763 27.812515 -22.681055 57.368431 -23.31142 36.093418
340000000 -16.011866 21.85042 -15.46559 32.771481 -2.9779418 -46.710796 -21.455414 100.61137
-15.465626 32.751713 -18.044395 17.573835 -21.351097 102.39799 -2.9337687 -46.799168
-2.9769135 -46.690514 -21.345263 102.41181 -16.283539 31.036961 -15.228348 28.130703
-21.478586 100.63573 -2.9332631 -46.802151 -15.222934 28.214478 -18.064455 23.446642
350000000 -23.091202 -37.754642 -24.04705 -27.889761 -2.8015244 -121.80196 -22.69211 17.248335
-24.045158 -27.989464 -22.933544 -46.405693 -22.54241 18.399582 -2.7843614 -121.94334
-2.7998862 -121.7667 -22.531509 18.328503 -23.105978 8.9921827 -23.499718 3.0962331
-22.687801 17.152546 -2.7839842 -121.93139 -23.482046 2.9171767 -23.130283 2.7166309
360000000 -17.974058 47.047928 -17.044189 59.376564 -3.0071363 162.10361 -22.088541 -48.200085
-17.045607 59.414635 -20.742704 41.97456 -21.978437 -46.332874 -2.9537992 162.00072
-3.0034869 162.11922 -21.985775 -46.328106 -17.167536 47.964813 -16.035545 47.349094
-22.12162 -48.271557 -2.9522147 162.00345 -16.036816 47.437683 -19.227047 38.021755
370000000 -17.376799 -14.520482 -17.242207 -4.4724545 -2.9379046 88.219193 -21.744606 -135.2952
-17.243738 -4.489212 -18.417542 -20.856476 -21.596056 -133.87228 -2.9121683 87.825783
-2.9374011 88.244209 -21.589577 -133.92009 -17.934332 8.9031296 -17.349283 2.0642664
-21.746452 -135.30954 -2.9125848 87.836136 -17.337221 2.0474436 -19.041162 6.0129552
380000000 -23.344437 64.839508 -21.97114 78.910889 -2.9220331 11.289772 -23.202072 157.15498
-21.971048 78.973793 -29.164827 58.644279 -23.193769 159.39217 -2.8958235 11.222302
-2.9194102 11.309035 -23.204781 159.37238 -20.110725 56.449699 -19.345909 60.352646
-23.230085 156.9552 -2.8926015 11.2333 -19.371239 60.376579 -21.701216 39.511387
390000000 -15.068727 13.046206 -14.768587 21.759233 -3.1612296 -62.501518 -20.969488 77.961304
-14.765775 21.776842 -17.186747 10.418736 -20.801538 80.56617 -3.0898006 -62.944504
-3.1613183 -62.485092 -20.799498 80.562302 -15.388576 24.418177 -14.630522 20.925833
-21.004873 78.016487 -3.0875573 -62.950718 -14.617479 20.972988 -17.313379 18.124025
400000000 -24.438572 -29.433102 -28.20574 -20.915401 -2.8793321 -138.07797 -22.854225 -6.4195275
-28.206474 -20.959303 -24.659985 -42.665871 -22.684265 -4.4625587 -2.8778543 -138.48512
-2.8776574 -138.0468 -22.690435 -4.453938 -22.736261 15.105814 -23.073124 23.090721
-22.87182 -6.4674416 -2.8755333 -138.4837 -23.078365 22.919617 -23.213232 7.4096088
410000000 -16.585537 33.36158 -15.440874 47.535122 -3.2036605 145.82376 -21.705721 -67.986908
-15.435572 47.543041 -18.9816 29.815845 -21.511366 -65.495819 -3.1488738 145.59433
-3.2014613 145.84764 -21.513588 -65.469376 -16.269318 40.506699 -14.582108 37.349907
-21.734486 -67.894104 -3.1463592 145.57846 -14.578678 37.407433 -18.201241 33.673458
420000000 -17.939459 -22.188688 -17.965895 -14.133078 -3.0708098 72.001335 -21.494167 -155.91241
-17.96237 -14.131539 -18.887005 -30.481922 -21.312119 -154.42372 -3.0546877 71.544243
-3.0673683 72.035133 -21.313894 -154.39476 -18.511631 4.7205515 -17.992203 -2.0120316
-21.502789 -155.88362 -3.0550799 71.53273 -17.992418 -2.0569711 -19.342056 2.8979514
430000000 -21.461016 46.771214 -19.887257 68.413452 -3.2219493 -4.7866721 -21.855295 138.87233
-19.892792 68.39698 -25.807886 48.014614 -21.797379 141.79063 -3.1557271 -4.9541955
-3.217 -4.7673869 -21.804945 141.86342 -18.772902 49.010525 -17.095657 49.961132
-21.852716 138.88579 -3.1580842 -4.9607806 -17.100721 49.928711 -20.247082 35.835033
440000000 -15.83004 0.06659729 -15.11436 11.293641 -3.2995141 -77.733101 -20.207085 53.974468
-15.114129 11.294622 -17.208269 -1.1996206 -20.022379 56.460091 -3.2368131 -78.589264
-3.2947257 -77.717979 -20.020241 56.522186 -16.297663 15.836618 -14.963358 9.5981102
-20.215691 53.992245 -3.2394288 -78.59343 -14.96297 9.619194 -17.361595 10.381857
450000000 -27.692913 6.5418067 -29.605021 40.601292 -3.1299107 -154.75079 -22.212048 -20.249361
-29.63224 40.422985 -28.896595 -30.53862 -22.145489 -18.063074 -3.100961 -155.06937
-3.1257703 -154.74718 -22.13541 -18.063337 -22.520416 34.524509 -21.862171 39.549492
-22.22398 -20.290821 -3.102773 -155.06422 -21.85495 39.462414 -23.150112 16.714367
460000000 -15.76715 21.21018 -14.872707 35.084129 -3.5019646 131.08629 -19.957939 -91.585396
-14.867906 35.101425 -17.99098 20.092279 -19.796049 -88.594292 -3.3849518 130.31982
-3.4994345 131.08871 -19.796398 -88.696014 -15.729319 30.726295 -14.194386 26.737085
-19.970345 -91.517784 -3.3891022 130.32437 -14.185255 26.760157 -17.405104 24.901159
470000000 -19.562876 -27.7248 -20.340788 -19.465961 -3.1699443 56.135159 -20.969845 -178.56088
-20.338453 -19.514719 -19.953255 -36.385048 -20.839848 -176.41151 -3.164119 55.534279
-3.1697109 56.138287 -20.84057 -176.41615 -19.272583 3.6522832 -19.39193 -0.32851291
-20.976488 -178.55 -3.1677299 55.555988 -19.388683 -0.30201954 -19.671303 -2.5034046
480000000 -18.247952 36.346573 -17.150723 53.899117 -3.550813 -20.525312 -20.428961 120.75375
-17.153816 53.940033 -21.877035 32.495518 -20.249546 123.60883 -3.4288478 -20.81682
-3.5504029 -20.514008 -20.256821 123.582 -17.026251 39.925648 -15.351583 40.941242
-20.432152 120.76548 -3.4320247 -20.7911 -15.347507 40.912464 -19.161484 31.069016
490000000 -15.655981 -7.3572235 -15.426405 0.36259764 -3.4321496 -92.961632 -19.243303 32.113384
-15.427767 0.34003973 -16.964611 -12.898813 -19.027205 33.77161 -3.3880148 -94.025139
-3.4335654 -92.946648 -19.036963 33.820663 -16.283325 7.0642085 -15.370572 2.6941037
-19.245993 32.121765 -3.3896921 -93.998543 -15.372665 2.6770179 -17.256582 4.5472102
500000000 -23.826492 18.071384 -24.374451 54.254642 -3.4086347 -170.88892 -20.970617 -36.625198
-24.397135 54.339649 -28.236614 -16.368668 -21.003654 -34.35041 -3.3514454 -171.11317
-3.4091856 -170.85521 -21.000668 -34.340881 -21.208395 35.939812 -19.170395 42.389286
-20.981562 -36.572304 -3.3529446 -171.10233 -19.157042 42.367775 -22.136234 16.406223
510000000 -15.833802 8.5460119 -14.918727 21.653742 -3.7031255 116.41949 -18.726383 -114.34264
-14.915533 21.667398 -18.294922 6.0421729 -18.531872 -111.77061 -3.5740197 115.22231
-3.7022505 116.44434 -18.541527 -111.78189 -16.170713 20.689178 -14.280032 16.410496
-18.729303 -114.33018 -3.5750301 115.24557 -14.27843 16.349916 -17.86421 16.333183
520000000 -21.403774 -26.373219 -23.914137 -22.014378 -3.3491206 40.082378 -20.338316 163.68814
-23.922564 -22.091238 -22.370031 -44.388958 -20.289883 165.01913 -3.3283324 39.409847
-3.3471649 40.120758 -20.287483 165.02272 -21.681566 6.9584155 -21.026947 11.284433
-20.350397 163.67924 -3.3285582 39.422272 -21.013401 11.313826 -21.54644 2.1379533
530000000 -16.852463 22.212074 -16.100248 41.890839 -3.9145782 -35.508408 -18.700056 101.34668
-16.08931 41.987854 -20.433743 21.908199 -18.593077 104.48558 -3.7345145 -36.059109
-3.9090686 -35.488472 -18.606392 104.40695 -16.399355 32.585953 -14.336517 30.197241
-18.692293 101.4266 -3.7378867 -36.034935 -14.340272 30.069191 -18.227718 25.575642
540000000 -16.484018 -19.156231 -16.979816 -11.1152 -3.5649915 -108.13063 -18.314651 10.266233
-16.980709 -11.122564 -18.077543 -24.796968 -18.119062 12.409813 -3.5014656 -109.29702
-3.5611589 -108.11169 -18.130835 12.40486 -17.506546 1.5255462 -16.835115 -1.9321239
-18.318504 10.304788 -3.5030618 -109.27946 -16.845556 -1.9885846 -18.463509 -0.2349786
550000000 -21.872061 26.613634 -20.502327 61.336132 -3.6719644 173.44415 -19.946579 -54.844742
-20.486292 61.530994 -27.163813 16.529375 -19.842024 -52.11068 -3.5732973 173.06425
-3.6656423 173.45738 -19.860773 -52.135719 -19.03574 40.480328 -16.339949 42.062435
-19.927832 -54.640106 -3.5812454 173.08835 -16.337418 41.902493 -20.543575 28.87051
560000000 -15.732626 -2.5047419 -14.961543 11.673626 -3.8732574 101.54166 -17.674931 -135.3457
-14.951796 11.671155 -17.857426 -5.4687991 -17.443657 -133.30791 -3.731986 100.26162
-3.8693881 101.53089 -17.466829 -133.26537 -16.069937 14.91351 -14.316156 8.4714155
