!Keysight Technologies,N5231B,MY57181281,A.17.25.05
!Date: Friday, March 07, 2025 16:22:14
!Correction: S11(C  4-Port  ) 
!S12(C  4-Port  ) 
!S13(C  4-Port  ) 
!S14(C  4-Port  ) 
!S21(C  4-Port  ) 
!S22(C  4-Port  ) 
!S23(C  4-Port  ) 
!S24(C  4-Port  ) 
!S31(C  4-Port  ) 
!S32(C  4-Port  ) 
!S33(C  4-Port  ) 
!S34(C  4-Port  ) 
!S41(C  4-Port  ) 
!S42(C  4-Port  ) 
!S43(C  4-Port  ) 
!S44(C  4-Port  ) 
!S4P File: Measurements: <S11,S12,S13,S14>,
!<S21,S22,S23,S24>,
!<S31,S32,S33,S34>,
!<S41,S42,S43,S44>:
# Hz S  dB   R 50
10000000 -26.542175 -17.71814 -27.63656 19.21793 -0.57393581 -78.623116 -29.807451 148.60083
-27.681124 18.545761 -26.708685 -17.883204 -30.029819 148.22646 -0.57036459 -78.697617
-0.57544899 -78.697334 -29.842848 148.28751 -26.196325 -17.084986 -27.235678 17.149149
-29.692348 148.85506 -0.57183492 -78.681747 -27.287809 15.714254 -26.414467 -16.006996
20000000 -26.688999 -19.276623 -25.457378 -14.779493 -0.86816269 -152.04085 -26.771559 -2.4537716
-25.389305 -15.195346 -26.823345 -17.690056 -26.912203 -0.81463093 -0.87206024 -151.98119
-0.8662985 -151.92325 -26.859354 -1.9109764 -27.467447 -14.930364 -25.844715 -13.68769
-26.711334 -3.1428306 -0.87028861 -152.00287 -26.104488 -11.951417 -27.079535 -15.648426
30000000 -26.768471 23.822529 -25.540167 39.617367 -0.82852209 129.48303 -29.589909 -11.426385
-25.619354 39.14946 -26.785286 24.259445 -29.966406 -10.606664 -0.83000726 129.39481
-0.83938664 129.42036 -29.730253 -11.476373 -26.098047 20.636082 -25.000229 33.64584
-29.472591 -11.526842 -0.83118415 129.42352 -25.15057 32.694813 -26.085016 22.844309
40000000 -22.468214 14.535165 -21.257053 14.868284 -1.3375545 55.292885 -23.189938 -132.58467
-21.152483 14.748836 -22.707726 16.243992 -23.343855 -129.39691 -1.3469306 55.409195
-1.3416129 55.585991 -23.415342 -131.44135 -25.448645 15.503243 -23.394426 9.834856
-23.153326 -133.77205 -1.3347914 55.362106 -23.931889 13.601059 -24.68178 13.070572
50000000 -27.920933 12.243933 -27.927626 24.159605 -1.0365776 -19.691116 -29.09988 127.03015
-28.006071 24.650591 -27.878439 11.974018 -29.182407 127.33102 -1.0348752 -19.685837
-1.031379 -19.674078 -29.170364 126.77454 -29.308172 10.716179 -29.027174 21.586359
-29.164591 126.90968 -1.0340159 -19.687931 -29.025557 21.924789 -29.233311 10.347628
60000000 -22.004593 11.71634 -20.591642 16.029781 -1.4437612 -96.195656 -24.00255 76.105309
-20.548559 16.037231 -22.33449 12.640093 -24.16531 79.48011 -1.4354793 -96.147629
-1.4352382 -95.975426 -24.376881 77.72052 -25.64217 24.933006 -23.25934 20.137758
-24.025623 75.306633 -1.4212881 -96.200829 -23.79076 23.679745 -25.015535 23.660069
70000000 -25.297773 -19.727448 -25.518709 -17.056044 -1.3700097 -169.31346 -23.662085 -34.322872
-25.552252 -16.972094 -25.396173 -17.806124 -23.654625 -32.712326 -1.3661469 -169.39857
-1.3527118 -169.30722 -23.786312 -33.146152 -26.047005 -3.7171316 -26.637978 -3.1590922
-23.718584 -34.443424 -1.3666561 -169.44818 -26.235247 -1.1252954 -26.103813 -3.1029642
80000000 -24.004997 2.9957945 -22.489283 15.490181 -1.3801867 113.33582 -26.603012 -91.952591
-22.513582 15.542775 -24.251116 4.0930195 -26.950352 -90.132484 -1.3644681 113.31998
-1.3724099 113.44025 -27.135807 -91.797379 -27.793419 28.29162 -24.938858 28.691685
-26.589499 -92.569969 -1.3543609 113.28003 -25.168699 30.840464 -27.59997 27.221523
90000000 -25.872902 -29.684689 -24.749418 -26.076485 -1.5892745 39.493713 -22.946405 178.99051
-24.708284 -25.643497 -26.074215 -25.355133 -23.032293 -178.4747 -1.5739709 39.313881
-1.5714939 39.571255 -23.188066 -179.52872 -24.65044 16.002779 -25.040812 8.1716833
-22.967983 178.73557 -1.567294 39.260559 -24.460636 11.117821 -25.342352 16.067186
100000000 -26.672754 -0.97791439 -25.947008 15.285952 -1.3984008 -36.2337 -25.60747 89.162727
-26.059706 14.81228 -26.043337 -2.8836985 -25.623037 90.14595 -1.3865706 -36.394875
-1.3836854 -36.183674 -25.796921 88.77285 -27.825157 14.682894 -26.709179 26.881134
-25.611322 88.857903 -1.3805246 -36.448063 -26.519466 27.01021 -28.511919 20.867836
110000000 -28.182516 -21.09866 -26.674595 -13.912154 -1.5614594 -112.31247 -25.521397 27.081182
-26.638857 -12.871015 -29.730524 -28.996561 -25.682028 29.571171 -1.5376912 -112.57452
-1.5410593 -112.23302 -25.997953 27.768373 -26.329824 17.511814 -25.729975 12.330758
-25.558943 26.883022 -1.5289987 -112.65043 -25.289007 14.341304 -26.458904 27.547159
120000000 -27.07481 15.858101 -26.578262 34.318405 -1.5806824 172.81241 -25.022306 -56.864285
-26.617754 33.097084 -26.743607 27.969744 -24.877106 -54.906036 -1.5737756 172.45807
-1.5584958 172.82053 -25.268967 -55.727673 -26.691431 18.075941 -25.97303 32.246887
-25.03154 -56.917454 -1.5699522 172.35616 -25.700527 30.223635 -25.477758 26.28648
130000000 -27.808834 -19.9739 -25.580902 -3.3616729 -1.569743 96.693047 -26.887886 -130.61
-25.691364 -2.5732543 -27.536366 -22.049622 -26.837061 -130.14127 -1.5560771 96.377266
-1.5539286 96.715477 -27.179386 -131.38153 -27.624426 20.96837 -25.325727 16.213186
-26.895947 -130.65189 -1.5503138 96.305618 -25.169561 16.339884 -27.24481 24.211773
140000000 -27.6572 46.292496 -27.259789 56.000721 -1.7377739 20.995113 -25.903885 166.21718
-27.17355 54.32193 -27.264498 60.507881 -25.772326 167.45549 -1.7227737 20.458494
-1.7161543 20.997391 -26.324326 167.4035 -25.741322 39.816967 -25.793896 48.210606
-25.859322 166.1272 -1.7184204 20.344494 -25.556431 45.738785 -24.425772 47.626968
150000000 -23.648617 -1.2786015 -22.205898 14.177928 -1.7360915 -53.940605 -25.680387 81.711761
-22.358934 14.25017 -22.862898 1.458033 -25.392866 81.43647 -1.7458148 -54.42408
-1.7217034 -53.969543 -25.722269 81.967339 -25.15868 17.711531 -22.760433 20.223635
-25.660963 81.426193 -1.747512 -54.485634 -22.764257 19.423689 -23.883869 19.157629
160000000 -34.743164 39.709579 -32.576736 43.688938 -1.8036119 -130.37613 -27.088194 20.963699
-32.011433 43.696632 -37.625252 64.786018 -27.023092 20.287666 -1.7857856 -130.96333
-1.7873831 -130.35626 -27.559793 20.16316 -27.389515 47.074486 -28.496117 48.29179
-27.019915 20.629763 -1.7779814 -131.02896 -28.263985 46.440434 -26.312695 54.338673
170000000 -21.938074 22.531567 -20.234169 35.827808 -1.9796271 154.76819 -24.614468 -54.872654
-20.376856 35.284599 -20.935175 28.214912 -24.362816 -55.171799 -1.9989616 154.02174
-1.9596399 154.73007 -24.756271 -53.556423 -22.445608 26.539215 -20.425491 36.135902
-24.616581 -55.552555 -1.994398 153.92067 -20.478682 34.993603 -20.938326 30.304094
180000000 -28.262121 -22.495327 -25.724234 -10.739053 -1.9091237 79.198853 -26.211292 -134.6301
-25.804333 -9.0240536 -27.837101 -32.212986 -25.99045 -137.19968 -1.9177051 78.665276
-1.9005932 79.187973 -26.293928 -136.75285 -31.555876 17.043856 -28.284649 3.7824478
-26.211407 -135.06293 -1.910735 78.583199 -28.201038 3.3123155 -29.989935 21.840183
190000000 -22.42547 44.165611 -21.177851 56.899529 -2.1148865 3.2349253 -24.721256 164.21527
-21.252888 55.865231 -21.74131 54.46838 -24.687553 163.55865 -2.1098158 2.4193835
-2.0908067 3.2380831 -25.110088 165.31586 -22.171116 50.242329 -20.665775 58.378632
-24.768648 163.47581 -2.1023972 2.2914619 -20.743961 57.289379 -20.480696 52.783684
200000000 -21.330919 -13.40398 -19.66938 0.2395831 -2.1463931 -71.23391 -24.072453 77.955978
-19.79743 0.69940978 -20.174257 -13.291767 -23.747696 76.240547 -2.1726811 -71.988945
-2.1313114 -71.316086 -23.982042 77.930862 -24.40589 0.57629865 -21.235071 3.2011712
-24.140987 77.655251 -2.1745629 -72.096191 -21.294716 2.6568475 -22.34943 5.4177051
210000000 -30.290361 49.428394 -28.807383 62.540695 -2.2059159 -147.34009 -24.456139 11.170037
-28.609852 60.151108 -33.375908 75.817795 -24.518282 8.4478159 -2.2016304 -148.13855
-2.1896689 -147.37404 -24.835724 9.6986284 -23.63726 70.427956 -23.436007 76.135559
-24.513269 10.815925 -2.1962776 -148.23091 -23.52025 75.571854 -22.344437 65.710449
220000000 -19.682032 9.7024412 -18.054605 22.771389 -2.3523493 138.06337 -22.838655 -69.386604
-18.153477 22.760448 -19.241034 14.133141 -22.648369 -69.874718 -2.3762627 137.08328
-2.3382702 137.95547 -22.839802 -67.856354 -20.675562 18.711838 -18.261703 24.558147
-22.917704 -69.434547 -2.3781276 136.95247 -18.347351 24.142418 -19.185497 18.16394
230000000 -27.558838 -42.06398 -26.298307 -29.482082 -2.2712178 62.69965 -24.05117 -149.23175
-26.309206 -27.910456 -27.342297 -55.536594 -23.79476 -151.9577 -2.284132 61.859917
-2.2616658 62.644932 -23.976255 -150.85223 -30.994333 63.328819 -31.978148 38.776917
-24.100666 -149.26935 -2.2833884 61.785053 -32.11298 37.995129 -29.440725 54.764305
240000000 -21.652607 36.825184 -19.667595 49.536949 -2.4034233 -12.6596 -23.076345 138.40306
-19.743015 49.173325 -21.157341 46.332657 -23.076443 137.56815 -2.4163308 -13.707637
-2.3917048 -12.763859 -23.285404 139.45941 -19.996351 42.032066 -18.161514 49.038525
-23.141821 138.48045 -2.4164934 -13.825754 -18.252802 48.828583 -18.596069 40.541767
250000000 -21.253595 -25.475029 -19.598209 -14.299214 -2.3590093 -87.293976 -23.226154 52.993027
-19.654884 -13.923537 -20.871651 -26.196779 -22.881258 52.034386 -2.3898938 -88.245132
-2.3570547 -87.375389 -22.988337 53.474209 -25.348404 4.691999 -21.859688 0.27044874
-23.259951 53.192276 -2.3950582 -88.323685 -21.935127 0.068205737 -23.606953 2.4095097
260000000 -28.827757 61.995823 -26.168348 76.469444 -2.3846352 -163.26094 -23.87019 -17.119244
-26.203953 75.388947 -27.446239 83.084114 -23.755026 -19.417046 -2.4039564 -164.24452
-2.3802545 -163.3318 -23.906124 -18.069345 -21.819271 61.998325 -20.929216 67.863037
-23.899614 -16.980124 -2.4061587 -164.32401 -20.994793 67.99852 -20.677189 60.629795
270000000 -19.716583 4.2853179 -17.766554 14.788946 -2.4448957 122.02819 -23.024506 -98.229797
-17.807213 14.78869 -18.913704 6.8449478 -22.837065 -98.563438 -2.4742005 121.03082
-2.4458294 121.95335 -22.927546 -97.276932 -20.723427 19.688034 -17.987492 21.072342
-23.039473 -98.015396 -2.4791503 120.96004 -18.047606 21.094999 -19.170506 19.411526
280000000 -32.605114 -38.289135 -33.023609 -37.217148 -2.363966 46.306969 -24.483992 -176.08331
-33.023392 -35.455654 -33.327267 -70.200317 -24.24691 -177.50117 -2.3837361 45.324806
-2.3642824 46.24749 -24.371246 -176.3535 -27.808699 56.690525 -27.313826 49.683857
-24.492411 -175.89894 -2.386095 45.262283 -27.430937 50.146847 -25.634022 49.67651
290000000 -20.034922 28.392113 -18.015911 44.242722 -2.488492 -29.016499 -23.573774 112.02879
-18.051048 44.054859 -19.315561 36.426311 -23.507868 111.90218 -2.5151927 -30.068962
-2.4913242 -29.083843 -23.594557 113.23623 -19.852892 46.917286 -17.204006 44.893349
-23.573212 112.22813 -2.5196939 -30.135199 -17.248194 45.058475 -18.32477 42.346996
300000000 -21.916788 -40.86541 -20.834194 -25.140173 -2.4212694 -104.05273 -24.193542 28.433285
-20.879539 -25.00161 -21.29932 -42.472717 -23.920023 28.574409 -2.4489815 -105.08259
-2.4253459 -104.10072 -24.003246 29.722157 -23.240778 23.587143 -21.557262 8.3422966
-24.185345 28.616276 -2.4520731 -105.13246 -21.63282 8.4820385 -21.519735 19.724422
310000000 -25.359653 64.757988 -21.462233 76.044662 -2.5158567 179.91031 -24.405039 -37.509827
-21.474609 75.684509 -23.924322 79.592155 -24.246738 -37.522163 -2.5460138 178.82222
-2.5202804 179.87109 -24.289703 -36.259579 -20.787798 53.248833 -18.694422 59.11058
-24.386076 -37.392677 -2.5494351 178.77283 -18.707548 59.45298 -19.200512 48.188202
320000000 -19.683529 -6.1165972 -17.113222 7.130722 -2.5590868 105.46012 -23.294214 -120.83076
-17.139887 7.1571054 -18.651833 -3.7162671 -23.136179 -120.16447 -2.6002817 104.46841
-2.5636394 105.44042 -23.153606 -119.26115 -20.357889 20.346846 -17.158918 14.339074
-23.27939 -120.7691 -2.6043036 104.43487 -17.189615 14.531617 -18.48325 17.222361
330000000 -41.623661 8.3665075 -36.350327 43.508343 -2.5201609 29.540682 -24.545168 164.43216
-36.169487 43.688862 -44.522099 -133.617 -24.463192 164.94467 -2.5437758 28.593016
-2.5240867 29.52739 -24.491182 165.79332 -24.184774 56.096828 -23.968697 55.952179
-24.526976 164.49768 -2.5463777 28.564783 -23.970924 56.513046 -22.141369 45.058159
340000000 -19.377472 21.231794 -16.803856 34.021477 -2.6872444 -45.325245 -22.901667 91.061211
-16.818338 33.930874 -18.71669 29.812527 -22.843702 92.879967 -2.7176433 -46.335354
-2.6912768 -45.33709 -22.859362 93.595093 -18.657694 35.547352 -15.900812 33.469944
-22.888315 91.081512 -2.7200813 -46.361889 -15.912175 33.679283 -17.159782 28.605165
350000000 -24.368301 -45.06448 -22.741716 -30.045727 -2.5755026 -120.36426 -23.617123 6.1401772
-22.777481 -29.86409 -23.55698 -46.482456 -23.51778 8.0156498 -2.6016819 -121.30556
-2.5808907 -120.36471 -23.537632 8.8028173 -23.40469 21.172003 -21.986662 7.418323
-23.595783 6.1614342 -2.6034276 -121.33292 -22.035921 7.9023166 -21.405361 15.3263
360000000 -21.969175 49.868004 -18.927074 61.417377 -2.7153516 163.79625 -23.318325 -60.072285
-18.928795 61.29631 -21.36669 61.572243 -23.30172 -57.72781 -2.7540822 162.77455
-2.7196105 163.80936 -23.281174 -57.110657 -19.730143 48.087227 -17.231789 49.370815
-23.309273 -60.142296 -2.7564836 162.75395 -17.203087 49.618404 -18.276964 38.679855
370000000 -19.775475 -13.784887 -17.482759 -3.0271344 -2.7139723 89.624565 -22.216661 -145.05791
-17.499187 -2.9733751 -19.066191 -10.235913 -22.1838 -142.86247 -2.7612512 88.769241
-2.7186253 89.638496 -22.175974 -142.39351 -20.18631 14.185988 -17.398952 5.6498008
-22.209919 -145.06929 -2.7637124 88.752007 -17.406225 5.9012709 -18.633844 7.4913936
380000000 -29.861061 36.302586 -27.293158 65.365677 -2.7044182 13.568227 -23.32276 141.80606
-27.255907 65.184052 -31.477741 50.117634 -23.33428 144.47354 -2.7373302 12.578675
-2.7080672 13.598432 -23.311754 144.89949 -23.932056 50.051643 -21.844578 50.271961
-23.319067 141.72089 -2.7380567 12.560008 -21.763216 50.601387 -22.120094 37.403381
390000000 -18.836349 1.9581745 -16.384045 19.696304 -2.8436141 -61.126743 -21.959568 67.689178
-16.396557 19.682449 -18.099876 7.6765366 -21.909155 70.127449 -2.8999183 -62.097404
-2.8474307 -61.092449 -21.886433 70.457535 -19.126425 34.958656 -16.119144 23.365103
-21.962742 67.670746 -2.9008152 -62.121452 -16.092337 23.519928 -17.737844 26.139647
400000000 -28.725218 -56.042019 -27.884802 -24.385685 -2.7747307 -136.6201 -22.612457 -11.470552
-27.87492 -24.077312 -27.624235 -64.08004 -22.810364 -8.9140387 -2.8149929 -137.54195
-2.776967 -136.56407 -22.780031 -8.6802807 -22.961081 33.660954 -23.307701 22.378637
-22.615517 -11.530804 -2.8151579 -137.56343 -23.220066 22.84276 -20.79388 22.568216
410000000 -20.662355 32.658386 -17.234282 46.258629 -2.9680049 148.22333 -21.509796 -81.215652
-17.234482 46.237274 -20.365486 42.263519 -21.57398 -77.672745 -3.0234566 147.27985
-2.9668941 148.27202 -21.554409 -77.517738 -18.965874 42.592102 -15.914426 39.935043
-21.519304 -81.195328 -3.0247808 147.24835 -15.876545 39.852379 -17.775169 30.905661
420000000 -21.114225 -30.961508 -18.716116 -14.178298 -2.8625121 73.818115 -21.326897 -166.73654
-18.721928 -14.099172 -20.678648 -28.934 -21.433872 -164.90164 -2.8917933 73.016441
-2.8606989 73.868217 -21.417046 -164.75575 -20.928194 20.621595 -18.790855 3.6353464
-21.327188 -166.73376 -2.893815 72.992218 -18.769939 3.8180988 -19.554703 13.707434
430000000 -27.884062 51.578144 -22.58622 66.138962 -2.9828022 -2.0768871 -21.361046 124.75611
-22.576017 66.057182 -28.019627 71.946487 -21.613586 128.30098 -3.0382977 -3.1250796
-2.9780254 -2.0300763 -21.598488 128.40289 -20.63298 43.192234 -18.261528 46.945858
-21.366785 124.77479 -3.0430768 -3.1561627 -18.20294 46.693348 -18.836985 30.164917
440000000 -19.821476 -4.4215412 -16.39835 10.362633 -3.0198946 -76.07692 -20.196238 43.953533
-16.403576 10.398783 -19.265217 0.41682196 -20.21279 46.642914 -3.0981727 -76.941528
-3.0141933 -76.035469 -20.190632 46.674549 -19.590996 24.828621 -16.036791 12.285481
-20.191519 43.952942 -3.1038487 -76.948036 -16.011003 12.20825 -18.234545 13.247904
450000000 -35.20752 12.844073 -30.040272 34.837261 -2.9436758 -152.60428 -21.752525 -29.501511
-29.984665 34.677662 -50.965359 56.916969 -22.209286 -27.478834 -2.9996846 -153.72847
-2.9363256 -152.57449 -22.196192 -27.556211 -23.015177 39.427017 -22.38299 34.422161
-21.760286 -29.550861 -3.0056198 -153.74341 -22.298336 34.12067 -20.270866 25.759089
460000000 -19.061174 16.932318 -15.797787 31.984491 -3.2116776 132.83765 -19.890802 -99.778488
-15.796123 31.998314 -18.558205 29.725527 -20.096413 -95.319786 -3.3262551 131.78014
-3.2063663 132.84819 -20.094692 -95.358109 -18.834766 37.167526 -15.242544 28.502403
-19.892706 -99.773529 -3.3344588 131.79231 -15.23616 28.2701 -17.149874 18.36673
470000000 -23.709507 -41.846836 -20.977852 -20.593464 -2.9706204 57.952099 -20.693068 172.18144
-20.974068 -20.463636 -23.445459 -31.929836 -20.824245 174.73808 -3.006959 57.170494
-2.9673836 57.969662 -20.828346 174.69124 -21.382326 26.213106 -20.197355 4.8923378
-20.703623 172.14549 -3.0110109 57.179592 -20.170874 4.8641162 -20.726101 11.883565
480000000 -22.020061 40.695343 -18.238836 52.975979 -3.2484422 -18.26346 -20.406553 111.6198
-18.233389 52.879189 -21.227785 48.95763 -20.647654 115.46864 -3.3462267 -19.520922
-3.2445538 -18.254175 -20.672434 115.5379 -18.953297 42.337105 -16.142792 41.170937
-20.414036 111.74201 -3.3531442 -19.522295 -16.135193 40.837257 -17.59314 29.245495
490000000 -19.723679 -17.147888 -16.507704 -1.4452716 -3.1605401 -91.589577 -19.216188 23.778498
-16.507242 -1.4170356 -19.217833 -12.239336 -19.252588 26.327732 -3.2457016 -92.209183
-3.1579759 -91.566101 -19.26177 26.351709 -19.278286 25.059307 -16.403713 6.3258114
-19.217327 23.771999 -3.2486808 -92.189606 -16.40168 6.2006593 -18.380779 11.91815
500000000 -28.710554 58.334496 -24.446848 62.788784 -3.1424305 -169.25046 -21.679159 -42.964066
-24.432909 62.435349 -29.002491 78.659775 -22.055685 -40.691963 -3.1942439 -170.59276
-3.1371017 -169.22186 -22.10161 -40.657646 -20.576712 45.572742 -19.539043 44.825657
-21.693277 -42.920879 -3.1965489 -170.61295 -19.524998 44.426781 -18.941751 31.521473
510000000 -17.365299 4.8561187 -14.595369 17.597324 -3.5575447 116.85637 -18.78244 -111.42428
-14.602036 17.631865 -16.630619 11.036983 -18.801079 -107.48295 -3.7161696 115.55649
-3.5509853 116.88161 -18.80575 -107.32327 -17.296154 25.133842 -14.132833 15.55307
-18.778095 -111.42799 -3.7246559 115.56936 -14.147652 15.295707 -15.696262 10.420668
520000000 -24.786472 -54.948853 -23.76778 -31.576584 -3.2143829 42.324734 -19.52668 158.62413
-23.726866 -31.321028 -24.111267 -58.202938 -19.565277 159.97607 -3.2973835 41.317348
-3.2071857 42.343124 -19.591305 160.01096 -21.399897 19.842632 -21.075886 6.511188
-19.539318 158.61618 -3.2994792 41.315208 -21.07342 6.3060217 -19.866257 5.4847665
530000000 -19.667183 28.658907 -15.771621 41.806175 -3.5166676 -34.452152 -19.660294 98.210045
-15.787649 41.791103 -18.797861 38.016747 -19.84181 101.94386 -3.6581125 -35.996117
-3.5099223 -34.451523 -19.854715 102.31368 -18.469324 34.568508 -14.851637 30.616962
-19.656937 98.299583 -3.6694863 -36.006428 -14.880808 30.381062 -16.808716 18.028461
540000000 -19.823109 -34.560329 -16.956137 -16.797003 -3.4140918 -107.27943 -18.329193 10.260396
-16.942549 -16.732737 -18.939583 -32.359772 -18.240877 12.34424 -3.5599046 -108.05688
-3.4093206 -107.28786 -18.252039 12.495018 -19.965202 17.716574 -17.323399 -5.2973742
-18.338661 10.300797 -3.5637782 -108.03584 -17.347805 -5.3516116 -18.583447 -1.0554338
550000000 -25.568701 55.195423 -20.594673 62.150215 -3.3676836 174.86057 -20.647564 -59.084366
-20.622137 61.892982 -25.836229 75.840111 -20.971903 -57.009743 -3.4441855 173.4901
-3.3625393 174.85406 -21.018478 -56.651562 -19.830671 42.192318 -17.609056 43.361958
-20.654324 -58.911358 -3.4509649 173.45969 -17.632723 43.167313 -18.53488 22.826393
560000000 -17.288206 -7.4983106 -14.156581 5.9537616 -3.7141597 101.10282 -18.445082 -129.89854
-14.160015 5.9886999 -16.594692 -1.3913636 -18.341202 -126.01258 -3.886375 99.610794
-3.7099597 101.08678 -18.344042 -125.68571 -17.630035 17.8479 -14.102039 4.514235
