!Keysight Technologies,N5231B,MY57181281,A.17.25.05
!Automatic Fixture Removal (AFR)
!Date: Friday, March 07, 2025, 04:12:55
!S2P File: Measurements: S11,S21,S12,S22:
# MHz S  RI   R 50
10           0.00016580512792208      -0.000526265662740476    0.998318570724568        -0.0186281714635545      0.998318570724569        -0.0186281714635545      0.00388266284063915      0.000582904165258728    
20           0.000114973247260995     -0.00103933358706228     0.996865173820884        -0.0367684977970556      0.996865173820884        -0.0367684977970556      0.00260063319373253      -1.3468645719419E-05    
30           5.58839115232433E-05     -0.00153581030297931     0.995485521287739        -0.0542593349605966      0.99548552128774         -0.0542593349605966      0.00296894999235461      0.00112015466463343     
40           -7.23606048545991E-06    -0.00203300353860964     0.994364910170157        -0.0718213632203055      0.994364910170157        -0.0718213632203055      0.00354593281264271      0.00184841625453164     
50           -8.85092060313111E-05    -0.00253120225732191     0.992915685018809        -0.0895175114960795      0.992915685018809        -0.0895175114960795      0.00374382320603781      0.000641332250811157    
60           -0.000191301653342609    -0.00302965071914967     0.991007953496925        -0.107337209984763       0.991007953496925        -0.107337209984763       0.00446878126756268      -1.80212789091175E-05   
70           -0.000312942896035421    -0.0035140876605155      0.988682164996862        -0.124702720470388       0.988682164996862        -0.124702720470388       0.00523491999205688      -0.00017760638792681    
80           -0.000458121274221878    -0.00400411847864497     0.98583331659778         -0.14248458372223        0.985833316597781        -0.14248458372223        0.00546452437075591      -0.000905841406269483   
90           -0.000620196902233555    -0.00448233230358052     0.982644703246792        -0.159947614723679       0.982644703246792        -0.15994761472368        0.00578305220508986      -0.0017340544026831     
100          -0.000793153853577005    -0.00495415050571883     0.979389321675656        -0.177289149293945       0.979389321675656        -0.177289149293945       0.00646612079089853      -0.00224247509712333    
110          -0.000979733064673967    -0.00541906515926861     0.975940780674889        -0.194517037198218       0.975940780674889        -0.194517037198218       0.00695703418619212      -0.00246726041144499    
120          -0.00118145173658595     -0.005877857748221       0.972236178251619        -0.211690392619489       0.97223617825162         -0.211690392619489       0.00695368462314276      -0.00256919552882558    
130          -0.00139945452440624     -0.0063281728130541      0.968204890597004        -0.228741843313288       0.968204890597004        -0.228741843313288       0.00673578974198138      -0.0027273583069024     
140          -0.00163291824247642     -0.00676211695311075     0.963793457022015        -0.245364226374187       0.963793457022015        -0.245364226374187       0.00654871825644048      -0.00316501574068712    
150          -0.00189081480051886     -0.00720555327236715     0.958902288780343        -0.262723863104036       0.958902288780343        -0.262723863104036       0.00632940860055072      -0.00373692090277168    
160          -0.00215136476898589     -0.00762721515522054     0.954079164109367        -0.279334953091986       0.954079164109367        -0.279334953091986       0.00625409722995096      -0.00440235343898864    
170          -0.00242703945069284     -0.00804556571012331     0.949015529027266        -0.296091801719523       0.949015529027266        -0.296091801719523       0.00630584633318483      -0.00518840898844473    
180          -0.0027256212387246      -0.00845904801958663     0.943387656468685        -0.31305038014213        0.943387656468685        -0.31305038014213        0.00627362034184076      -0.00613875955296848    
190          -0.00303741773321414     -0.00885061710952276     0.93735345778841         -0.329434020056332       0.93735345778841         -0.329434020056332       0.00623668728711223      -0.00710892017218188    
200          -0.00335956352981348     -0.00923398877314047     0.93119486653163         -0.345764475903906       0.93119486653163         -0.345764475903906       0.00614404214750179      -0.00808460376951337    
210          -0.00369329545955348     -0.00960501068056083     0.924798062462496        -0.361907082345879       0.924798062462496        -0.361907082345879       0.00611244657463322      -0.00888296241468371    
220          -0.00404230951532106     -0.00996803807457154     0.918078413230925        -0.378104694245482       0.918078413230925        -0.378104694245482       0.00597814018806277      -0.00944886675966145    
230          -0.0044027180779303      -0.0103192494893709      0.911125962720853        -0.394165206984762       0.911125962720854        -0.394165206984762       0.00590500627293948      -0.00970421278697637    
240          -0.00477530691892534     -0.0106572114093354      0.903877971270769        -0.410063952102351       0.903877971270769        -0.410063952102351       0.00588893485488674      -0.00985677029846718    
250          -0.00515987666745142     -0.0109822203742224      0.89633823765009         -0.42582791328239        0.89633823765009         -0.42582791328239        0.00592313943430134      -0.0100375634434238     
260          -0.00555662934257202     -0.0112925266787714      0.888458108588235        -0.44141358491531        0.888458108588235        -0.44141358491531        0.00587500609477996      -0.0103390156196466     
270          -0.0059618075441757      -0.0115898244393796      0.880400284241516        -0.456832786839529       0.880400284241516        -0.456832786839529       0.00572889205639321      -0.0108630612177176     
280          -0.00637695750057006     -0.0118730112044698      0.872076717380331        -0.472087757609985       0.872076717380331        -0.472087757609985       0.00553031208131104      -0.0115586773907314     
290          -0.00680447460299938     -0.0121431622340332      0.86341217586117         -0.487283878974744       0.86341217586117         -0.487283878974744       0.0051571139535692       -0.0124439996003373     
300          -0.0072345781184149      -0.0123954324088633      0.854655786813998        -0.502057200079188       0.854655786813998        -0.502057200079188       0.00473094425532234      -0.0132696964712038     
310          -0.00767415961917652     -0.0126410130190211      0.84578320185673         -0.516967830001884       0.84578320185673         -0.516967830001884       0.00426186028229024      -0.0139945035499433     
320          -0.00812876070183871     -0.0128707921083528      0.836400113353317        -0.531826110028311       0.836400113353317        -0.531826110028312       0.00384674260701319      -0.0145290424359662     
330          -0.00859155665742273     -0.0130827797936013      0.826697544211203        -0.546434316635407       0.826697544211203        -0.546434316635407       0.003579612256138        -0.0148372314798981     
340          -0.00906040100958048     -0.0132761349268488      0.81671600218315         -0.560732670149734       0.81671600218315         -0.560732670149735       0.00345292221500386      -0.0149869969768721     
350          -0.0095341926414383      -0.0134555849264984      0.806591264888941        -0.57487485122747        0.806591264888942        -0.57487485122747        0.00348333517978767      -0.0151231831394972     
360          -0.0100131752045284      -0.0136187762508885      0.7962465700026          -0.588797265339101       0.7962465700026          -0.588797265339101       0.00349982542281978      -0.0152350204104898     
370          -0.0104980480309487      -0.0137668643139189      0.785675214458342        -0.602571299545762       0.785675214458343        -0.602571299545762       0.00342988860425466      -0.0154527982099445     
380          -0.0109883420691234      -0.0138984521259409      0.774847523656432        -0.616153165852421       0.774847523656432        -0.616153165852422       0.00322488543463398      -0.0157544462070312     
390          -0.0114829594957108      -0.0140144391705672      0.763812329096473        -0.62955901685732        0.763812329096473        -0.62955901685732        0.0028510754177078       -0.0161555811493586     
400          -0.0119816508989744      -0.0141131668171637      0.752522671754769        -0.642742149834286       0.752522671754769        -0.642742149834286       0.00227869003582272      -0.0165554654796671     
410          -0.0124843480973567      -0.0141957085853215      0.740998978419554        -0.655751277163011       0.740998978419554        -0.655751277163011       0.00163459481492309      -0.0169472277035383     
420          -0.012990055904303       -0.0142599194092042      0.72920184196728         -0.668506823001115       0.729201841967281        -0.668506823001115       0.000988219493830167     -0.0172804633202004     
430          -0.0134960825559918      -0.0143067979758164      0.71722872421834         -0.680978727132571       0.717228724218341        -0.680978727132571       0.000383435744353588     -0.0175283942369423     
440          -0.0140041014179885      -0.0143387351334966      0.705084586125952        -0.693301140949954       0.705084586125953        -0.693301140949954       -6.95590678629434E-05    -0.0177327293646894     
450          -0.0145127163557466      -0.0143544414707543      0.692762780968581        -0.705405763855093       0.692762780968581        -0.705405763855093       -0.000454263834549992    -0.0179153726077934     
460          -0.0150221097420355      -0.0143528764838678      0.680214026782179        -0.71728059347945        0.680214026782179        -0.717280593479451       -0.000735005990643672    -0.0181005950860913     
470          -0.0155328630734786      -0.0143357981475012      0.667462537690078        -0.729008184839705       0.667462537690079        -0.729008184839705       -0.00108504595600879     -0.0183548775577997     
480          -0.0160442032501228      -0.0143004106699051      0.654432997231991        -0.740499387216488       0.654432997231991        -0.740499387216489       -0.00154264466710796     -0.0186649658157957     
490          -0.0165526610556219      -0.0142481705575552      0.641254507478362        -0.751699872983635       0.641254507478362        -0.751699872983635       -0.00209986965681599     -0.0188885717527923     
500          -0.0170594850352052      -0.0141792734112644      0.627883909654161        -0.762666609219018       0.627883909654161        -0.762666609219019       -0.00271879010967363     -0.0190454624495382     
510          -0.0175646536414176      -0.0140940705631521      0.614320551137005        -0.773421407143447       0.614320551137005        -0.773421407143448       -0.00333532809179055     -0.0191201194475627     
520          -0.0180677424438552      -0.0139928525714686      0.600573003355255        -0.783970825086623       0.600573003355255        -0.783970825086624       -0.00392715226214689     -0.0191329631176374     
530          -0.0185673622454118      -0.0138746736517125      0.586632346874255        -0.794257015009225       0.586632346874255        -0.794257015009225       -0.00444754832861533     -0.0191031397542084     
540          -0.0190622820899343      -0.0137393290680388      0.57250645993337         -0.80424608859578        0.57250645993337         -0.804246088595781       -0.00490397190709787     -0.0191036667746686     
550          -0.0195522701039726      -0.0135883657436054      0.558237789767317        -0.813979915934686       0.558237789767317        -0.813979915934687       -0.00528073013517952     -0.019193658593905      
560          -0.0200373397295408      -0.0134220357903622      0.543819875193156        -0.823474756714433       0.543819875193157        -0.823474756714434       -0.00569470838712447     -0.0193943346195126     
570          -0.0205159540580831      -0.0132410158002616      0.529298118033642        -0.832701420410661       0.529298118033642        -0.832701420410661       -0.00620290553868439     -0.0196455277043459     
580          -0.0209888418230696      -0.0130441692632117      0.514600838282202        -0.841668957880032       0.514600838282202        -0.841668957880032       -0.00684000150642197     -0.019840804557366      
590          -0.0214557043608949      -0.0128332381732109      0.499783211672426        -0.850416272051012       0.499783211672426        -0.850416272051012       -0.00755881597391862     -0.0200194991084696     
600          -0.0219160531272953      -0.0126075852837498      0.484820234394706        -0.858920675394937       0.484820234394707        -0.858920675394937       -0.00839061889385884     -0.0199902743810494     
610          -0.0223707676449364      -0.0123668229197724      0.469665780779335        -0.867218711373712       0.469665780779336        -0.867218711373713       -0.00920917589198275     -0.0198826634224402     
620          -0.0228173458810484      -0.0121095663204962      0.454305093945593        -0.875202695094897       0.454305093945593        -0.875202695094897       -0.00998910786404801     -0.0196436682668157     
630          -0.0232545744169418      -0.0118379986763888      0.438825425635934        -0.882882597441263       0.438825425635934        -0.882882597441263       -0.01064010796014        -0.0194129392732398     
640          -0.0236824964031816      -0.0115520319503254      0.423205130035808        -0.89026811831487        0.423205130035809        -0.89026811831487        -0.0111163004790561      -0.019248430225548      
650          -0.0240998352605631      -0.0112542826695337      0.407549941801766        -0.897366247907025       0.407549941801767        -0.897366247907025       -0.0114410045524747      -0.0192129995357338     
660          -0.0245089216756736      -0.0109423742295933      0.391711486647853        -0.904231553697033       0.391711486647853        -0.904231553697033       -0.0117380273583238      -0.0193471470631617     
670          -0.024907405276649       -0.0106184184270953      0.375797114150156        -0.910817724083211       0.375797114150156        -0.910817724083211       -0.0121280336326718      -0.0195164783247313     
680          -0.0252950936628262      -0.0102813228389208      0.359751392200596        -0.917107167764984       0.359751392200596        -0.917107167764984       -0.0125796840222652      -0.0196358466745991     
690          -0.0256718394664286      -0.00993249040555743     0.343615236540675        -0.923124104070934       0.343615236540675        -0.923124104070934       -0.0131677917495069      -0.0196757880629135     
700          -0.0260374168065952      -0.00957074168367406     0.327329673721821        -0.928850535903136       0.327329673721821        -0.928850535903136       -0.0138755586718283      -0.0195579388907349     
710          -0.0263911689191203      -0.00919704117944906     0.310925902499531        -0.93428407350831        0.310925902499532        -0.93428407350831        -0.0146487272243163      -0.0192557804811409     
720          -0.0267307319099391      -0.00881145093373848     0.294419142557964        -0.939339746597527       0.294419142557964        -0.939339746597527       -0.0154351226559775      -0.0188658788621724     
730          -0.0270567581834899      -0.00841659605404773     0.277886224989621        -0.944084409105301       0.277886224989621        -0.944084409105301       -0.0161555064618245      -0.0185162820663058     
740          -0.0273705360989777      -0.00801331597430059     0.261328849753853        -0.948584371066516       0.261328849753853        -0.948584371066516       -0.0167930975957377      -0.018238211787341      
750          -0.027672339720381       -0.00760139666486004     0.244720417750922        -0.952852579855398       0.244720417750922        -0.952852579855399       -0.0173797402208267      -0.0181120332132764     
760          -0.0279605830804985      -0.00718039942117318     0.228044788996611        -0.956824792057221       0.228044788996611        -0.956824792057221       -0.0179138984123116      -0.0181255097300597     
770          -0.0282368982721088      -0.00675078196835906     0.2112890594807          -0.960578187642379       0.2112890594807          -0.960578187642379       -0.0185177048958327      -0.0182319209947191     
780          -0.0284989974285922      -0.00631287457716172     0.194473597730789        -0.964027843364191       0.194473597730789        -0.964027843364191       -0.019120300149441       -0.0183662813454411     
790          -0.0287457349515967      -0.00586628289319783     0.177574094279735        -0.967128990552248       0.177574094279735        -0.967128990552249       -0.0197002101708763      -0.0183876632313711     
800          -0.0289770456286255      -0.00541326551807098     0.160665827651777        -0.969901947549673       0.160665827651777        -0.969901947549673       -0.0202402103808321      -0.0182460373820328     
810          -0.0291934497128723      -0.00495326361814536     0.14370347965492         -0.97236883604702        0.14370347965492         -0.97236883604702        -0.020665201648375       -0.0179197591584721     
820          -0.0293956643592951      -0.00448775999713269     0.126727541393429        -0.974573740417182       0.126727541393429        -0.974573740417182       -0.0209581087342427      -0.0174362454657265     
830          -0.0295829979799102      -0.00401616541720257     0.109700246909746        -0.976488161335213       0.109700246909746        -0.976488161335213       -0.0211560491114045      -0.0169172578337086     
840          -0.0297553016251653      -0.00353947187843446     0.09264680670191         -0.978114732437181       0.09264680670191         -0.978114732437182       -0.0213519961746971      -0.0164005040717616     
850          -0.029914666818706       -0.00305792040258509     0.0755528942431481       -0.979546357594978       0.0755528942431481       -0.979546357594978       -0.0216236215223365      -0.0160256268773834     
860          -0.0300571661834149      -0.00257149645774598     0.0584161598160667       -0.980621531142869       0.0584161598160667       -0.98062153114287        -0.0219723707869385      -0.0157486807888012     
870          -0.0301834577667203      -0.00208048463882327     0.041227091483812        -0.981372727173837       0.041227091483812        -0.981372727173837       -0.0225552875592891      -0.0155576437618565     
880          -0.0302932709317804      -0.00158732052131023     0.0240713560282782       -0.981797547621635       0.0240713560282782       -0.981797547621635       -0.0231872360226339      -0.0153199651152819     
890          -0.0303871448546396      -0.00109232859433197     0.00694363417930173      -0.981920491275626       0.00694363417930173      -0.981920491275626       -0.0237796798715437      -0.0150270941918786     
900          -0.0304651344356841      -0.000595841864621952    -0.0101595084591515      -0.981744902797776       -0.0101595084591515      -0.981744902797776       -0.0243497889506364      -0.0146546972788785     
910          -0.0305274610734792      -9.67794324700911E-05    -0.0273014058263665      -0.981283974101645       -0.0273014058263665      -0.981283974101645       -0.0247098043717929      -0.0142347608953033     
920          -0.0305728735576899      0.000402447979629158     -0.0443993244657804      -0.980484649445789       -0.0443993244657804      -0.980484649445789       -0.0248805879803261      -0.0137820603505589     
930          -0.0306027866216048      0.000902535374327804     -0.0614993708773568      -0.979408804316852       -0.0614993708773568      -0.979408804316852       -0.0248972447314378      -0.0134044517593829     
