!Keysight Technologies,N5231B,MY57181281,A.17.25.05
!Date: Friday, March 07, 2025 16:16:51
!Correction: S11(C  4-Port  ) 
!S12(C  4-Port  ) 
!S13(C  4-Port  ) 
!S14(C  4-Port  ) 
!S21(C  4-Port  ) 
!S22(C  4-Port  ) 
!S23(C  4-Port  ) 
!S24(C  4-Port  ) 
!S31(C  4-Port  ) 
!S32(C  4-Port  ) 
!S33(C  4-Port  ) 
!S34(C  4-Port  ) 
!S41(C  4-Port  ) 
!S42(C  4-Port  ) 
!S43(C  4-Port  ) 
!S44(C  4-Port  ) 
!S4P File: Measurements: <S11,S12,S13,S14>,
!<S21,S22,S23,S24>,
!<S31,S32,S33,S34>,
!<S41,S42,S43,S44>:
# Hz S  dB   R 50
10000000 -22.497662 23.859653 -25.170376 40.251751 -0.51501566 -42.003571 -27.473906 -177.55443
-25.175014 40.172668 -22.386751 24.888487 -27.598269 -177.72221 -0.50874144 -42.017651
-0.51599038 -42.063335 -27.421572 -177.10007 -20.604942 23.175674 -22.82596 35.261265
-27.384588 -177.2562 -0.5103628 -42.046238 -22.756868 34.496933 -20.582186 24.07892
20000000 -20.907484 3.6735301 -22.021595 19.737844 -0.89781815 -81.425316 -23.458405 120.57736
-22.011465 19.762962 -20.733818 4.9890532 -23.46575 122.20107 -0.8921833 -81.360664
-0.9058606 -81.258781 -23.462717 119.94871 -21.449614 -27.769131 -23.72014 -17.235806
-23.462492 119.42646 -0.89753741 -81.295982 -23.962368 -18.500519 -21.085503 -25.580528
30000000 -20.925978 -27.314821 -21.398409 -17.284821 -0.99829477 -117.23389 -22.867472 35.376801
-21.404127 -17.275341 -20.665108 -25.813541 -22.706125 35.29179 -0.98577183 -117.32909
-0.98135787 -117.35893 -22.976696 36.00658 -23.49729 -9.4343872 -23.887339 2.9441125
-23.00267 35.770424 -0.98038709 -117.38309 -23.535202 2.9806137 -23.48403 -11.342656
40000000 -29.825256 -49.481762 -30.234125 -43.881611 -0.64101446 -157.07968 -29.540972 -27.650267
-30.220192 -43.694759 -29.352442 -48.655117 -29.50074 -27.849403 -0.63524687 -157.07397
-0.64213157 -157.09625 -29.546673 -27.15522 -30.136124 -37.849869 -30.28112 -30.500465
-29.557503 -27.275928 -0.6369428 -157.09328 -30.319372 -31.324446 -29.776188 -40.06007
50000000 -27.496035 29.862179 -28.691275 38.480518 -0.67755818 162.22893 -34.013638 -26.187988
-28.685034 38.821648 -27.594028 31.16938 -34.191017 -25.791487 -0.66717809 162.23645
-0.68399882 162.25952 -33.704735 -26.941345 -28.197138 36.690079 -28.955296 42.048172
-33.763416 -26.752752 -0.67412424 162.25523 -28.973557 42.617958 -28.177584 36.612736
60000000 -22.849115 12.706433 -23.596333 23.274403 -0.84297276 122.01048 -29.341606 -34.662392
-23.598763 23.208788 -22.743797 15.830519 -29.363914 -34.339005 -0.82331997 121.91751
-0.83934677 122.00238 -29.389494 -33.975544 -23.028044 20.663946 -23.567841 26.848959
-29.350668 -34.489971 -0.82156307 121.90595 -23.579237 26.98234 -22.771639 20.129242
70000000 -24.313099 -3.8118193 -24.667257 8.6974106 -1.0309556 82.847328 -26.361471 -82.042862
-24.664394 8.6847544 -24.063896 0.099134602 -26.380169 -81.545746 -1.018008 82.668892
-1.0279495 82.84462 -26.38303 -81.5644 -24.544992 -3.022665 -25.218601 4.1699147
-26.364513 -82.105873 -1.0186024 82.660454 -25.175106 4.131969 -24.355282 -4.6729236
80000000 -24.831074 4.199379 -24.522831 12.466469 -1.2239269 44.547218 -24.114864 -137.64088
-24.537863 12.464764 -24.248634 7.6152625 -24.123238 -137.03279 -1.2290679 44.345642
-1.2195884 44.550171 -24.130991 -137.21513 -26.499479 15.218584 -26.478533 22.945459
-24.124529 -137.75851 -1.2295145 44.345425 -26.500214 22.856487 -26.498222 14.514755
90000000 -27.940077 11.484376 -28.4429 19.202707 -1.0287015 6.2879853 -27.53466 160.23453
-28.392059 19.011192 -27.34403 11.358883 -27.47753 160.82939 -1.0341463 6.2226377
-1.0210865 6.2672315 -27.64777 160.7731 -27.712322 21.328764 -27.963482 28.433823
-27.604574 160.24695 -1.0290927 6.2057114 -27.929646 28.245319 -27.713772 20.523983
100000000 -23.030592 17.019552 -23.466219 25.568922 -1.04189 -33.676682 -28.903641 137.00238
-23.482615 25.785698 -22.961054 18.257698 -29.056051 137.11766 -1.0409392 -33.740292
-1.0519367 -33.671043 -28.710178 137.38525 -24.450544 24.834793 -24.518181 30.338993
-28.73052 137.13864 -1.0513505 -33.744156 -24.544258 30.695475 -24.221004 24.199055
110000000 -22.836821 3.3776715 -23.181128 13.385689 -1.1143477 -73.751411 -28.249153 119.41273
-23.156401 13.290153 -22.909756 7.1598454 -28.249434 120.86671 -1.0952954 -73.878799
-1.1053168 -73.701241 -28.488432 119.89713 -24.566742 20.952637 -24.645685 25.753139
-28.364487 118.92366 -1.0903165 -73.850571 -24.637272 25.555544 -24.38269 19.202541
120000000 -25.146795 -4.2740521 -25.382374 5.8196325 -1.3409044 -112.94646 -24.762543 77.867104
-25.379145 5.7981048 -25.024855 2.2135224 -24.720865 78.555 -1.3297945 -113.2558
-1.3347545 -112.96279 -24.784758 78.935898 -24.782064 28.294775 -25.087891 33.067287
-24.790627 78.023392 -1.3275582 -113.27705 -25.063053 33.069702 -25.005447 27.196569
130000000 -25.602009 14.928979 -25.702301 23.936819 -1.4504369 -150.88956 -23.603825 22.091835
-25.713327 23.954702 -24.781364 20.314219 -23.62064 22.555992 -1.4727223 -151.23772
-1.4510114 -150.89949 -23.580517 22.741854 -23.220688 26.237148 -23.30905 32.586117
-23.594103 22.162718 -1.4746732 -151.25398 -23.342932 32.48563 -23.023895 28.150354
140000000 -23.228628 25.558781 -23.318867 34.829472 -1.331689 170.24059 -25.651527 -24.64465
-23.317472 34.682762 -22.692932 27.115997 -25.630821 -24.187166 -1.3566383 170.04942
-1.3264067 170.20183 -25.746037 -23.676229 -23.285872 29.400156 -22.892094 34.899536
-25.704506 -24.387609 -1.3549889 170.01085 -22.893963 34.709351 -22.721607 28.923027
150000000 -21.258396 3.9391489 -21.499739 12.749834 -1.3135275 130.74841 -26.771698 -59.020287
-21.513206 12.912877 -21.094969 6.4811707 -26.871998 -58.672268 -1.330893 130.60136
-1.3244359 130.74606 -26.593697 -58.192852 -22.787844 19.153093 -22.313145 20.834728
-26.628328 -58.71014 -1.3435446 130.59138 -22.330118 21.1276 -22.193933 15.91568
160000000 -24.91028 -11.56356 -25.356268 0.46429795 -1.3506205 90.55555 -26.829899 -77.454689
-25.316687 0.44202119 -25.066847 -5.517601 -26.881813 -76.46006 -1.3466493 90.356476
-1.3487329 90.628746 -26.950142 -78.125725 -25.187027 23.844032 -25.341026 23.180368
-26.8603 -78.363014 -1.3476765 90.423897 -25.292957 22.950289 -25.227596 18.251921
170000000 -26.426949 27.015717 -25.929808 38.465302 -1.6553786 50.898365 -22.647215 -113.73382
-25.939667 38.455948 -25.482037 34.197178 -22.66836 -113.02725 -1.6592996 50.452316
-1.6510907 50.896778 -22.708233 -112.98257 -22.786106 46.087639 -23.109426 51.168152
-22.664042 -113.71358 -1.655153 50.466633 -23.124916 51.171715 -23.026987 46.492027
180000000 -22.125711 21.811367 -22.057404 31.434942 -1.8282645 13.924006 -21.171244 -175.22757
-22.053736 31.448854 -21.299685 25.288963 -21.201574 -174.57709 -1.8748153 13.506584
-1.829383 13.930067 -21.211735 -174.67653 -20.186029 25.969322 -20.074331 32.406509
-21.177677 -175.28209 -1.8711079 13.483635 -20.071466 32.427818 -19.837103 27.007549
190000000 -21.071733 16.814636 -20.900379 27.076857 -1.5908828 -24.692133 -23.865763 134.52831
-20.906267 27.005724 -20.58622 17.981321 -23.860382 134.95117 -1.6279944 -24.894991
-1.5850914 -24.707628 -23.93235 135.39931 -21.520039 21.512394 -20.740374 27.161135
-23.893284 134.73401 -1.6269408 -24.937128 -20.755421 26.961319 -20.901405 20.270748
200000000 -20.84157 -8.3496923 -20.946383 1.2341094 -1.5154896 -64.454887 -25.8216 101.69112
-20.950945 1.4021382 -20.703653 -6.1723151 -25.916943 102.20007 -1.5364259 -64.640244
-1.5254356 -64.440453 -25.678152 102.33206 -22.208057 12.663778 -21.409222 13.550256
-25.695293 101.71416 -1.5477641 -64.644676 -21.422148 13.81663 -21.602879 8.6814032
210000000 -27.172235 -20.143322 -27.863092 -5.8432455 -1.5702239 -104.95709 -25.710358 86.487823
-27.815145 -6.0235133 -27.385031 -13.429757 -25.696533 87.35524 -1.5628366 -105.257
-1.5650582 -104.88661 -25.803703 86.095177 -24.828766 21.633259 -25.141457 20.808628
-25.759954 85.85334 -1.561874 -105.20562 -25.099625 20.617439 -25.030018 16.265314
220000000 -25.263628 53.998646 -24.362068 65.242439 -1.827566 -144.5195 -22.453291 50.383808
-24.364532 65.26384 -24.372919 57.19466 -22.485426 50.890797 -1.826424 -145.05232
-1.8241961 -144.52058 -22.50901 50.943306 -22.166679 46.749592 -22.171158 54.750908
-22.463175 50.380173 -1.8257886 -145.05823 -22.175325 54.678761 -22.254551 48.554985
230000000 -18.787737 32.317142 -18.449772 41.598705 -2.0731406 177.44994 -20.483532 -0.27447039
-18.448929 41.612362 -18.245356 34.839108 -20.524784 0.4565801 -2.1066813 176.75484
-2.0719044 177.4575 -20.521673 0.41103894 -18.720531 30.7409 -18.099478 37.095825
-20.482832 -0.29328442 -2.1072087 176.75403 -18.105677 37.119743 -18.184877 31.441044
240000000 -18.567535 3.5160928 -18.430418 12.663236 -1.9387314 140.23843 -21.504213 -57.956554
-18.428976 12.635134 -18.102491 4.9293909 -21.486898 -56.977772 -2.0040452 139.7524
-1.9354063 140.23532 -21.51292 -56.918591 -19.720926 10.836769 -18.756454 14.261713
-21.508314 -57.955658 -2.0031831 139.74933 -18.758186 14.174276 -18.932522 8.2107668
250000000 -20.773689 -20.56316 -20.992798 -12.377999 -1.7469465 100.34589 -24.358309 -93.031464
-20.993872 -12.220966 -20.641506 -19.245951 -24.297905 -92.514709 -1.789374 100.00231
-1.7564634 100.3867 -24.11034 -92.660599 -22.096146 0.47370937 -21.450542 -2.1251149
-24.259275 -93.119148 -1.7994784 100.01522 -21.446274 -1.881308 -21.620653 -6.4390106
260000000 -30.878492 -3.9420514 -32.222469 17.332745 -1.8142251 59.533424 -23.923819 -107.85966
-32.218506 17.16774 -31.491484 4.0606513 -23.944031 -108.03417 -1.8326283 59.057014
-1.8096336 59.563751 -23.996244 -108.33907 -26.913647 24.377468 -28.598429 27.618092
-23.953405 -108.00342 -1.8313659 59.070278 -28.609434 27.42939 -28.29352 20.431309
270000000 -21.105709 50.858006 -20.37925 62.79211 -2.0583398 19.907024 -21.36496 -144.36307
-20.374866 62.812012 -20.476919 55.503925 -21.481913 -143.68306 -2.0631239 19.235851
-2.0566604 19.929434 -21.497484 -143.84802 -20.647026 50.00687 -19.916792 59.460491
-21.372419 -144.44469 -2.0640645 19.243118 -19.927254 59.434093 -20.199516 53.297825
280000000 -16.978981 22.431927 -16.505672 33.272453 -2.2932472 -17.926416 -19.796324 164.57858
-16.499697 33.277596 -16.451588 26.829189 -19.839634 165.75758 -2.3336129 -18.742861
-2.2926683 -17.897997 -19.838907 165.53505 -17.706383 28.40513 -16.491362 33.784584
-19.794075 164.49158 -2.3351252 -18.730177 -16.495352 33.830982 -16.840975 28.595461
290000000 -17.184019 -9.5969858 -16.825583 1.0597383 -2.2142138 -55.237423 -20.395535 111.20209
-16.821968 1.0353332 -16.603178 -5.4334879 -20.326988 112.59254 -2.2852483 -55.973423
-2.2119823 -55.222927 -20.343904 112.49194 -18.926043 2.020741 -17.377018 3.7893121
-20.396072 111.11704 -2.286195 -55.964752 -17.376797 3.7277696 -17.715742 -0.8587665
300000000 -21.375118 -36.712715 -21.340801 -26.288717 -1.9714614 -94.904305 -23.146425 74.230049
-21.339872 -26.248138 -20.878714 -33.412273 -22.939163 74.412361 -2.0368924 -95.461456
-1.9702833 -94.880692 -22.932451 74.211891 -24.23712 -8.4479408 -22.810211 -16.688719
-23.151443 74.110107 -2.0375304 -95.45369 -22.808208 -16.684443 -22.980938 -20.710342
310000000 -33.654327 36.785133 -31.561846 60.745647 -2.0162747 -135.28055 -23.044619 50.216076
-31.539816 60.708477 -32.952621 47.005886 -23.11895 49.491669 -2.0484972 -135.74016
-2.0161784 -135.25363 -23.106319 49.208008 -25.126781 59.47509 -25.942692 70.564156
-23.040411 50.116493 -2.0508587 -135.72905 -25.948526 70.498253 -26.13796 65.537216
320000000 -19.333731 45.447208 -18.43425 56.176075 -2.2371275 -175.17821 -20.939083 17.902771
-18.429176 56.159264 -18.654551 50.142948 -21.056606 18.889322 -2.2491634 -175.97037
-2.2341909 -175.15704 -21.076803 18.781378 -18.872313 49.300415 -17.906593 56.80439
-20.945629 17.852055 -2.2496338 -175.96353 -17.909109 56.81102 -18.244612 50.860466
330000000 -16.11433 14.851567 -15.467041 25.298494 -2.4234028 146.869 -19.785215 -30.99641
-15.460461 25.289438 -15.446212 20.047007 -19.797426 -29.482805 -2.4665649 145.94115
-2.4217465 146.90421 -19.804104 -29.703072 -16.719639 24.391388 -15.399173 28.323942
-19.785057 -31.103712 -2.4680071 145.95877 -15.398175 28.341797 -15.721273 23.620888
340000000 -16.532063 -17.506872 -16.094282 -7.8610611 -2.3384082 109.03336 -20.547386 -79.695572
-16.092489 -7.8890967 -15.732399 -12.142147 -20.408134 -78.131355 -2.4101491 108.13538
-2.3330946 109.04031 -20.439447 -78.087029 -18.214108 -3.5422752 -16.74502 -3.2576921
-20.568125 -79.719315 -2.4088516 108.13569 -16.752743 -3.297251 -16.761213 -7.0245605
350000000 -22.080486 -46.797501 -22.463045 -38.11129 -2.1605804 69.586525 -22.470152 -117.62926
-22.458241 -38.10804 -21.239702 -40.705475 -22.206093 -117.14294 -2.2309361 69.060211
-2.1577723 69.598343 -22.221466 -117.1784 -26.573755 -18.928818 -25.703875 -30.93331
-22.480719 -117.63335 -2.2307646 69.064537 -25.705828 -30.960217 -24.471842 -37.386024
360000000 -28.038414 54.108051 -26.09281 74.213593 -2.2046311 29.139902 -22.282927 -141.63019
-26.073229 74.139145 -27.557482 52.935482 -22.313625 -142.18585 -2.2261443 28.546265
-2.2024748 29.162121 -22.314495 -142.32939 -22.734568 63.753723 -22.109585 75.857666
-22.283873 -141.65013 -2.2275782 28.554689 -22.107445 75.856003 -23.559923 67.147461
370000000 -17.771177 33.045528 -16.810427 45.843639 -2.443218 -10.139132 -20.327164 179.67401
-16.807983 45.823517 -17.258654 36.451122 -20.398821 -179.26122 -2.4553068 -11.03717
-2.4406626 -10.123101 -20.414661 -179.31451 -17.614943 43.584721 -16.131062 49.658886
-20.332314 179.6586 -2.4554918 -11.028355 -16.129358 49.64135 -17.144667 43.681995
380000000 -15.608257 3.1065617 -14.845294 14.776054 -2.5338416 -48.040165 -19.921738 131.70796
-14.844316 14.749952 -15.037961 7.8214254 -19.881298 133.38515 -2.569937 -49.043427
-2.5311716 -48.032665 -19.898859 133.40578 -16.458771 18.108742 -14.76642 19.865189
-19.930319 131.72432 -2.568567 -49.043678 -14.765643 19.847107 -15.579531 15.946875
390000000 -16.75808 -29.968637 -16.284925 -19.086691 -2.3902512 -86.21608 -21.199181 85.146698
-16.284903 -19.074591 -16.050425 -23.730202 -21.005791 86.999054 -2.4426858 -87.159546
-2.3895478 -86.195412 -21.01457 86.951248 -19.063789 -7.5088592 -17.321394 -11.016159
-21.20302 85.142616 -2.4416888 -87.156555 -17.318335 -11.049804 -17.727276 -13.628874
400000000 -24.271629 -61.128799 -24.867247 -50.357525 -2.3031211 -126.48289 -22.350756 57.768524
-24.851412 -50.328838 -22.938061 -52.146786 -22.025896 58.135983 -2.3405292 -127.37229
-2.2997169 -126.4615 -22.055162 58.205589 -28.720556 -4.9455128 -29.212437 -24.262609
-22.367256 57.827927 -2.3376987 -127.38117 -29.199186 -24.262104 -27.637365 -28.673613
410000000 -25.494385 57.009087 -23.401962 72.661194 -2.4868138 -165.76588 -20.684343 20.135513
-23.393404 72.816849 -25.638771 57.677917 -20.675997 20.057961 -2.5347996 -166.68867
-2.4854918 -165.74023 -20.654209 20.046021 -20.614771 61.877163 -19.523584 71.015091
-20.68074 20.159327 -2.5367801 -166.70097 -19.538261 70.994659 -20.766619 62.338413
420000000 -16.778263 28.041973 -15.585876 39.754963 -2.5676672 155.4481 -20.33049 -21.774149
-15.572001 39.701839 -16.249031 32.904839 -20.305382 -20.375067 -2.6026368 154.51761
-2.559968 155.48245 -20.346878 -20.590059 -16.792696 41.528919 -15.09822 44.912399
-20.337145 -21.794516 -2.6020665 154.5238 -15.091204 44.893532 -16.227558 38.985622
430000000 -15.2957 -5.1490502 -14.426472 5.4060054 -2.5884309 117.64685 -20.270866 -70.235336
-14.429702 5.3864689 -14.650562 0.42797709 -20.178288 -68.263695 -2.644748 116.68712
-2.5820751 117.64349 -20.198547 -68.030945 -16.323553 13.505353 -14.531592 13.122285
-20.277103 -70.199585 -2.6462374 116.65823 -14.541945 13.046219 -15.264802 8.4079885
440000000 -16.860176 -36.877266 -16.483381 -27.755621 -2.4001975 78.77449 -22.157713 -112.95956
-16.481955 -27.74707 -16.04987 -29.107412 -21.854664 -110.47288 -2.4338131 77.955727
-2.3933227 78.790207 -21.865416 -110.60772 -19.521856 -10.963328 -18.08326 -15.803009
-22.1647 -113.05501 -2.4359405 77.963615 -18.088736 -15.825254 -18.107981 -20.562637
450000000 -25.50108 -65.439384 -27.271612 -61.414745 -2.3468528 38.548344 -23.060118 -138.66542
-27.289557 -61.324554 -23.273928 -55.302738 -22.640194 -139.00978 -2.3787484 37.63847
-2.341109 38.516544 -22.633701 -138.82373 -29.25572 34.034695 -31.012571 46.988163
-23.081633 -138.52084 -2.3816304 37.629475 -30.954594 46.314476 -32.410988 1.6081481
460000000 -22.375587 45.415657 -20.413174 64.863075 -2.4999268 -1.2713847 -21.548986 -171.13268
-20.426489 64.712357 -22.575926 45.68042 -21.515928 -171.19147 -2.5125203 -2.2214122
-2.4940121 -1.306519 -21.576241 -171.03508 -18.793278 55.688725 -16.864632 61.393551
-21.553478 -170.97307 -2.5132794 -2.2255108 -16.869616 61.488758 -18.775871 54.803905
470000000 -16.606253 13.290457 -15.420075 28.336439 -2.6871531 -39.165321 -20.171432 139.13109
-15.422317 28.366724 -16.348091 17.513777 -20.220804 140.83554 -2.7335761 -40.160831
-2.6918175 -39.172401 -20.187399 140.82608 -16.142395 30.633518 -13.987489 31.474165
-20.150871 139.09532 -2.7409012 -40.145313 -13.986158 31.5259 -15.386812 26.377993
480000000 -15.537065 -16.151518 -14.730215 -3.4382622 -2.572643 -77.073402 -21.202843 89.355301
-14.72717 -3.4545963 -15.069661 -9.5509691 -21.080832 92.484154 -2.6088624 -77.877548
-2.5727839 -77.068306 -21.088255 92.467766 -16.560251 7.5495481 -14.616232 3.8735924
-21.203888 89.346031 -2.6116197 -77.856659 -14.61629 3.861316 -15.56388 0.6236375
490000000 -18.050159 -50.348251 -18.048424 -39.874676 -2.3754816 -116.34143 -23.504316 49.517334
-18.047663 -39.869354 -17.089407 -41.43383 -23.047188 53.015522 -2.396569 -117.17451
-2.3750093 -116.3193 -23.059925 52.871479 -20.523392 -9.6286907 -19.475388 -17.817799
-23.510777 49.467514 -2.3978076 -117.14923 -19.466953 -17.873562 -19.086395 -21.705606
500000000 -33.74176 -58.021824 -44.28714 24.920795 -2.3565311 -156.92595 -24.226021 29.778696
-44.22858 24.567348 -28.690838 -50.397865 -23.620136 29.930487 -2.3675437 -157.79918
-2.3527746 -156.91501 -23.676405 29.99789 -25.415249 38.742905 -25.039124 53.528957
-24.246262 29.830046 -2.3658741 -157.78577 -25.060566 53.577034 -27.281118 17.901075
510000000 -20.659706 36.572479 -18.309462 55.021332 -2.614135 163.884 -21.59638 -9.4609251
-18.31414 54.951363 -20.952257 36.592709 -21.42597 -9.4599838 -2.6359441 162.99823
-2.6108694 163.87724 -21.461109 -9.2121115 -17.983862 46.052849 -15.667981 50.513813
-21.607105 -9.3362255 -2.6338625 162.99397 -15.667491 50.540298 -18.256098 42.2686
520000000 -16.347931 9.661561 -14.629859 24.082785 -2.613945 126.18124 -21.824408 -61.349976
-14.629045 24.077408 -16.148941 14.590278 -21.763218 -59.200623 -2.6268344 125.42471
-2.6115344 126.20007 -21.778265 -59.164192 -16.196289 26.065262 -13.727178 24.604479
-21.829853 -61.351368 -2.626771 125.43058 -13.72731 24.57719 -15.763147 20.68284
530000000 -15.738829 -22.944925 -14.618825 -10.85348 -2.5077446 87.631516 -23.006979 -106.18256
-14.617034 -10.862343 -15.094852 -15.987527 -22.775593 -102.8152 -2.5040956 86.855377
-2.5044794 87.646912 -22.790785 -102.79607 -16.748894 2.4536889 -14.675808 -2.8670475
-23.012659 -106.17972 -2.5045366 86.859406 -14.67944 -2.8994792 -15.791172 -4.6118436
540000000 -20.15443 -54.182598 -20.157541 -43.499813 -2.3496928 47.849651 -25.436628 -138.55421
-20.158241 -43.490959 -18.695133 -45.380554 -24.880726 -135.12328 -2.3348944 47.052452
-2.3464251 47.868717 -24.893362 -135.18657 -22.004597 -10.17872 -21.060631 -18.327665
-25.439999 -138.5974 -2.3363476 47.066463 -21.07612 -18.358238 -20.229458 -24.915333
550000000 -28.55681 21.471016 -26.015919 55.7258 -2.4591715 7.1877456 -24.040367 -156.38338
-26.000145 55.598003 -27.379448 1.5559471 -23.474743 -155.52675 -2.4326689 6.2787442
-2.4515545 7.2034626 -23.543192 -155.44693 -22.777126 47.582088 -20.961967 55.751717
-24.075832 -156.35339 -2.4304817 6.2945056 -20.94561 55.712456 -24.444565 30.632439
560000000 -18.266817 17.807888 -16.484575 36.533939 -2.7837553 -31.129192 -21.182018 154.03448
-16.485003 36.518032 -18.641409 18.496222 -20.927299 155.30566 -2.7769213 -32.072994
