!Keysight Technologies,N5231B,MY57181281,A.17.25.05
!Date: Friday, March 07, 2025 16:14:51
!Correction: S11(C  4-Port  ) 
!S12(C  4-Port  ) 
!S13(C  4-Port  ) 
!S14(C  4-Port  ) 
!S21(C  4-Port  ) 
!S22(C  4-Port  ) 
!S23(C  4-Port  ) 
!S24(C  4-Port  ) 
!S31(C  4-Port  ) 
!S32(C  4-Port  ) 
!S33(C  4-Port  ) 
!S34(C  4-Port  ) 
!S41(C  4-Port  ) 
!S42(C  4-Port  ) 
!S43(C  4-Port  ) 
!S44(C  4-Port  ) 
!S4P File: Measurements: <S11,S12,S13,S14>,
!<S21,S22,S23,S24>,
!<S31,S32,S33,S34>,
!<S41,S42,S43,S44>:
# Hz S  dB   R 50
10000000 -27.214489 35.830193 -30.958973 51.053223 -0.21751423 -22.430319 -37.793102 -154.16104
-30.786816 50.4809 -27.445072 35.716694 -37.440708 -153.87674 -0.21191418 -22.490229
-0.2262731 -22.526499 -36.672119 -154.10573 -27.799892 35.475491 -31.728197 48.912014
-36.215645 -153.52972 -0.22251414 -22.562937 -31.52342 49.301548 -27.952446 34.184662
20000000 -24.430658 18.518932 -27.336758 33.646973 -0.30580652 -44.021606 -34.968884 179.43768
-27.269253 32.821472 -24.665558 19.067911 -34.594875 179.90195 -0.29801697 -44.173332
-0.32706732 -44.119442 -33.835209 178.2074 -25.348156 18.907862 -28.588932 31.273817
-33.31308 177.91411 -0.31721875 -44.245705 -28.364368 32.140263 -25.562754 17.170378
30000000 -23.857185 2.0101902 -26.315262 17.195057 -0.37044409 -65.497894 -33.404945 156.96538
-26.335363 16.663984 -24.095798 2.7009189 -33.017658 157.61656 -0.36129901 -65.752304
-0.40189552 -65.571083 -32.324455 154.68831 -25.261269 4.3012204 -28.224792 16.266392
-31.777163 153.502 -0.38770071 -65.808746 -27.957926 17.779423 -25.568884 1.6574447
40000000 -24.786541 -12.671314 -27.140284 3.387944 -0.42991611 -86.978363 -31.96121 135.77264
-27.205128 3.6529999 -25.126307 -11.997847 -31.558439 136.51842 -0.42210349 -87.321732
-0.47082207 -86.990486 -30.99052 132.38832 -26.888292 -6.1588931 -30.059374 7.6400089
-30.460049 130.18127 -0.45366195 -87.350998 -29.663004 9.9367609 -27.500769 -9.6398792
50000000 -27.19927 -21.853056 -29.722412 -1.5649741 -0.50101912 -108.39579 -30.405663 112.29146
-29.640789 -0.0037853564 -27.951702 -20.729559 -30.014275 112.71651 -0.4972955 -108.87595
-0.5473569 -108.2979 -29.656466 107.6576 -30.071321 -2.1971881 -33.151695 23.533054
-29.206762 104.35182 -0.53256381 -108.82206 -32.284763 25.232426 -31.560381 -3.1278133
60000000 -30.200691 -8.4514141 -31.370443 22.236567 -0.61427236 -129.71033 -28.373568 82.736359
-30.777714 21.422182 -31.287882 1.5426024 -27.919098 83.521103 -0.62229449 -130.30338
-0.65451759 -129.40543 -27.88978 77.832932 -30.218988 29.139469 -29.960085 55.08028
-27.631081 73.357185 -0.65510029 -130.13927 -29.36167 52.918922 -30.649355 39.589359
70000000 -32.213871 -6.5253596 -32.336102 23.233994 -0.61583102 -150.0096 -30.305428 39.596527
-32.288628 21.389292 -31.594339 4.9042931 -29.878853 38.547329 -0.63956612 -150.6353
-0.61313879 -149.85231 -30.093861 35.594795 -29.383402 17.03161 -29.211189 39.164219
-30.10762 32.741024 -0.64481837 -150.46449 -28.920706 35.221424 -28.810104 25.122013
80000000 -31.117924 31.277891 -29.890537 51.106415 -0.60002893 -171.24544 -31.567787 18.59309
-30.069471 49.067905 -30.09676 33.67075 -31.354721 17.713205 -0.62446809 -171.83606
-0.59600651 -171.09216 -31.623056 15.108795 -29.332497 36.114136 -28.118612 50.750244
-31.640211 11.176972 -0.62118363 -171.70351 -28.231155 48.774887 -28.321754 36.701309
90000000 -26.365133 46.16164 -25.636084 59.099106 -0.53810745 167.11871 -34.330555 22.51449
-25.704876 58.929966 -26.224655 46.975204 -34.218803 21.634619 -0.54019386 166.48228
-0.53765035 167.1555 -34.28146 20.883022 -26.595392 54.084431 -25.514887 61.499325
-34.402847 19.278431 -0.54284173 166.53383 -25.543499 60.930405 -26.261129 52.755787
100000000 -23.18582 29.302078 -23.05055 41.280132 -0.57718676 145.52124 -32.12661 10.440895
-23.095568 41.03075 -23.217943 30.987251 -32.012936 11.770536 -0.57841748 144.77077
-0.58308136 145.56398 -32.072334 10.24449 -23.872637 43.299561 -23.328005 47.234447
-32.06797 8.500495 -0.58112311 144.80756 -23.270283 47.413055 -23.71423 41.167969
110000000 -22.077688 11.56425 -22.379261 23.447329 -0.6000762 123.92853 -30.63151 -0.79606068
-22.390619 23.03023 -22.328505 13.976435 -30.338665 0.19714774 -0.59165823 123.0423
-0.61643779 123.94108 -30.304983 -1.5001488 -23.126398 31.335966 -23.005693 33.11322
-30.185242 -3.7768235 -0.60247892 123.05206 -22.925194 33.54409 -23.18646 28.982304
120000000 -22.753054 -8.4563541 -23.610737 3.7869117 -0.65079927 102.36362 -28.805878 -19.872881
-23.667114 3.4087663 -23.270781 -5.8387265 -28.410679 -19.340086 -0.64110267 101.32266
-0.67624587 102.41993 -28.427149 -21.467974 -24.175051 20.980864 -24.77854 20.529325
-28.343124 -24.411291 -0.65910733 101.33363 -24.595741 21.913855 -24.681585 17.931585
130000000 -25.899763 -26.793003 -28.040777 -11.929064 -0.70790881 80.780113 -27.076616 -40.771523
-28.146967 -11.548782 -27.236609 -23.730593 -26.685461 -40.452709 -0.70437467 79.569145
-0.73882496 80.906013 -26.776409 -42.673523 -26.418947 23.737497 -28.611965 27.319771
-26.748558 -46.02055 -0.72547662 79.601265 -27.962393 28.375774 -27.868679 25.609699
140000000 -33.717236 -8.082654 -35.034313 48.882153 -0.84322512 59.091606 -24.711657 -67.537125
-34.49435 47.596233 -36.131874 29.721418 -24.256214 -68.175278 -0.84643346 57.670715
-0.87349039 59.370129 -24.433037 -70.185356 -26.235584 48.775158 -27.491491 68.670059
-24.529957 -73.987518 -0.88337958 57.753582 -26.812344 65.449265 -26.521198 61.04306
150000000 -30.696568 41.208473 -27.550337 69.342621 -0.97563636 38.510979 -24.298241 -103.45334
-27.767513 68.201767 -27.83107 57.590153 -23.971598 -104.71308 -1.0157382 37.000828
-0.974742 38.797108 -24.145807 -106.07281 -23.841719 47.003075 -23.694672 65.676041
-24.43115 -108.64188 -1.041178 37.194763 -23.480703 61.936203 -23.039991 55.448551
160000000 -25.545404 47.791718 -23.464424 64.330582 -1.0367866 17.793369 -24.075966 -132.80513
-23.46316 63.839237 -23.629759 52.110241 -23.967394 -134.31006 -1.1075931 16.224335
-1.0381323 18.015676 -24.134687 -135.77025 -22.577887 44.221951 -21.331409 59.622314
-24.199585 -138.10674 -1.1237227 16.545271 -21.453171 56.510029 -21.138617 48.34409
170000000 -23.421103 32.747906 -21.948929 49.132954 -1.0533515 -2.356313 -24.601072 -171.26846
-22.092516 48.085987 -22.110653 34.352276 -24.842108 -171.42499 -1.1720437 -3.6916635
-1.0385581 -2.1253021 -25.112495 -172.42424 -22.540974 34.358166 -20.681105 44.650799
-25.224592 -175.78688 -1.1324365 -3.431061 -21.003855 44.45343 -20.858318 32.250549
180000000 -22.214142 29.634331 -20.847208 44.157352 -0.90648538 -23.436869 -28.347162 166.72406
-21.036863 44.499046 -21.576488 29.892866 -28.323227 169.67674 -0.97298241 -24.467274
-0.89152211 -23.330746 -28.46567 169.71509 -22.791676 40.654999 -20.847023 44.616135
-28.900566 166.7701 -0.95569116 -24.537254 -20.760838 45.18026 -22.018747 34.563332
190000000 -20.375441 16.210983 -19.50168 29.717758 -0.86798531 -45.255306 -29.339111 167.23608
-19.591375 30.126564 -20.116858 17.775957 -28.935261 169.1489 -0.88563579 -46.47459
-0.85920143 -45.174789 -28.969587 168.61566 -21.300325 37.274693 -19.710276 36.935654
-29.300133 167.5842 -0.89292341 -46.509068 -19.59321 36.69986 -20.870506 32.730412
200000000 -20.301819 -4.4188023 -20.056227 9.4307852 -0.86783361 -66.806816 -28.620741 159.26131
-20.092281 10.066098 -20.366062 -2.7569394 -28.154036 158.98509 -0.86691666 -68.285233
-0.86629027 -66.805397 -28.187033 158.237 -21.489971 26.908945 -20.323503 23.343044
-28.283424 158.20972 -0.88640338 -68.269493 -20.250229 22.837666 -21.25651 22.592199
210000000 -22.072794 -26.366789 -22.751713 -10.536041 -0.87894511 -88.620316 -26.619036 148.55576
-22.776194 -9.9480677 -22.6106 -24.283995 -26.396721 147.92805 -0.87979168 -90.390358
-0.89535737 -88.586891 -26.442963 146.70844 -23.104275 22.460634 -22.949202 14.457349
-26.375105 145.2653 -0.9001255 -90.301178 -22.826525 14.911919 -23.372608 18.02593
220000000 -27.87677 -47.839603 -31.611 -19.974506 -0.95038539 -110.69218 -23.962246 129.68001
-31.634893 -17.782875 -30.263332 -44.969284 -23.747398 129.74956 -0.96511966 -112.72005
-0.97810674 -110.54261 -23.851994 128.3968 -25.224081 36.341789 -27.541679 35.403442
-23.859602 125.76822 -0.98611164 -112.62979 -27.134682 35.054859 -26.030613 39.147484
230000000 -36.201885 66.185707 -28.209856 90.79866 -1.1717273 -132.47418 -21.517569 98.637268
-28.040665 87.47493 -30.590967 86.563553 -21.240286 98.410828 -1.2205929 -134.69208
-1.1904951 -132.1266 -21.40885 97.039925 -22.260437 59.918079 -22.919922 76.508438
-21.545847 94.334457 -1.2548904 -134.54366 -22.685379 73.778282 -21.85796 67.299995
240000000 -24.540344 48.440514 -21.63509 63.769215 -1.4318461 -152.48926 -20.607349 59.132206
-21.676153 63.455421 -22.119495 52.26992 -20.461407 57.5242 -1.5274132 -154.91084
-1.412816 -152.25183 -20.664549 56.750847 -19.289738 43.832348 -19.02355 59.792465
-20.788984 55.173687 -1.555226 -154.46762 -19.00371 55.837475 -18.277012 48.441555
250000000 -23.437281 30.07556 -21.180994 49.067974 -1.392876 -171.71803 -21.674173 17.449068
-21.237089 47.511898 -21.634853 30.974396 -22.050449 17.854479 -1.582918 -173.64748
-1.3825923 -171.50633 -22.240814 17.550648 -19.924967 29.559708 -18.592585 43.727257
-22.268383 14.397799 -1.5187802 -173.3439 -19.121384 43.067616 -18.254179 28.723757
260000000 -21.922615 38.015728 -19.302786 51.081326 -1.2274917 166.90761 -24.815472 -1.5998651
-19.624048 51.555527 -20.690866 35.570763 -24.461046 2.7669039 -1.3187575 165.44547
-1.1922303 167.14113 -24.632723 2.7689369 -20.336414 35.593529 -18.526665 45.124306
-25.271645 -1.0721891 -1.3069147 165.27385 -18.395498 45.800003 -19.563644 30.11479
270000000 -19.226294 26.472166 -17.432457 37.247486 -1.1861165 145.44057 -25.921783 -11.149825
-17.488392 38.425449 -18.645475 24.933172 -25.166319 -10.692751 -1.2144127 143.68141
-1.155938 145.45427 -25.226473 -10.636952 -19.417971 34.032887 -17.290838 39.000782
-25.812454 -10.280401 -1.2458421 143.64696 -17.191736 37.809433 -18.862091 30.539946
280000000 -18.135284 6.0702028 -16.933792 17.650963 -1.166254 124.02446 -25.816055 -22.844351
-16.897552 18.277241 -17.794552 6.1381516 -25.359133 -24.963697 -1.183594 121.90009
-1.159533 123.97841 -25.383677 -25.460863 -19.089098 26.23094 -16.917953 25.738235
-25.562408 -24.422464 -1.2155681 122.06552 -16.992603 24.677332 -18.388073 22.12672
290000000 -18.584965 -17.821285 -17.974155 -4.7597017 -1.1405656 102.47894 -25.295319 -35.579563
-17.937948 -4.5955958 -18.386044 -16.860115 -25.181015 -37.187225 -1.1719159 100.08168
-1.1556573 102.49176 -25.245369 -38.030128 -19.897091 17.622835 -18.071554 10.693601
-25.177208 -38.500771 -1.185412 100.30698 -18.165575 10.915806 -19.281942 10.81012
300000000 -20.992071 -46.102215 -21.464378 -31.174715 -1.153015 80.646652 -24.002308 -50.703739
-21.49675 -31.224726 -21.068024 -45.781811 -23.908625 -50.989613 -1.2118412 78.105789
-1.1731502 80.814682 -24.017838 -51.825951 -22.255346 14.250356 -21.73452 -0.13400213
-24.050312 -53.787086 -1.2172327 78.253372 -21.528978 0.58583552 -22.417622 4.438848
310000000 -28.158678 -91.791412 -34.831432 -90.620117 -1.170664 59.070843 -23.441357 -68.745407
-35.62011 -86.847198 -29.641886 -103.89988 -23.343031 -68.945061 -1.2167306 56.63855
-1.1805582 59.283169 -23.465292 -69.744125 -24.142021 43.604248 -27.107391 44.751621
-23.559547 -71.468849 -1.2303928 56.775864 -26.958593 43.217449 -25.168661 47.750797
320000000 -29.600931 125.78583 -24.206863 111.94577 -1.2932463 36.566189 -20.792173 -86.573952
-24.378769 109.93852 -26.236341 115.98191 -20.57995 -86.805145 -1.3179815 33.697231
-1.3030216 36.87878 -20.722553 -87.506813 -20.317841 56.770962 -20.829817 72.008362
-20.892916 -89.61055 -1.347518 33.832317 -20.742403 70.415024 -19.889275 60.648373
330000000 -21.561867 74.575584 -18.15032 79.942017 -1.6229463 15.247448 -18.718115 -119.58081
-18.292076 78.802765 -19.431286 72.848694 -18.574635 -120.81176 -1.6933732 11.854825
-1.6128633 15.661351 -18.743704 -121.47761 -17.156218 46.064022 -16.451511 60.489208
-18.966776 -123.63901 -1.7381489 12.295032 -16.53153 58.050262 -16.209188 48.236416
340000000 -18.674744 45.175529 -15.913017 53.869057 -1.8155799 -3.9607449 -18.330381 -159.45944
-16.166245 53.90834 -16.851383 42.152756 -18.675737 -159.50777 -2.0570509 -7.2763133
-1.7604982 -3.6055007 -18.894707 -159.7027 -16.988487 28.30673 -15.372846 40.028965
-19.29229 -161.78688 -1.9743056 -6.6537466 -15.845383 40.472996 -15.444164 25.344624
350000000 -17.821842 30.460943 -15.434926 39.062317 -1.6677289 -24.225523 -20.969322 173.3652
-15.555895 40.377934 -16.596806 25.385031 -20.448347 175.8688 -1.7838385 -26.549429
-1.6070721 -24.164238 -20.569632 176.04391 -17.393475 25.984621 -15.621821 35.768223
-21.119204 175.98601 -1.7974144 -26.783484 -15.399424 35.588871 -16.922701 20.976892
360000000 -16.625574 13.638556 -14.819418 23.101267 -1.6167153 -45.209286 -21.379953 157.04767
-14.734963 23.819208 -15.919158 9.8959932 -21.144333 155.46059 -1.7132468 -48.177235
-1.5937471 -45.322029 -21.228748 155.39851 -17.058477 18.985044 -14.64194 24.581356
-21.397318 156.74416 -1.7313858 -47.87801 -14.7507 23.780664 -16.251173 15.144938
370000000 -16.400311 -6.9573307 -14.961916 3.4738569 -1.5691348 -66.332275 -21.651499 136.21591
-14.923033 3.4293323 -15.750855 -9.8492727 -21.628548 136.1416 -1.708783 -69.36425
-1.5695004 -66.30571 -21.714264 135.93663 -17.314774 8.5535364 -14.968343 7.9845414
-21.723051 135.82945 -1.6963145 -69.163879 -15.001025 8.3900547 -16.548599 1.4918983
380000000 -17.044249 -30.780285 -16.170349 -20.753534 -1.5516002 -87.824722 -21.839998 118.19543
-16.242262 -20.577015 -16.495342 -35.039398 -21.673512 118.37444 -1.6948415 -90.60041
-1.5459718 -87.698547 -21.742807 118.25824 -18.753027 -4.839479 -16.862251 -10.097509
-21.858881 117.70699 -1.6921195 -90.5382 -16.772238 -9.988553 -18.602427 -14.647689
390000000 -21.504063 -61.74754 -22.2481 -50.106773 -1.3416002 -108.35046 -25.177126 98.131004
-22.265877 -49.303402 -21.721287 -70.066872 -25.144564 98.845032 -1.4134268 -110.84682
-1.3428968 -108.27143 -25.19945 98.482094 -24.038099 7.9902644 -23.720097 -7.658843
-25.017715 97.788376 -1.4186414 -110.80668 -23.544567 -7.4417558 -26.017578 4.3941317
400000000 -29.052002 -109.26461 -34.666424 -134.4735 -1.3030181 -131.51332 -22.726032 103.08956
-35.26886 -131.76968 -29.022923 -129.34296 -22.623909 104.17485 -1.3300582 -134.59782
-1.307505 -131.33798 -22.731979 103.75439 -24.149517 36.327026 -26.562366 43.555477
-22.703852 101.38585 -1.3425293 -134.51851 -26.337626 40.811573 -24.222519 44.698792
410000000 -26.316591 111.59465 -21.612131 108.02838 -1.4532752 -154.42966 -19.670797 84.093697
-21.735394 107.32318 -23.719244 112.84221 -19.493818 85.246178 -1.4776536 -157.95491
-1.4525042 -154.13895 -19.61282 84.812584 -20.646786 52.448868 -19.976084 69.684349
-19.764545 82.191116 -1.5004722 -157.83636 -20.074656 67.938675 -19.48678 55.365818
420000000 -18.976894 70.449242 -15.878177 77.932159 -1.7645748 -176.16025 -17.802368 53.639786
-15.960007 77.750793 -17.489231 73.29744 -17.619223 54.940018 -1.8203112 179.90344
-1.7410268 -175.83601 -17.767517 54.700974 -17.372618 48.924351 -15.498409 61.179138
-17.996511 52.44907 -1.8347502 -179.88377 -15.608733 60.415195 -16.036995 47.382732
430000000 -15.928905 41.071396 -13.451646 52.252857 -1.9958836 163.34952 -17.338558 23.08601
-13.500458 52.070381 -14.731936 43.975212 -17.058716 24.84358 -2.0867021 159.26468
-1.964388 163.59164 -17.1791 24.929449 -15.439188 34.916485 -13.229025 44.044491
-17.430021 22.57291 -2.0950685 159.35927 -13.229306 43.536434 -14.172909 31.253326
440000000 -14.662613 18.789326 -12.409474 31.383804 -2.1108699 142.92322 -17.331366 -2.8579028
-12.499928 31.33951 -13.487409 21.355736 -16.881905 -1.5791321 -2.2111886 138.62215
-2.0822668 143.17207 -16.931219 -1.8125821 -14.765683 21.217733 -12.189747 28.086529
-17.317961 -4.0452518 -2.2552984 138.70523 -12.174029 27.044968 -13.418971 16.900652
450000000 -14.01417 -3.6059361 -12.089679 9.4056845 -2.2496343 122.78183 -17.007336 -30.176302
-12.17593 9.6752367 -12.858473 -1.7862409 -16.579975 -29.590982 -2.4086759 118.08784
-2.2001994 123.06556 -16.7337 -30.158247 -14.730763 4.1937656 -11.888618 8.326519
-17.168901 -31.710377 -2.4303401 118.45338 -11.916469 7.5042529 -13.084782 -1.5764184
460000000 -14.173149 -26.311659 -12.650498 -13.827356 -2.2424192 102.73545 -17.223473 -56.754513
-12.729126 -13.290401 -12.969195 -26.625124 -16.799034 -56.740761 -2.5217988 98.079628
-2.1862099 102.85944 -16.950714 -56.790813 -15.864691 -12.850276 -12.806051 -12.686456
-17.425982 -57.473515 -2.5238771 98.346741 -12.797733 -13.267506 -13.888659 -22.725014
470000000 -15.08695 -54.212559 -14.330311 -43.171513 -2.2515016 82.352829 -17.318113 -84.158325
-14.4132 -42.061588 -13.955076 -57.325462 -16.888613 -83.342094 -2.6153493 78.461586
-2.1909094 82.369057 -17.031612 -83.214615 -18.390011 -35.310017 -15.377722 -39.76136
-17.510132 -82.896042 -2.6068997 78.375069 -15.111368 -39.603493 -16.268398 -51.520187
480000000 -18.796581 -95.370567 -20.036009 -89.665359 -1.9899682 62.869331 -19.884823 -115.50172
-20.019733 -87.344902 -18.031677 -104.67963 -19.088871 -116.3192 -2.2068658 60.000042
-1.9670651 62.731178 -19.178915 -115.94546 -31.897068 -48.430927 -26.327587 -70.379478
-19.384401 -114.01334 -2.2973061 59.953899 -24.906879 -76.12429 -28.201536 -98.469269
490000000 -26.086044 -159.82651 -26.706581 164.33354 -1.7005032 39.66161 -21.824627 -111.66476
-27.144026 165.64134 -24.658154 -177.87325 -21.473074 -114.47909 -1.7893291 36.236919
-1.6895866 39.747196 -21.538357 -114.50105 -24.815369 64.642418 -26.505568 83.913307
-21.444597 -114.89714 -1.8642409 36.484608 -27.071117 87.717262 -25.546556 76.281029
500000000 -22.387421 99.324806 -18.195999 95.098091 -1.8248707 16.552876 -19.409168 -120.98448
-18.38904 95.009438 -20.171144 95.653511 -19.156191 -123.26679 -1.8763276 12.417296
-1.8013189 16.692341 -19.237543 -123.2578 -18.700773 57.765282 -17.460253 72.242722
-19.340927 -124.56965 -1.9609594 12.811728 -17.713568 72.019958 -18.095016 58.837246
510000000 -17.474627 54.081367 -14.269353 61.911922 -2.1123197 -5.7642369 -17.099073 -143.65147
-14.373052 61.973915 -15.987265 52.786312 -16.953405 -145.44626 -2.1830554 -10.662422
-2.0769763 -5.6054006 -17.031895 -145.46783 -15.791753 41.243729 -13.679836 53.04282
-17.212349 -146.68097 -2.2593741 -10.053709 -13.943063 52.340862 -14.801173 38.901707
520000000 -15.315473 24.808714 -12.617771 37.063381 -2.4833276 -26.378729 -15.678714 -174.25972
-12.692877 37.098488 -14.061651 23.824816 -15.579486 -175.29608 -2.6503613 -31.928915
-2.4394186 -26.259626 -15.663847 -175.39926 -14.49271 23.334717 -11.789989 32.871456
-15.862185 -176.46312 -2.693522 -31.168692 -12.080435 32.397118 -13.136987 18.476353
530000000 -14.370527 2.9944446 -11.805301 16.106924 -2.7453005 -45.516468 -15.246994 153.55295
-11.94624 16.53788 -12.922259 0.69169176 -14.916055 152.71751 -3.0359614 -51.316101
-2.6768739 -45.393333 -15.0409 152.66 -14.219706 2.6678543 -11.136477 10.930606
-15.308471 151.22351 -3.0991561 -50.5755 -11.363099 9.9613695 -12.485892 -4.5614042
540000000 -14.018012 -25.617491 -12.199281 -12.691702 -2.8283479 -62.759296 -14.881892 116.6086
-12.182942 -11.6345 -12.580671 -32.935036 -14.647814 113.63896 -3.4251101 -68.134285
-2.7688534 -63.094681 -14.762682 114.00275 -16.108698 -23.730478 -12.149055 -15.544568
-15.075197 113.62305 -3.4065535 -66.688522 -12.660387 -17.017385 -13.330766 -35.911621
550000000 -16.574345 -46.607426 -15.413605 -30.07711 -2.1482167 -81.797539 -17.802032 76.434448
-15.329913 -29.921789 -16.145021 -60.193413 -17.921076 73.390556 -2.6444347 -84.472923
-2.1446931 -81.973831 -17.983353 73.782387 -22.03232 -23.933384 -16.28116 -28.581915
-18.196201 73.31636 -2.5149369 -83.786819 -16.959723 -26.293711 -19.22965 -60.881664
560000000 -18.394915 -59.602459 -17.848305 -41.238052 -1.7328627 -104.93645 -22.642155 59.969196
-17.835108 -41.057922 -19.274654 -71.102654 -22.845768 60.17939 -1.9428105 -107.37146
