!Keysight Technologies,N5231B,MY57181281,A.17.25.05
!Date: Friday, March 07, 2025 16:28:33
!Correction: S11(C  4-Port  ) 
!S12(C  4-Port  ) 
!S13(C  4-Port  ) 
!S14(C  4-Port  ) 
!S21(C  4-Port  ) 
!S22(C  4-Port  ) 
!S23(C  4-Port  ) 
!S24(C  4-Port  ) 
!S31(C  4-Port  ) 
!S32(C  4-Port  ) 
!S33(C  4-Port  ) 
!S34(C  4-Port  ) 
!S41(C  4-Port  ) 
!S42(C  4-Port  ) 
!S43(C  4-Port  ) 
!S44(C  4-Port  ) 
!S4P File: Measurements: <S11,S12,S13,S14>,
!<S21,S22,S23,S24>,
!<S31,S32,S33,S34>,
!<S41,S42,S43,S44>:
# Hz S  dB   R 50
10000000 -22.849894 -7.4354949 -27.446178 9.2747211 -0.53315264 -60.496155 -29.868799 170.61145
-27.463737 9.0575008 -22.836136 -7.5625024 -29.382822 171.233 -0.52302808 -60.348869
-0.51265174 -60.322723 -30.386572 170.86145 -22.124723 13.177584 -24.959482 34.973881
-30.233627 170.88663 -0.51304066 -60.283497 -24.702232 36.258186 -22.315773 11.534653
20000000 -30.262651 40.187439 -27.006958 61.99741 -1.1775815 -117.08572 -23.01783 72.493889
-26.800716 61.482685 -30.591312 35.562759 -22.473495 66.694649 -1.1056205 -117.44736
-1.0925504 -117.80325 -23.292862 77.077316 -20.282776 -6.1366539 -21.221128 10.874173
-23.16107 76.193146 -1.0805525 -117.77329 -20.330391 6.6472621 -21.224562 -3.8003621
30000000 -34.853737 21.359993 -34.807091 32.56068 -0.70209986 -174.01524 -35.854717 -11.435634
-34.835716 32.486874 -35.499687 17.498539 -35.468307 -14.873715 -0.68065941 -174.12158
-0.696199 -174.11635 -35.908451 -10.003544 -34.563038 3.3578191 -35.058907 19.942463
-35.909115 -10.413349 -0.68326712 -174.14569 -35.102688 14.65755 -35.468655 4.7036738
40000000 -24.909061 6.8888426 -26.042694 14.942057 -1.0672516 126.17518 -25.775049 -13.536083
-26.138329 15.147381 -24.836006 5.6869631 -25.321045 -19.613918 -0.99671316 125.99155
-0.98400259 125.90285 -25.986553 -9.7068081 -20.286295 22.615837 -21.276833 33.674149
-25.848633 -10.610331 -0.97260547 125.86487 -20.676012 30.581722 -21.000465 25.991529
50000000 -22.547539 49.14558 -22.121206 56.387032 -1.3230014 71.606689 -22.343609 -117.33009
-22.124426 55.361965 -22.809704 47.918869 -23.708227 -123.18558 -1.4272074 71.249199
-1.5092294 71.160248 -21.591835 -115.29297 -19.938284 -26.539278 -19.808468 -9.6624346
-21.699049 -116.0686 -1.5040816 71.16713 -20.496254 -20.044775 -19.394163 -16.466599
60000000 -25.500469 -4.160378 -26.254595 2.079463 -1.1131407 14.68386 -26.721241 155.13692
-26.276659 2.3378406 -25.574312 -6.8862309 -27.434444 159.27054 -1.0997341 14.903765
-1.1255984 15.129498 -26.354452 153.41255 -30.033651 -27.327925 -29.532284 -25.90209
-26.441303 153.55632 -1.1034063 15.064855 -31.372419 -18.162617 -28.411392 -37.049889
70000000 -25.668653 34.678108 -25.857653 42.779003 -1.0993062 -44.574146 -29.760767 144.28023
-25.73777 42.755028 -25.931007 30.30846 -31.029112 146.38321 -1.132032 -44.692966
-1.1579115 -44.563507 -29.301054 143.72908 -22.833508 15.565668 -22.601019 25.258036
-29.269444 143.30989 -1.1536702 -44.672005 -23.142504 25.102922 -22.56566 18.376738
80000000 -21.90756 33.849152 -22.049044 40.00272 -1.3943388 -102.27656 -25.618944 76.924118
-22.088177 40.116127 -22.09281 30.89057 -25.708216 88.598083 -1.3989877 -101.61452
-1.4095527 -101.29521 -25.558813 71.619972 -23.975243 -22.40737 -22.921164 -17.796762
-25.622187 72.14045 -1.3920302 -101.26582 -24.861504 -12.283054 -22.013554 -24.211126
90000000 -22.547026 10.638749 -23.300993 19.631224 -1.5983651 -158.06436 -25.0352 3.5955641
-23.186712 19.164211 -22.915049 6.9160962 -23.724586 8.8358192 -1.4580433 -157.90501
-1.4489394 -157.81256 -25.671267 1.4935479 -25.986347 7.7577138 -29.603832 11.938191
-25.586462 1.7241405 -1.409031 -157.8923 -26.393709 20.310993 -28.786764 -11.195028
100000000 -24.333731 29.323652 -23.922859 38.734676 -1.3412851 144.41721 -29.423683 -52.322548
-23.920542 38.339844 -24.68927 27.171452 -29.071871 -52.545063 -1.3051641 144.17149
-1.3195593 144.37167 -29.669153 -52.669392 -24.045904 11.454352 -23.908216 24.396313
-29.585419 -52.84227 -1.2947621 144.17255 -23.982491 24.539036 -24.592018 13.6106
110000000 -22.614889 30.334923 -22.912836 35.656757 -1.655565 85.451874 -25.760715 -82.020607
-22.872353 35.714012 -22.782661 27.579077 -24.254827 -80.853271 -1.5527604 85.591209
-1.5301768 85.705627 -26.279766 -81.599022 -23.863754 -4.1553226 -24.793499 -5.1256809
-26.324432 -81.657219 -1.5125289 85.607292 -24.098772 5.0127263 -24.184113 -12.794975
120000000 -20.032579 22.02722 -20.530451 30.768999 -1.9968424 30.466347 -22.171795 -156.51207
-20.483175 29.618153 -20.317804 18.793243 -21.163523 -163.62985 -1.8781574 29.614365
-1.8996226 29.342178 -22.419464 -153.10777 -23.207209 3.715657 -25.510422 29.908573
-22.382805 -153.50783 -1.852731 29.213448 -24.043844 13.842187 -25.554277 11.257692
130000000 -23.179243 10.944727 -22.962437 20.470497 -1.6501285 -25.747091 -24.737328 123.08794
-22.99725 20.720064 -23.356602 6.1051197 -24.566099 117.00493 -1.6389552 -26.400536
-1.6876436 -26.177933 -24.586674 124.05252 -23.671965 -1.0117688 -23.431396 17.034237
-24.658709 124.21273 -1.6535413 -26.464233 -24.115 14.380127 -24.398632 3.1988058
140000000 -22.346134 26.920944 -22.879478 30.448341 -1.7622321 -85.07618 -25.642487 95.952339
-22.815187 30.279551 -22.914713 22.546844 -25.101545 90.3592 -1.7218331 -85.673409
-1.724776 -85.585136 -25.716501 98.777611 -23.514946 -9.4996119 -24.734322 1.8511775
-25.758478 98.023956 -1.711127 -85.876961 -23.867884 0.68624753 -24.749737 -3.8578377
150000000 -19.257133 21.584629 -19.864897 31.647133 -2.0885847 -141.41048 -21.249084 32.094147
-19.938297 30.305164 -19.579262 19.413834 -21.647907 24.826998 -2.1337435 -142.15253
-2.1864519 -142.25551 -20.916798 34.24625 -25.776772 4.1095381 -24.822889 31.97636
-21.044636 33.871719 -2.1680787 -142.45053 -26.954443 21.597601 -24.412018 14.342662
160000000 -21.119951 -5.0847125 -21.237375 6.1261711 -2.0128405 163.3244 -21.232363 -50.416195
-21.335436 6.4357176 -21.192144 -9.113884 -21.729458 -52.664139 -2.0285151 163.1581
-2.0926368 163.5032 -20.912216 -50.889847 -22.141462 -2.4499524 -21.991396 10.30708
-21.017406 -50.471478 -2.0578473 163.26767 -22.523647 13.964211 -22.463482 -6.3949952
170000000 -22.950146 19.972849 -23.079639 23.533258 -1.8251611 104.84995 -24.842745 -103.28857
-23.100246 22.941034 -23.247587 15.393049 -25.176565 -105.79881 -1.8485059 104.46047
-1.8708267 104.76669 -24.682758 -102.02306 -25.048653 -17.428238 -25.223398 -2.3949587
-24.761717 -102.68805 -1.8580731 104.41319 -25.375383 -1.4356489 -25.577648 -11.467673
180000000 -20.037489 16.452089 -21.01108 26.953558 -2.1154983 46.839958 -22.338003 -146.98965
-21.132914 26.366562 -20.044939 11.905091 -22.702135 -147.69612 -2.1528256 46.850277
-2.1795392 47.0462 -21.976563 -148.23767 -27.580952 21.238514 -27.129908 34.340096
-22.147755 -147.57689 -2.170073 46.88969 -27.66897 45.402428 -26.245382 7.7606301
190000000 -20.852938 -1.65333 -20.902994 12.527876 -2.2377992 -8.3744993 -21.006086 139.58748
-21.035868 12.726282 -20.677458 -9.5778809 -21.11726 138.79761 -2.1986399 -8.4248934
-2.23506 -8.1822767 -20.93338 138.09979 -21.203512 7.3904638 -21.570906 24.017641
-21.005476 138.72728 -2.2000065 -8.3817835 -21.190084 24.997036 -22.931423 0.93463618
200000000 -22.495359 8.5072184 -22.420094 12.387071 -1.9828355 -65.798965 -23.630592 74.434921
-22.485537 12.228905 -23.234348 -1.9082841 -23.852064 73.478004 -1.9731084 -66.087318
-2.0008829 -65.757874 -23.594582 74.505867 -23.366405 -17.107986 -23.873533 -3.3903608
-23.637653 74.407982 -1.9764543 -66.111397 -23.83568 0.45137161 -25.683823 -16.36939
210000000 -21.240759 12.267846 -22.971373 24.543026 -2.1692946 -124.39161 -23.53606 37.347626
-23.079233 24.374491 -21.997244 6.8584957 -23.330875 35.929016 -2.1598525 -124.62782
-2.1559331 -124.40023 -23.396996 36.366817 -27.49579 11.576989 -29.18589 42.390347
-23.608376 36.955902 -2.1571343 -124.64937 -27.706165 42.493927 -28.273783 18.422968
220000000 -20.829021 2.7757318 -20.913511 22.076828 -2.362694 179.80319 -21.095179 -27.509615
-21.052197 22.736996 -21.205196 -3.0500152 -21.219852 -30.424879 -2.3617637 179.61198
-2.3906968 179.63043 -21.008078 -27.862473 -21.388441 12.718667 -20.560705 36.859737
-21.132717 -27.183231 -2.3734062 179.52872 -20.682331 33.921741 -21.893702 15.148067
230000000 -22.120157 -2.7873664 -21.638517 6.2358584 -2.1751564 123.36604 -22.252659 -99.654854
-21.663738 6.7725487 -22.557453 -8.3388433 -22.41861 -100.85363 -2.1571956 123.18672
-2.2016187 123.3932 -22.103268 -99.57299 -21.971102 -13.464849 -21.812439 1.4304397
-22.254667 -99.323608 -2.1680236 123.18549 -21.640829 3.1301553 -23.386845 -14.113229
240000000 -23.681402 6.9441943 -25.334576 19.92445 -2.1673746 64.818687 -24.243385 -143.71288
-25.409775 20.183308 -23.278103 0.73197883 -24.07485 -147.4715 -2.1738527 64.442268
-2.1857209 64.660286 -23.909407 -144.45885 -27.106245 -3.2751045 -29.630228 26.809481
-24.266619 -143.23961 -2.1823118 64.384209 -28.905256 18.538513 -28.198751 4.3431344
250000000 -23.025669 13.204671 -22.101889 35.577183 -2.364104 7.770329 -22.011597 162.04132
-22.127029 36.871334 -22.581512 -0.073756672 -22.469555 158.53711 -2.3981395 7.7718334
-2.4313984 7.773458 -21.757877 160.55968 -21.835217 21.850475 -20.620504 46.095898
-21.94721 162.52393 -2.4221137 7.7729235 -21.233105 46.47847 -22.612574 20.135258
260000000 -21.860245 7.6661334 -20.569368 12.64817 -2.3422503 -48.52076 -21.980581 93.307701
-20.515635 13.21735 -22.165661 -8.2511806 -22.412634 92.141396 -2.3256047 -48.391735
-2.3818579 -48.262478 -21.800266 91.737518 -19.808863 -6.7522869 -19.669672 9.9167061
-21.907124 93.552208 -2.3393846 -48.328072 -19.580891 11.591623 -22.20491 -6.6978664
270000000 -25.133274 12.171035 -27.486515 15.498362 -2.2279918 -106.29538 -24.157547 37.628601
-27.488663 15.965475 -25.952444 -5.5624957 -24.374939 34.700203 -2.2222524 -106.52962
-2.2577364 -106.24277 -23.921299 36.005421 -25.284592 -29.033226 -27.220282 -1.6491023
-24.11339 37.947701 -2.2343256 -106.52937 -27.052757 -6.1984296 -26.973793 -7.0380287
280000000 -23.039112 29.312653 -22.373993 53.628834 -2.3807404 -164.29149 -23.116457 -8.7356739
-22.271423 54.391228 -24.495611 14.550192 -23.829647 -9.6286669 -2.4116418 -164.10234
-2.4389093 -164.03738 -22.942192 -10.738156 -24.106215 33.563698 -21.727409 54.950558
-22.982849 -8.5714693 -2.4318559 -164.02464 -22.023184 58.261616 -23.73757 25.512596
290000000 -20.34111 18.564983 -19.088615 26.355501 -2.4817901 139.27646 -22.354584 -72.864243
-19.017736 26.515644 -21.692719 5.8788476 -22.780163 -71.801262 -2.4497981 139.61804
-2.502151 139.72629 -22.196072 -75.029793 -18.965027 7.052031 -18.224308 20.432722
-22.247971 -73.12635 -2.4595952 139.7274 -18.022148 22.055458 -21.023935 3.3390229
300000000 -23.865715 0.25602043 -25.323654 3.1272392 -2.3684721 82.192108 -23.892679 -133.51703
-25.268461 3.4148417 -25.236038 -13.673059 -24.169659 -134.4239 -2.3364732 82.121223
-2.380043 82.413216 -23.722715 -136.00719 -21.727385 -27.597446 -22.823402 -13.472952
-23.804783 -133.66246 -2.3449869 82.190857 -22.710377 -14.484021 -23.942156 -18.151648
310000000 -23.598749 42.052822 -22.155813 66.234299 -2.4654057 23.948561 -23.72854 -178.7912
-22.064512 66.3563 -25.53409 32.023754 -24.280388 -177.67717 -2.4706724 24.195154
-2.4902303 24.331852 -23.655684 178.41118 -26.671158 24.820696 -24.764608 58.101177
-23.599157 -179.36372 -2.4812486 24.325394 -24.693672 61.28373 -26.112 19.181599
320000000 -19.120909 29.485882 -17.706793 36.767708 -2.6163554 -32.84494 -22.78348 122.3683
-17.64497 36.729851 -20.721317 20.041603 -22.945135 124.22066 -2.5666566 -32.482601
-2.6057622 -32.40778 -22.70896 119.52657 -18.522257 16.00053 -17.632942 31.025148
-22.712194 121.60452 -2.5687406 -32.341019 -17.393787 31.542223 -20.449738 12.414824
330000000 -21.17816 -1.8718896 -22.243332 0.90720332 -2.593282 -89.421616 -23.050732 59.93961
-22.183369 0.8144173 -22.974781 -11.250311 -23.14749 60.808266 -2.5280797 -89.296158
-2.5694041 -89.111374 -23.051329 56.803829 -18.65365 -25.163689 -19.707872 -14.490973
-23.015942 59.076908 -2.5237873 -89.173065 -19.471258 -14.938516 -20.934637 -23.811119
340000000 -24.414099 45.875248 -22.277224 74.31308 -2.5685604 -147.08353 -23.925873 6.4104552
-22.226395 74.21228 -25.614044 39.891346 -24.01976 7.0496006 -2.5279412 -147.01276
-2.549463 -146.85098 -23.976185 3.4290905 -31.292234 -10.991089 -30.139584 70.279015
-23.930056 5.6862278 -2.5230467 -146.9108 -30.286236 73.311806 -31.509737 -3.492238
350000000 -18.398924 37.430836 -16.529169 45.08799 -2.7348959 155.66797 -22.921026 -46.763908
-16.49135 44.870129 -19.766653 28.152594 -22.840498 -46.112343 -2.6635175 155.93369
-2.7004316 155.93805 -23.005423 -49.954102 -18.892576 24.622526 -17.370432 43.075462
-22.951471 -47.458988 -2.6528881 156.02174 -17.214424 42.773575 -21.129848 24.733358
360000000 -18.681597 7.3608446 -18.77202 9.0369873 -2.7145226 99.803162 -22.653288 -114.20115
-18.753904 8.8674994 -20.304413 -1.4729869 -22.626625 -115.23828 -2.6150925 99.698509
-2.6805313 99.874268 -22.838589 -117.34269 -17.455757 -18.263826 -17.861916 -5.3103313
-22.703264 -114.61962 -2.6045578 99.733238 -17.779322 -6.1939163 -19.922287 -14.289647
370000000 -24.067951 20.865416 -24.675837 55.780144 -2.5184369 41.633339 -25.487194 -169.57275
-24.621641 55.491138 -26.017513 14.367789 -25.694548 -169.5034 -2.4837937 41.422989
-2.5011859 41.738449 -25.755083 -172.02536 -26.831583 -39.731571 -34.337952 15.135252
-25.511553 -169.94102 -2.4798212 41.471062 -34.855911 14.096628 -28.526661 -26.075136
380000000 -18.603378 42.306046 -16.388819 51.761295 -2.7391419 -16.268902 -24.05797 147.29103
-16.37299 51.572357 -20.007236 35.965603 -23.994846 147.31334 -2.6943815 -16.217676
-2.7188404 -16.149948 -24.192692 145.218 -20.406414 32.735825 -17.931578 53.16605
-24.098974 146.98535 -2.685679 -16.177092 -17.877956 53.272377 -22.10383 31.643635
390000000 -17.018881 13.090878 -16.637531 14.544579 -2.7847235 -72.434479 -23.385775 82.482079
-16.624382 14.409263 -18.543921 6.3836918 -23.40819 81.343285 -2.7194164 -72.551491
-2.7656162 -72.352875 -23.567657 79.787643 -16.718811 -6.3465557 -16.436918 5.8569903
-23.419191 82.265511 -2.7116618 -72.53038 -16.39189 5.4773412 -18.76227 -4.8146214
400000000 -23.469961 0.92094141 -26.336439 32.778515 -2.682457 -130.19804 -24.95117 27.540312
-26.307192 32.510704 -25.22748 -3.0539384 -25.057198 27.237801 -2.6519818 -130.29707
-2.6681373 -130.12483 -25.213875 25.832361 -21.811974 -40.474728 -26.348736 -26.441076
-24.985596 27.41301 -2.6456962 -130.28868 -26.495197 -27.819094 -23.636223 -37.829994
410000000 -19.077299 47.132462 -16.251482 57.190388 -2.8771906 172.04112 -23.71384 -19.898113
-16.251442 57.025921 -20.359709 40.213116 -23.683187 -20.500282 -2.8250685 172.15152
-2.8601983 172.15158 -23.839207 -21.953924 -22.226568 31.801565 -19.022226 60.682228
-23.72756 -20.032558 -2.8197823 172.16399 -18.938152 61.098373 -24.388571 29.834288
420000000 -16.301308 20.401617 -15.225505 20.141678 -2.9751029 116.10084 -22.699602 -84.829475
-15.219801 20.025156 -17.914747 14.072027 -22.724058 -86.375153 -2.889034 115.97594
-2.9534037 116.17753 -22.870811 -87.496887 -16.189714 -3.1189928 -15.433917 12.590411
-22.712761 -84.992836 -2.8852394 115.98119 -15.394948 12.374128 -18.419992 -2.9903612
430000000 -20.209724 0.69156075 -22.79583 9.2116375 -2.8167059 58.940525 -24.105368 -146.11343
-22.789097 8.9986782 -22.187731 -1.8590449 -24.339226 -146.92087 -2.7740605 58.7285
-2.8034151 59.002632 -24.42326 -148.04056 -19.188622 -45.874138 -21.607046 -33.708591
-24.109909 -146.25485 -2.7731342 58.733261 -21.678791 -33.888393 -21.278967 -46.93713
440000000 -19.254744 38.850834 -16.979012 56.489243 -2.9538918 0.5551011 -23.823658 170.54472
-16.986841 56.326248 -20.134611 34.368088 -23.750914 170.40163 -2.9047933 0.5982967
-2.9330094 0.64860356 -23.928514 169.06723 -25.921926 28.622721 -21.246927 65.539467
-23.829071 170.27965 -2.9035599 0.62197381 -21.127855 65.692322 -28.62961 28.640156
450000000 -15.81058 18.288702 -14.566632 21.994698 -3.1783097 -55.264637 -21.803951 106.51085
-14.56896 21.883905 -17.238663 12.318231 -21.792301 104.85197 -3.0758145 -55.367756
-3.1538641 -55.22216 -21.954353 103.90203 -16.604492 3.7422249 -15.419913 19.49094
-21.821453 106.24506 -3.0728641 -55.341099 -15.36097 19.303919 -18.991682 3.5689657
460000000 -18.485491 -6.2908511 -20.242287 -1.6369393 -3.0145974 -111.45014 -22.593925 37.989098
-20.250813 -1.8380951 -20.346003 -8.5226755 -22.726587 37.128777 -2.9348707 -111.79045
-2.9989045 -111.40759 -22.842024 36.047226 -17.674908 -38.833904 -19.261543 -28.729969
-22.609701 37.735416 -2.932492 -111.77282 -19.237749 -28.470539 -19.864548 -41.840553
470000000 -21.521477 33.200649 -18.706766 59.43755 -2.9797668 -169.70667 -24.131298 -11.158653
-18.72216 59.364704 -21.820837 29.83219 -23.916182 -12.398162 -2.9168937 -169.99519
-2.9549184 -169.69792 -24.161301 -13.321193 -29.038502 -16.904219 -25.659628 69.409592
-24.164192 -11.449967 -2.915458 -169.96304 -25.745926 68.253197 -34.702637 -24.645742
480000000 -16.204039 24.59572 -14.318437 29.463974 -3.221067 133.97655 -21.948191 -68.671143
-14.320938 29.407345 -17.411535 17.513975 -21.954144 -71.580811 -3.1176324 133.64545
-3.2058504 133.98703 -22.088881 -72.197189 -18.200756 9.3976307 -16.055321 29.733423
-21.980585 -68.859344 -3.113621 133.67842 -16.037512 29.520683 -20.956879 13.541298
490000000 -16.946594 2.3763056 -17.489082 3.376369 -2.9984169 77.753311 -23.05994 -138.83902
-17.494888 3.2506692 -18.613426 -3.1335001 -23.218596 -141.19417 -2.9303 77.180252
-2.9802773 77.786194 -23.373684 -142.28767 -17.104738 -31.078888 -17.692459 -18.499395
-23.08864 -139.03957 -2.925566 77.198929 -17.648918 -18.861385 -19.564251 -30.324619
500000000 -21.358252 17.047869 -20.404554 48.643105 -2.9507217 19.091167 -25.066574 174.689
-20.426912 48.570721 -22.496616 15.809254 -25.133226 172.80429 -2.9042151 18.641493
-2.9315774 19.057137 -25.405193 172.49094 -28.948545 -48.740154 -31.378899 69.194191
-25.112181 174.50064 -2.8991895 18.65962 -31.634899 69.509628 -32.244541 -56.804203
510000000 -16.302715 27.681738 -14.276357 34.124187 -3.2697473 -37.816086 -22.46203 123.59776
-14.285462 34.109058 -17.620644 22.312006 -22.547176 121.14253 -3.1715834 -38.25246
-3.2582464 -37.814842 -22.672644 120.90575 -18.993448 20.44899 -16.227964 40.270348
-22.492426 123.52511 -3.166923 -38.241386 -16.222174 40.306828 -21.644022 23.204538
520000000 -15.568463 3.9067962 -15.735312 4.1994724 -3.1322205 -93.518814 -22.729544 52.803005
-15.742247 4.1271229 -17.312674 -0.197937 -22.913389 50.251648 -3.0637643 -94.242485
-3.1155941 -93.525902 -23.079115 49.738075 -16.259035 -20.268167 -16.237949 -7.9566045
-22.760689 52.679028 -3.0587862 -94.240059 -16.241072 -8.2649136 -18.730879 -21.479227
530000000 -20.215221 -0.45002013 -21.415304 31.819885 -3.0633869 -151.9633 -24.518999 2.7678072
-21.440119 31.726389 -21.471792 1.769835 -24.612995 1.4922893 -3.0176184 -152.55603
-3.0433633 -151.99019 -24.876431 1.2627949 -23.828596 -56.359955 -34.164692 -8.7787352
-24.561539 2.6653373 -3.0126281 -152.55807 -34.266712 -8.6534834 -26.626986 -67.342514
540000000 -17.177021 24.49609 -14.602655 35.794296 -3.4069636 151.03224 -22.015854 -47.093208
-14.616803 35.856518 -18.124674 19.30842 -22.046764 -49.899548 -3.3080146 150.4595
-3.3991864 150.95735 -22.148365 -49.29665 -20.73102 21.716146 -16.887356 46.946926
-22.040493 -47.040695 -3.3062537 150.45052 -16.91057 47.112957 -23.7428 27.558582
550000000 -15.288351 5.7993217 -14.599958 5.9012241 -3.3055637 95.702332 -21.767319 -117.53295
-14.605496 5.8592319 -16.88472 0.43920803 -21.947866 -120.9371 -3.2404482 94.837082
-3.2960508 95.654579 -22.062664 -120.83915 -16.282236 -12.557262 -15.30262 0.76661396
-21.791937 -117.53894 -3.2379327 94.832741 -15.315298 0.65345603 -18.843744 -13.298687
560000000 -18.775873 -10.57667 -20.991529 8.1883402 -3.2085776 37.776169 -23.082829 -173.9113
-21.025305 8.0926933 -20.456213 -8.9407139 -23.277344 -175.70114 -3.157248 37.002846
-3.1976635 37.727283 -23.429405 -175.48897 -20.806461 -54.060646 -25.49744 -38.226959
