!Keysight Technologies,N5231B,MY57181281,A.17.25.05
!Automatic Fixture Removal (AFR)
!Date: Friday, March 07, 2025, 04:12:53
!S2P File: Measurements: S11,S21,S12,S22:
# MHz S  RI   R 50
10           -7.90236929215128E-06    -0.000501115443099186    0.998617872253619        -0.0186425991823431      0.998617872253619        -0.0186425991823431      0.00383312059656254      0.000965833397624461    
20           -6.3360460345994E-05     -0.000992048272126128    0.996906524153706        -0.0369197891154816      0.996906524153706        -0.0369197891154817      0.00329894888426844      0.000601866910930404    
30           -0.000119166751718495    -0.00146207113827993     0.995585020065551        -0.0543350926126577      0.995585020065551        -0.0543350926126577      0.00310770792885946      0.00102284176446514     
40           -0.000178345337158401    -0.00193430707500604     0.994551445926827        -0.0718779078229873      0.994551445926827        -0.0718779078229873      0.00355187605419403      0.00192368716879886     
50           -0.00025903393667993     -0.00240622929111358     0.993019508883472        -0.0895121933296092      0.993019508883472        -0.0895121933296092      0.00428636271903203      0.000761795003837892    
60           -0.000359579964324082    -0.00288115991839205     0.991078009990272        -0.107390561930777       0.991078009990272        -0.107390561930777       0.00480221611925026      -0.000486176474348166   
70           -0.000478189606280508    -0.00334856838528189     0.98875983017029         -0.125072733128566       0.98875983017029         -0.125072733128566       0.00496572323369671      -0.0011681362172744     
80           -0.000618412430185829    -0.00381182433978882     0.985926903050543        -0.142749921581002       0.985926903050543        -0.142749921581002       0.00532220578583785      -0.00157844213149475    
90           -0.000773316022190201    -0.00426340951588739     0.982821566335325        -0.160084458036168       0.982821566335325        -0.160084458036168       0.00571441288568577      -0.00186477112036485    
100          -0.000939336705527354    -0.00470921490442778     0.979621632256761        -0.177317843533691       0.979621632256761        -0.177317843533691       0.00600284583532964      -0.00220449446752644    
110          -0.00111945493468366     -0.00515016237081523     0.976202974603022        -0.194522349161015       0.976202974603022        -0.194522349161015       0.00618890969439929      -0.00262550955529726    
120          -0.00131712199763433     -0.00558576174659168     0.97241324504331         -0.21172253172015        0.97241324504331         -0.21172253172015        0.00617327752572207      -0.00300328467591026    
130          -0.00153080952303853     -0.00601396207008774     0.968296193870057        -0.228839483174817       0.968296193870057        -0.228839483174817       0.00594861237860549      -0.00338461333308742    
140          -0.00175928040631882     -0.00642989490756389     0.963847590404366        -0.245676127120014       0.963847590404366        -0.245676127120014       0.00557960966651263      -0.00378831285582852    
150          -0.00200835990284284     -0.00684554889261494     0.958946190141925        -0.262820290879871       0.958946190141925        -0.262820290879871       0.00504874891928013      -0.00426308346625423    
160          -0.00226138256466226     -0.00724568635189416     0.954116876836219        -0.279463343809477       0.954116876836219        -0.279463343809477       0.00466883193951696      -0.00486714954048006    
170          -0.00253401645616498     -0.00764175597747658     0.948832510685709        -0.296279955532805       0.948832510685709        -0.296279955532805       0.00438542639819516      -0.00557095885011016    
180          -0.00281953823061436     -0.00802643860823832     0.943278476969579        -0.31290474550887        0.943278476969579        -0.31290474550887        0.0041545388249601       -0.00645700372599103    
190          -0.00311678044534031     -0.00840534558509205     0.937572621381042        -0.329566730861939       0.937572621381042        -0.329566730861939       0.00391964534051433      -0.00739109091256028    
200          -0.00343454015329931     -0.00876809332359278     0.931202611724753        -0.345987076641077       0.931202611724754        -0.345987076641077       0.00361499715866366      -0.00827189282655997    
210          -0.00375806810222303     -0.00911784396095109     0.924801765311814        -0.362098232353399       0.924801765311814        -0.362098232353399       0.00337488272072524      -0.00900858237359414    
220          -0.00409563379772816     -0.00946104686036876     0.918127808737414        -0.378299387067704       0.918127808737414        -0.378299387067704       0.00306015633350876      -0.00955384289330666    
230          -0.00444515259348866     -0.00979171905803889     0.911166392949265        -0.394333894335476       0.911166392949265        -0.394333894335476       0.00284750234505934      -0.0098555052675499     
240          -0.00480618729795572     -0.0101102051527617      0.903931349689543        -0.410225990656811       0.903931349689543        -0.410225990656811       0.00264209842742444      -0.0099895418813287     
250          -0.00517936809460642     -0.0104156160350522      0.896373417291658        -0.425970783815452       0.896373417291658        -0.425970783815452       0.00245130022537513      -0.0100980731475951     
260          -0.00556435759111898     -0.010708099373235       0.88849980104206         -0.441587731691237       0.88849980104206         -0.441587731691237       0.00218626263562344      -0.0102665456536427     
270          -0.00595875452157713     -0.0109874028954218      0.88039066473466         -0.457039285915116       0.88039066473466         -0.457039285915116       0.00187269240246783      -0.0106007840385914     
280          -0.0063627305774395      -0.0112522460864529      0.872003613907832        -0.472295497902338       0.872003613907832        -0.472295497902338       0.00149482025226625      -0.011121409200172      
290          -0.00677718427532253     -0.0115037133433811      0.86331661796269         -0.487433916534223       0.86331661796269         -0.487433916534223       0.000982643988307909     -0.0118372409328988     
300          -0.00719499339091345     -0.0117398911647214      0.854548376721375        -0.502244182733092       0.854548376721375        -0.502244182733092       0.000414916474449414     -0.0125839313940453     
310          -0.00762170430083941     -0.011968448565168       0.845649468077683        -0.517142668171654       0.845649468077683        -0.517142668171655       -0.000255655832965182    -0.013234620918332      
320          -0.0080618096225776      -0.0121828178985489      0.836307305945241        -0.532003406106478       0.836307305945241        -0.532003406106478       -0.000858065383337361    -0.0137780323501213     
330          -0.00851007601282451     -0.0123791664995147      0.82661772872954         -0.546588868268014       0.82661772872954         -0.546588868268014       -0.00134738030079954     -0.0142324219711162     
340          -0.00896402795198134     -0.0125595839651425      0.816705810979172        -0.560934197907258       0.816705810979172        -0.560934197907258       -0.00175884449676643     -0.0145364756311676     
350          -0.00942363406891352     -0.0127248212542794      0.8065781039661          -0.575080713087694       0.8065781039661          -0.575080713087694       -0.00206574959374485     -0.0148127447050034     
360          -0.00988932109170492     -0.0128744578481718      0.796197224247821        -0.589038692977333       0.796197224247821        -0.589038692977333       -0.00238895879530752     -0.0150423208960896     
370          -0.010360029164961       -0.0130081981794031      0.785581115379647        -0.602786483199664       0.785581115379647        -0.602786483199664       -0.00274212775580855     -0.0152871999252159     
380          -0.0108355291366945      -0.0131271800575955      0.774755929936815        -0.61637178991053        0.774755929936815        -0.61637178991053        -0.00324449960533767     -0.0156006005221134     
390          -0.0113155487918017      -0.0132304087990365      0.763693833818813        -0.629767428625582       0.763693833818813        -0.629767428625582       -0.00394961127206653     -0.0159863006909328     
400          -0.0117994590144592      -0.0133177274334139      0.752401032016098        -0.64296532160484        0.752401032016098        -0.642965321604841       -0.00485357942430455     -0.0163302172291999     
410          -0.0122861778964851      -0.013388919847737       0.740895997575461        -0.655943292345954       0.740895997575461        -0.655943292345954       -0.00578559862963247     -0.016703283387055      
420          -0.0127762321119097      -0.0134447460009241      0.729172176276702        -0.668755430632044       0.729172176276702        -0.668755430632044       -0.00670304846177384     -0.017077498743287      
430          -0.0132687232049729      -0.0134840826045483      0.717214948983386        -0.681353942373736       0.717214948983386        -0.681353942373736       -0.00758302245813775     -0.0174379477393163     
440          -0.0137645005301747      -0.0135070967686136      0.704991378634267        -0.693785908512243       0.704991378634267        -0.693785908512243       -0.00831225656831099     -0.0178206267324695     
450          -0.0142609882364978      -0.0135118050373082      0.692508952944099        -0.705927608788768       0.692508952944099        -0.705927608788768       -0.00891348299175325     -0.0181563899523435     
460          -0.0147562152765012      -0.0134992051773774      0.679841823964754        -0.717763147145971       0.679841823964754        -0.717763147145971       -0.00944775024116905     -0.018438339990361      
470          -0.0152503200345035      -0.0134716529316117      0.667043944914907        -0.729378994451445       0.667043944914908        -0.729378994451445       -0.00999115748300133     -0.018743959838783      
480          -0.0157438806022672      -0.0134287858967497      0.654073794073362        -0.740792883862497       0.654073794073362        -0.740792883862497       -0.0106731850224391      -0.019079521547438      
490          -0.0162367558013703      -0.0133695801572557      0.640890334085297        -0.751982329160142       0.640890334085297        -0.751982329160142       -0.0115598388713606      -0.0192972740252717     
500          -0.016728250251907       -0.0132949393548276      0.627531324027893        -0.762963571616901       0.627531324027893        -0.762963571616901       -0.0125190393231881      -0.0193529378263667     
510          -0.0172182229755794      -0.0132046668553107      0.613981681079314        -0.773739038640169       0.613981681079314        -0.773739038640169       -0.0135556105216243      -0.0193285243726271     
520          -0.0177050186796689      -0.0130981121083335      0.600250895728527        -0.78424764480965        0.600250895728527        -0.78424764480965        -0.0146350678424249      -0.0192814452764858     
530          -0.018188763995007       -0.0129754890485683      0.586328844274491        -0.79451264470895        0.586328844274491        -0.79451264470895        -0.0155953347305267      -0.0191912504064946     
540          -0.0186685493657393      -0.0128369813263995      0.572230486101224        -0.804519305778436       0.572230486101224        -0.804519305778437       -0.0165398422226951      -0.0191316459051669     
550          -0.019143920684914       -0.0126829713549121      0.55796600903118         -0.81427365886143        0.55796600903118         -0.81427365886143        -0.0173895064861132      -0.019179292162267      
560          -0.0196145267093891      -0.0125133203368914      0.543524705607291        -0.823771084756508       0.543524705607291        -0.823771084756508       -0.0181488451382095      -0.0192610564452117     
570          -0.0200795903333787      -0.0123286459743006      0.528932428941113        -0.833009482353864       0.528932428941113        -0.833009482353864       -0.0188962532471813      -0.0194093401501779     
580          -0.0205380779375885      -0.0121289018601808      0.514195832679473        -0.84196024815398        0.514195832679473        -0.84196024815398        -0.0196636801352957      -0.0196754115371644     
590          -0.020990525440885       -0.0119151174412692      0.499326382729736        -0.850676115277815       0.499326382729736        -0.850676115277815       -0.0204823581949915      -0.0198645168393569     
600          -0.0214369296267544      -0.0116875940025275      0.484322049676686        -0.859173519677265       0.484322049676686        -0.859173519677265       -0.0213444889502415      -0.0199974508118435     
610          -0.0218768886367365      -0.0114458871664393      0.469161877484706        -0.86743794702192        0.469161877484706        -0.86743794702192        -0.0222149308100849      -0.0200183897614496     
620          -0.0223088071935539      -0.0111887255036902      0.453815432922666        -0.875393554972693       0.453815432922666        -0.875393554972694       -0.023046013574967       -0.0199203674927557     
630          -0.0227332074714793      -0.01091771697817        0.438317295312327        -0.88310524253385        0.438317295312327        -0.88310524253385        -0.0238447628987803      -0.019837847795981      
640          -0.0231479382143444      -0.0106333957348411      0.422714504922033        -0.890509098574307       0.422714504922033        -0.890509098574307       -0.024639735153694       -0.0197935356561251     
650          -0.0235531212870658      -0.0103355908528097      0.406980691521291        -0.897615469596982       0.406980691521291        -0.897615469596982       -0.0254137148011263      -0.0197657721522904     
660          -0.0239486144896383      -0.0100254489238142      0.391146819544037        -0.904448305281566       0.391146819544037        -0.904448305281566       -0.0262232398988046      -0.0198199462312087     
670          -0.02433444671966        -0.00970347317501124     0.375217441047696        -0.911025116368151       0.375217441047696        -0.911025116368151       -0.0270768958689204      -0.019866594315856      
680          -0.0247097354511753      -0.00936863432119209     0.359149847699222        -0.917302094181628       0.359149847699222        -0.917302094181628       -0.027903250154134       -0.0199525712139223     
690          -0.0250741116319125      -0.00902231825140147     0.342989799624591        -0.923294657500028       0.342989799624591        -0.923294657500028       -0.0288054443522088      -0.0199384086559004     
700          -0.0254274343601485      -0.00866453519093026     0.326723443035249        -0.929005450850305       0.326723443035249        -0.929005450850305       -0.0297162638209642      -0.0198486447382529     
710          -0.0257695048011429      -0.00829548836293919     0.310346393957429        -0.934438029304302       0.310346393957429        -0.934438029304301       -0.0305347875687685      -0.0195915886865887     
720          -0.02609934399572        -0.00791579024066876     0.29387999980818         -0.939568888756568       0.29387999980818         -0.939568888756568       -0.0312362851429528      -0.0193340335983878     
730          -0.0264168021894267      -0.00752541981030545     0.27730767646972         -0.944398541172932       0.27730767646972         -0.944398541172932       -0.0319352007624855      -0.0190614460563288     
740          -0.0267211045508703      -0.00712500503169984     0.260647121034558        -0.948910532500894       0.260647121034558        -0.948910532500894       -0.032582997240539       -0.0188574705703548     
750          -0.0270118731752055      -0.00671526519998425     0.243914570491677        -0.953103931390472       0.243914570491677        -0.953103931390472       -0.0332272655135523      -0.0187126372166976     
760          -0.0272888660715294      -0.00629734693236094     0.227142326489746        -0.956986804368504       0.227142326489746        -0.956986804368504       -0.0338722884565633      -0.0187296097393841     
770          -0.0275516887581509      -0.00587246640303026     0.210368726018756        -0.960558261926486       0.210368726018757        -0.960558261926486       -0.0345447380327579      -0.0187898840354138     
780          -0.0278011283304756      -0.00544083514311169     0.193578460200053        -0.963856524549913       0.193578460200053        -0.963856524549913       -0.0352812076286809      -0.018818170887549      
790          -0.0280381185130255      -0.00500263652964828     0.176756484795654        -0.966927258339833       0.176756484795654        -0.966927258339832       -0.0360234564729911      -0.0187644166382636     
800          -0.0282606703030893      -0.00455753567658581     0.159889735998172        -0.969687115233721       0.159889735998172        -0.96968711523372        -0.03667944172202        -0.0185057297865891     
810          -0.0284702114237887      -0.00410586136999382     0.142965071826476        -0.97220572576113        0.142965071826476        -0.97220572576113        -0.0372046837452608      -0.0181044153503289     
820          -0.028665574707912       -0.00364821610760298     0.126001019273071        -0.974441454401639       0.12600101927307         -0.974441454401639       -0.037651786603393       -0.0175230244713946     
830          -0.0288465721211129      -0.00318477617759906     0.108988897212872        -0.976392624820688       0.108988897212872        -0.976392624820688       -0.0379356079547548      -0.0168957148139082     
840          -0.0290132722781529      -0.00271614584517929     0.091937516675555        -0.978069826412511       0.091937516675555        -0.978069826412511       -0.0381251292912422      -0.0163081416844754     
850          -0.0291640719212205      -0.00224271970172378     0.0748525749436457       -0.979408476009001       0.0748525749436457       -0.979408476009001       -0.0383718203189027      -0.0158753146490088     
860          -0.0292994750622877      -0.00176501651296499     0.0577360173359195       -0.980436706658954       0.0577360173359195       -0.980436706658954       -0.0386456374399191      -0.0155866818437826     
870          -0.0294201722421227      -0.00128360095428582     0.0405932958922094       -0.981189774258898       0.0405932958922094       -0.981189774258898       -0.0390229824297298      -0.0154265430631736     
880          -0.0295247285227129      -0.000798687361510115    0.0234193658935771       -0.981609397501284       0.0234193658935771       -0.981609397501284       -0.0394627313976946      -0.0153476824920436     
890          -0.0296131249267148      -0.000311571954264753    0.00625223035252659      -0.981699815545827       0.00625223035252659      -0.981699815545827       -0.039919321178815       -0.0152593458565843     
900          -0.0296862455516063      0.00017692502569118      -0.0108905340284092      -0.981502403583807       -0.0108905340284092      -0.981502403583807       -0.0402962779806511      -0.0150936043516917     
910          -0.029744179476026       0.000666923167725631     -0.0280308237182081      -0.9810227811026         -0.0280308237182081      -0.9810227811026         -0.0405898773457961      -0.0147937238205135     
920          -0.0297864034721171      0.00115800302635039      -0.0451687964231069      -0.980240700722035       -0.0451687964231069      -0.980240700722035       -0.0406536009345572      -0.0144716797289384     
930          -0.0298131893941008      0.00164921786574609      -0.0622800022292837      -0.979167415447652       -0.0622800022292837      -0.979167415447652       -0.0406062732232503      -0.0140931263458044     
