!Keysight Technologies,N5231B,MY57181281,A.17.25.05
!Date: Friday, March 07, 2025 17:03:43
!Correction: S11(C  4-Port  ) 
!S12(C  4-Port  ) 
!S13(C  4-Port  ) 
!S14(C  4-Port  ) 
!S21(C  4-Port  ) 
!S22(C  4-Port  ) 
!S23(C  4-Port  ) 
!S24(C  4-Port  ) 
!S31(C  4-Port  ) 
!S32(C  4-Port  ) 
!S33(C  4-Port  ) 
!S34(C  4-Port  ) 
!S41(C  4-Port  ) 
!S42(C  4-Port  ) 
!S43(C  4-Port  ) 
!S44(C  4-Port  ) 
!S4P File: Measurements: <S11,S12,S13,S14>,
!<S21,S22,S23,S24>,
!<S31,S32,S33,S34>,
!<S41,S42,S43,S44>:
# Hz S  dB   R 50
10000000 -20.782892 15.920135 -22.829285 22.52319 -0.57423478 -41.325611 -27.771717 165.45712
-23.319691 26.104263 -20.338615 13.139283 -27.794973 164.26614 -0.5719291 -41.407921
-0.54167622 -41.50983 -27.792469 163.98938 -25.164783 11.581589 -29.697285 27.250639
-28.029596 170.42378 -0.57943314 -41.360634 -29.885412 27.200798 -25.093866 10.629137
20000000 -22.319319 -10.513906 -24.267706 5.4285579 -0.76167428 -81.903435 -24.595091 134.32632
-24.486774 7.2130365 -22.10659 -11.704656 -24.654623 134.33255 -0.76291549 -82.01284
-0.75586694 -82.005562 -24.670244 134.3847 -26.328728 13.857701 -27.474651 42.056484
-24.524569 135.63168 -0.76301581 -82.001755 -27.45355 42.300488 -26.344336 12.051394
30000000 -24.776438 -19.216858 -25.901356 -7.7822227 -1.0648861 -119.55206 -22.770378 63.91769
-25.201284 -1.6117933 -25.002733 -26.468639 -22.887377 64.326828 -1.0666682 -119.69643
-1.1020598 -119.59578 -22.898197 64.416321 -20.666515 20.658579 -20.374769 28.206366
-22.37571 64.204399 -1.0620534 -119.70042 -20.373085 28.095829 -20.717216 19.115395
40000000 -25.227966 -16.101252 -25.055164 -8.6402502 -1.0007833 -156.45898 -23.464621 -7.9160132
-25.221201 -10.160975 -25.048378 -15.888475 -23.387705 -7.7121005 -0.98875242 -156.75453
-0.98179007 -156.49706 -23.333561 -8.00807 -21.932327 -19.78792 -22.327858 -16.840696
-23.613422 -8.3839006 -0.99523306 -156.6936 -22.231861 -17.17485 -22.050272 -21.14395
50000000 -27.513525 14.91962 -28.675024 27.022324 -0.74777436 162.69485 -30.542112 -37.423275
-28.740274 22.504385 -27.646629 16.110312 -30.779112 -36.329865 -0.764283 162.42564
-0.76024097 162.80544 -30.898079 -35.488461 -27.81295 26.752794 -28.338177 30.063068
-30.155718 -38.852898 -0.7573666 162.34277 -28.3186 31.264019 -27.705782 21.018465
60000000 -22.659311 15.241611 -23.514191 26.613482 -0.93918306 121.30748 -26.23847 -28.432772
-23.324308 26.835613 -22.980152 14.734948 -26.230242 -27.321198 -0.95153707 120.9984
-0.94078308 121.35407 -26.227926 -27.222078 -21.117695 37.747566 -21.335039 40.727814
-26.231848 -29.227472 -0.94945019 120.97216 -21.339285 40.830246 -21.170404 34.818707
70000000 -23.541023 -3.6757555 -23.99608 12.847569 -1.3746068 83.356628 -21.861628 -94.787498
-23.841866 10.076506 -23.613146 -0.9302296 -21.770945 -93.866684 -1.3855846 83.052124
-1.3634722 83.383286 -21.756536 -93.837494 -18.285152 4.9717793 -18.63308 5.4110513
-21.916309 -95.059837 -1.3897321 83.027138 -18.608423 5.637146 -18.141371 1.5258454
80000000 -24.500067 -5.1721926 -23.853727 5.2974896 -1.2656933 46.625801 -22.680454 -163.44473
-24.275795 4.414392 -23.522287 -5.8737564 -22.522413 -163.08627 -1.2653729 46.300598
-1.2533038 46.56905 -22.492493 -163.25435 -22.384993 -30.508013 -23.217663 -32.080215
-22.773148 -163.48425 -1.2690728 46.330818 -23.131151 -32.159241 -21.880846 -35.063911
90000000 -27.377657 9.9792299 -28.215544 13.964415 -1.0221109 7.0870929 -26.661289 146.6841
-27.949142 18.430645 -27.426388 -3.6285696 -26.57243 145.7646 -1.0188199 6.6377635
-1.0243874 6.9375825 -26.580561 145.11612 -29.995392 7.9712424 -31.221485 18.750937
-26.807461 148.49548 -1.0106936 6.6894169 -31.421558 17.784327 -29.915892 -6.0559645
100000000 -23.113762 17.948915 -23.794516 31.425123 -1.0296042 -33.31147 -29.013138 127.18058
-23.876581 29.152098 -23.936146 17.273222 -29.199663 128.69193 -1.0409491 -33.72678
-1.0452917 -33.233753 -29.284821 129.18198 -24.280296 27.2153 -24.3867 29.009565
-28.66506 126.45438 -1.0344955 -33.808754 -24.339706 29.823959 -24.810608 18.597399
110000000 -22.867638 0.047014076 -23.451468 14.879887 -1.063839 -73.104233 -29.945896 103.92347
-23.556732 14.919237 -23.192556 2.7803011 -29.659338 105.1385 -1.0664008 -73.539459
-1.0555212 -73.091087 -29.646645 105.09284 -23.909948 20.194029 -24.405708 18.003786
-30.072382 103.55864 -1.0698452 -73.556793 -24.394365 17.794054 -24.115137 13.198848
120000000 -26.745173 -3.5267048 -26.488729 14.552983 -1.2332628 -113.26971 -26.558556 84.321045
-26.686657 15.226795 -25.49777 -2.0520422 -26.395517 83.52681 -1.2326524 -113.63381
-1.2246674 -113.28677 -26.409861 83.452751 -26.570869 23.872162 -28.842657 22.950142
-26.639606 84.717758 -1.2343433 -113.64508 -28.836872 22.910955 -26.742205 10.421818
130000000 -24.88303 34.896149 -24.525732 42.528687 -1.4860022 -152.13069 -23.660976 36.157173
-24.456799 43.797527 -24.92135 22.459667 -23.643232 35.649879 -1.4544902 -152.50647
-1.4765847 -152.1886 -23.648651 35.644447 -22.289799 45.801723 -23.048159 54.645233
-23.713802 36.792728 -1.4569709 -152.50916 -23.033195 54.481102 -23.494602 37.024078
140000000 -21.06883 24.284248 -21.695644 32.016365 -1.5184655 170.18298 -23.807871 -19.693289
-21.36611 34.31461 -22.160595 16.728727 -23.79781 -20.410257 -1.4671632 169.45137
-1.5066018 169.90071 -23.805607 -20.843891 -21.079311 26.080891 -21.048908 33.287453
-23.937984 -17.245926 -1.4675946 169.53725 -21.123987 32.669807 -22.025885 21.097635
150000000 -19.646095 -0.54025078 -20.584944 12.966882 -1.4108256 130.60001 -25.535227 -54.131374
-20.309746 10.202636 -20.637081 0.4684431 -25.746162 -53.206036 -1.4095552 129.83876
-1.4612817 130.56757 -25.848049 -52.814816 -21.64525 19.992529 -21.240067 18.560129
-24.978485 -53.524754 -1.3928503 129.78241 -21.248167 19.558338 -22.159706 13.903658
160000000 -25.25626 -29.705624 -26.61631 -9.2247477 -1.4331818 90.757858 -25.885727 -82.073723
-26.940281 -9.1035528 -25.192709 -25.401012 -25.739267 -81.175789 -1.4257452 90.089127
-1.4324952 90.858551 -25.712368 -80.972672 -24.977711 27.296253 -25.961517 20.591753
-25.891697 -83.309685 -1.4306808 90.04303 -25.89459 20.037382 -25.148256 20.665825
170000000 -27.694733 49.713486 -25.836342 62.067642 -1.6614159 50.431408 -22.707523 -109.83644
-25.705057 61.128468 -27.442732 36.864738 -22.664221 -109.64846 -1.6500967 49.827629
-1.6650546 50.438564 -22.657309 -109.58881 -21.525396 49.218029 -22.812712 54.901775
-22.664543 -110.03889 -1.6478251 49.823326 -22.821671 54.868374 -22.044861 39.199589
180000000 -20.002369 36.072437 -19.754093 44.889374 -1.9702617 12.675316 -20.574633 -165.17732
-19.85216 44.814999 -20.683567 28.232298 -20.53438 -164.8208 -1.9286984 12.066238
-1.9626659 12.692028 -20.514906 -164.85094 -18.803801 32.39661 -19.175077 39.759216
-20.634064 -165.39751 -1.9298706 12.030791 -19.158762 39.61591 -19.545204 23.407618
190000000 -18.666687 11.424422 -19.336775 22.052189 -1.8427422 -24.523331 -21.814295 138.54562
-19.047216 23.001732 -19.973612 5.8570385 -21.814728 138.48257 -1.7895623 -25.461414
-1.8448603 -24.764042 -21.825743 138.12344 -20.034519 15.667342 -19.449881 21.674656
-21.836712 140.43396 -1.7831281 -25.406094 -19.534235 21.459606 -20.708132 8.2786808
200000000 -19.475035 -15.192909 -20.4473 0.55401856 -1.6662776 -64.258102 -24.114435 102.42519
-20.349663 -1.6135104 -20.556652 -13.508673 -24.201241 104.08967 -1.6548135 -65.191338
-1.7014874 -64.204453 -24.247078 104.29964 -21.844717 8.3677473 -21.171114 4.9034557
-23.760841 102.26757 -1.6450942 -65.276894 -21.132305 5.6302271 -22.26465 0.025397437
210000000 -26.887075 -34.819508 -28.466787 -4.9016981 -1.6505634 -104.41412 -25.110332 76.897179
-28.699688 -5.9055414 -26.503544 -24.308884 -24.823145 78.504356 -1.6365604 -105.24546
-1.6475592 -104.30479 -24.800266 78.55217 -26.362469 35.026752 -28.410913 29.173513
-25.130064 75.67263 -1.6422173 -105.29705 -28.423458 28.323406 -26.629393 22.038443
220000000 -26.246523 59.236584 -24.281317 69.314407 -1.8259517 -144.62823 -22.935888 50.282501
-24.355375 69.823532 -26.190769 40.542233 -22.738398 50.031422 -1.8050237 -145.34059
-1.8194563 -144.61639 -22.736771 49.925045 -21.09388 57.678154 -21.689306 67.515694
-22.977995 50.193024 -1.8079038 -145.35367 -21.690802 67.493698 -22.520508 46.381294
230000000 -18.243109 40.204845 -18.025314 49.055458 -2.0479612 176.55859 -21.247763 5.8825517
-18.019236 49.536663 -19.269903 31.365021 -21.160788 5.6711235 -1.9937561 175.84003
-2.0369499 176.52301 -21.167761 5.5559344 -17.553349 42.231106 -17.233877 47.991005
-21.302248 6.1491036 -1.9959073 175.84456 -17.23744 47.889938 -18.915392 34.9911
240000000 -16.3127 7.6065912 -16.895599 17.644821 -2.0908363 138.89258 -21.293953 -45.117962
-16.73844 17.958612 -17.436329 3.1306641 -21.27346 -44.996418 -2.0163217 137.92331
-2.0921335 138.70213 -21.297836 -45.1525 -17.650293 17.755426 -17.070978 19.074835
-21.277185 -43.897617 -2.0113988 137.95685 -17.113228 19.042952 -18.733801 12.950057
250000000 -18.096712 -29.076416 -19.455761 -16.664486 -1.9019575 99.949478 -23.421633 -86.303398
-19.338474 -17.617943 -18.818495 -28.297773 -23.367004 -85.086456 -1.8502281 98.8312
-1.9261732 99.941177 -23.400913 -85.029572 -21.694231 5.1745658 -21.505007 -1.7246078
-23.219917 -86.216835 -1.8436792 98.802574 -21.493059 -1.3081427 -22.148968 2.0647013
260000000 -32.296223 -66.211693 -40.59581 -10.459823 -1.7873694 59.242519 -24.805233 -102.12174
-40.810352 -12.314975 -29.1605 -49.809536 -24.526329 -102.25521 -1.7598565 58.078861
-1.7878671 59.250759 -24.530563 -102.2225 -23.938313 53.878601 -26.044228 60.593807
-24.799248 -102.16837 -1.760299 58.050167 -26.052244 60.467834 -24.064257 39.4902
270000000 -21.315556 71.661499 -20.023102 79.37587 -2.0894985 18.679724 -21.071199 -135.53716
-20.00069 79.472427 -23.479485 60.411446 -20.967817 -135.38182 -2.0538294 17.793242
-2.0915377 18.659878 -20.976175 -135.37276 -17.635632 57.932293 -17.506136 65.678741
-21.04668 -135.46239 -2.054204 17.770229 -17.512175 65.629852 -18.689611 48.076355
280000000 -15.718539 33.947075 -15.535711 43.100159 -2.4089458 -19.598949 -19.370049 174.41496
-15.519087 43.012615 -17.120035 28.827681 -19.270809 174.91043 -2.3382635 -20.509148
-2.412288 -19.628475 -19.277687 174.91948 -15.201883 32.746765 -14.667763 36.103062
-19.343374 174.51952 -2.3382473 -20.528496 -14.676204 36.06242 -16.195236 24.829834
290000000 -15.186102 -6.1186824 -15.798659 4.2089896 -2.4099219 -56.277752 -19.880377 119.10381
-15.728767 3.8603692 -16.374372 -8.1666117 -19.771793 119.93356 -2.3180141 -57.46051
-2.4256191 -56.34203 -19.789625 119.9495 -16.78669 5.4462366 -16.138271 4.6803131
-19.805355 119.46967 -2.3143003 -57.477676 -16.156567 4.7863507 -17.623886 -1.0981954
300000000 -18.904991 -47.687447 -20.749289 -36.530792 -2.1208873 -95.23745 -22.709192 78.785004
-20.736761 -36.765957 -19.601517 -44.132942 -22.429457 79.634872 -2.0395103 -96.658287
-2.1264968 -95.213661 -22.434423 79.687553 -22.905378 -1.2913322 -23.127893 -10.007031
-22.664774 78.651039 -2.0389884 -96.687653 -23.107674 -9.913229 -22.95363 -6.2435131
310000000 -44.054077 167.33435 -31.757544 119.59417 -2.0523057 -136.67525 -22.650047 65.962479
-32.233101 118.43843 -39.744881 -47.170952 -22.496876 65.324081 -2.0378811 -138.03928
-2.0575807 -136.7229 -22.501774 65.358688 -22.029949 55.675026 -22.860598 67.799522
-22.589134 66.22625 -2.0362244 -138.05954 -22.847315 67.736404 -23.068829 41.536419
320000000 -18.705385 58.123386 -17.537197 69.010658 -2.3547468 -176.41943 -20.112598 25.054449
-17.631914 68.720451 -20.258074 48.703308 -20.018763 25.129349 -2.3214262 -177.56512
-2.3623683 -176.40942 -20.015903 25.15403 -16.407242 48.339046 -15.719955 54.642796
-20.071795 24.928459 -2.3217304 -177.60596 -15.720604 54.633839 -17.553024 39.172096
330000000 -14.901043 22.842468 -14.680847 33.253441 -2.5552063 145.78731 -19.381695 -24.96476
-14.705973 33.419052 -16.026806 16.82262 -19.257502 -24.665199 -2.4960775 144.61652
-2.5572455 145.82089 -19.254885 -24.658194 -14.977077 24.748566 -14.111927 26.227713
-19.365635 -25.097536 -2.4983642 144.58315 -14.110797 26.202116 -16.081434 17.394176
340000000 -14.957724 -16.089043 -15.646131 -5.8383408 -2.4877615 108.38969 -20.237803 -75.318077
-15.657606 -5.8508019 -15.827811 -19.811737 -20.102753 -74.927261 -2.4067531 107.09148
-2.4853785 108.40669 -20.099688 -74.942673 -16.666039 -0.35566109 -16.1222 -3.3657656
-20.242672 -75.350609 -2.410114 107.0725 -16.122942 -3.4003639 -17.671183 -4.8732009
350000000 -20.494192 -58.184223 -23.238827 -49.222191 -2.1899102 69.321213 -23.141344 -113.35013
-23.269352 -48.872406 -20.498222 -57.198181 -22.993004 -113.23595 -2.1236331 67.680168
-2.1818488 69.336174 -22.984455 -113.28265 -23.803207 0.4611558 -25.378214 -6.5627799
-23.206312 -113.44882 -2.1262755 67.670731 -25.406 -6.6681447 -23.299881 -1.2810962
360000000 -29.495552 98.783401 -23.896334 107.41601 -2.1801448 28.174236 -22.632645 -130.81407
-24.163204 106.63916 -35.330261 89.788933 -22.551533 -130.3974 -2.1575651 26.655485
-2.1806829 28.070408 -22.561382 -130.49493 -20.622547 54.362652 -20.130569 67.594284
-22.575228 -130.08876 -2.1555347 26.65667 -20.108006 67.516357 -21.186171 40.418213
370000000 -17.245625 49.852612 -15.866303 62.400208 -2.4242265 -11.374953 -20.642654 -171.34158
-15.99864 62.556618 -18.811186 45.23185 -20.496252 -170.49501 -2.3896627 -12.714187
-2.42908 -11.38745 -20.499922 -170.53728 -15.835849 43.572063 -14.584913 48.00576
-20.611361 -171.30153 -2.3911264 -12.736992 -14.585618 47.974892 -16.807865 33.870998
380000000 -14.337184 14.725932 -13.987691 25.852303 -2.5534401 -49.35149 -20.322994 140.51552
-13.992278 26.278622 -15.450146 11.237276 -20.102749 141.17249 -2.4935777 -50.716534
-2.5496981 -49.349327 -20.104753 141.10902 -14.631431 20.917122 -13.524009 19.825396
-20.32942 140.60268 -2.4949679 -50.725159 -13.52632 19.793362 -15.583077 13.868464
390000000 -15.104044 -24.962503 -15.793249 -14.506074 -2.4701595 -87.507202 -21.307083 95.654831
-15.786874 -14.399951 -15.814091 -26.725376 -21.077845 95.950592 -2.4035535 -88.971825
-2.4714808 -87.503754 -21.0837 95.902069 -16.42392 -2.9642427 -15.947219 -8.5048542
-21.312355 95.635239 -2.4035153 -88.984222 -15.946633 -8.496006 -17.040701 -7.3660388
400000000 -22.848154 -73.581001 -27.242332 -72.011574 -2.2992158 -126.61719 -23.222145 59.186474
-27.225462 -69.99498 -22.366627 -70.472954 -23.061636 59.184334 -2.2147665 -128.28221
-2.2809861 -126.64148 -23.063292 59.098343 -24.591734 3.992768 -27.160711 4.2490892
-23.36517 59.707607 -2.2155042 -128.27901 -27.234505 4.2367682 -23.292465 -2.1592774
410000000 -23.353605 82.00808 -19.81085 93.632637 -2.2710071 -167.40215 -22.660017 38.690411
-20.063263 93.306618 -26.627314 77.63208 -22.583496 39.417419 -2.2300014 -169.13776
-2.2775691 -167.51468 -22.594902 39.375401 -18.822336 52.483147 -17.644888 62.279583
-22.559235 39.415859 -2.2242663 -169.15367 -17.636011 62.183552 -19.745834 38.16156
420000000 -15.588675 41.060848 -14.254617 52.806473 -2.5667558 153.14958 -20.455019 -4.4669948
-14.352232 53.277325 -16.980589 38.064766 -20.222937 -3.3820653 -2.5035951 151.58958
-2.5709476 153.17694 -20.229284 -3.4245145 -14.862524 35.663452 -13.406366 37.935238
-20.415661 -4.3813472 -2.5042832 151.54581 -13.408192 37.91338 -15.901196 26.609095
430000000 -13.754088 4.0567899 -13.435146 15.134368 -2.6721632 115.73391 -20.400875 -54.707108
-13.397171 15.277054 -14.697239 1.6174079 -20.163595 -54.326015 -2.5899613 113.88826
-2.6653199 115.67487 -20.172253 -54.379341 -14.40009 11.191422 -13.184043 9.0646658
-20.386543 -54.428535 -2.591222 113.86655 -13.194773 9.0605526 -15.155151 5.3292437
440000000 -15.99365 -36.496521 -16.88785 -26.504642 -2.5161474 77.164131 -21.791904 -96.135826
-16.89398 -26.214373 -16.367516 -38.514732 -21.547594 -96.00489 -2.454524 75.314766
-2.5100868 77.245766 -21.55249 -95.993065 -16.765617 -9.9390202 -16.512531 -15.826507
-21.813456 -96.707153 -2.4573948 75.277512 -16.502232 -15.779716 -16.996132 -13.853642
450000000 -29.434931 -81.102333 -43.450645 179.86314 -2.4801648 37.86195 -22.305796 -132.25175
-43.87944 -148.21733 -27.590256 -79.547646 -22.227634 -132.14003 -2.3913755 35.952679
-2.4493723 37.724762 -22.224194 -132.34332 -25.332582 0.080831595 -27.859936 17.971277
-22.503202 -130.99419 -2.3954864 35.961227 -27.931179 17.827114 -23.360903 -8.9401884
460000000 -19.673849 64.904053 -16.993807 76.707695 -2.510179 -2.0968425 -21.840124 -162.84753
-17.135307 78.013832 -21.83626 60.20937 -21.697638 -161.70383 -2.4374125 -4.1849346
-2.5165877 -2.2563796 -21.723057 -161.72594 -18.017263 49.225002 -16.134279 55.930298
-21.734579 -161.88976 -2.4373848 -4.1938066 -16.12813 55.979439 -19.0347 34.150169
470000000 -14.566704 28.025499 -13.472639 39.636047 -2.7482786 -40.616848 -20.40843 151.60226
-13.428423 40.137753 -15.862079 24.982805 -20.177111 152.30232 -2.6641533 -42.785034
-2.7540436 -40.702671 -20.187767 152.27052 -14.637968 25.964401 -12.983287 27.150259
-20.335556 151.9279 -2.6645148 -42.797874 -12.984267 27.206701 -15.617699 17.288954
480000000 -13.991754 -7.9960566 -13.80864 2.7751105 -2.7212253 -78.038437 -20.858246 101.10612
-13.809907 2.6080554 -14.830935 -10.826407 -20.636681 101.68313 -2.650193 -80.324883
-2.7323632 -78.022957 -20.653872 101.71651 -14.933607 1.5435597 -13.768149 -1.2310313
-20.817692 101.11492 -2.6509299 -80.368889 -13.749514 -1.1394413 -15.582532 -3.5596921
490000000 -18.945024 -44.644501 -20.766636 -34.569862 -2.512753 -116.65814 -22.75342 58.514656
-20.594948 -34.580875 -19.093761 -48.29108 -22.667242 58.45752 -2.4496548 -119.08357
-2.4975696 -116.64416 -22.673605 58.533539 -19.099348 -15.468048 -19.303989 -19.053297
-22.896502 58.543804 -2.4541483 -119.10915 -19.283098 -19.2089 -18.702953 -17.18154
500000000 -28.898054 37.192516 -24.867861 76.808647 -2.429373 -157.099 -23.556627 33.336403
-25.044254 81.122353 -31.70739 3.2236531 -23.552574 35.368877 -2.3951497 -159.48296
-2.4316361 -157.2438 -23.554317 35.350029 -22.885618 21.126444 -22.213045 41.562084
-23.492502 35.081169 -2.3947215 -159.49779 -22.251991 41.742157 -21.778969 3.9163117
510000000 -17.150961 41.568798 -15.42975 57.8783 -2.6783159 163.06538 -21.442217 -1.8259645
-15.328161 58.45438 -19.112204 39.272957 -21.167725 0.2200561 -2.6226466 160.75424
-2.685298 163.02821 -21.166084 0.21388124 -17.530624 37.976273 -15.071253 43.348877
-21.328175 -1.4930571 -2.6244066 160.71365 -15.057307 43.418613 -18.383167 24.309231
520000000 -14.22327 12.102779 -13.273144 25.311485 -2.8659527 125.74907 -20.48328 -54.336693
-13.247808 25.218565 -15.424499 9.6325397 -20.185444 -52.933315 -2.7990305 123.36296
-2.8777409 125.76881 -20.195284 -52.916172 -15.222397 17.76317 -13.160663 16.81757
-20.410889 -54.321705 -2.7997289 123.31658 -13.148129 16.85741 -16.060009 9.3946209
530000000 -14.849869 -19.629557 -14.762185 -9.0056353 -2.708581 88.230011 -21.70845 -104.67316
-14.791578 -8.8976736 -15.481793 -23.099813 -21.42281 -104.08786 -2.6358168 85.580917
-2.7029154 88.30098 -21.414988 -104.01582 -16.233952 -4.9868855 -14.96489 -8.9415588
-21.694008 -104.99484 -2.6437173 85.539772 -14.95705 -9.108676 -16.578972 -8.709178
540000000 -21.936619 -40.578335 -24.74659 -27.532398 -2.4760916 48.20573 -24.061155 -136.34412
-24.686012 -27.67038 -21.596151 -50.985802 -24.043034 -135.16551 -2.4392684 45.542877
-2.4660282 48.189499 -24.031313 -135.12384 -20.841125 -5.6694899 -21.515533 -5.1712556
-24.125635 -136.12112 -2.4440031 45.52174 -21.551537 -5.024653 -19.682476 -11.067785
550000000 -23.069431 35.817837 -20.631807 67.352104 -2.6355119 7.9374533 -22.712185 -164.74261
-20.646616 67.943535 -26.834696 28.871002 -22.490799 -161.99713 -2.5775435 5.4220161
-2.6301155 7.9185729 -22.460358 -162.09256 -20.673809 24.913225 -18.867641 42.221756
-22.708055 -164.42729 -2.5844774 5.3994818 -18.841461 42.232021 -20.392853 8.2170811
560000000 -16.126432 25.163162 -14.471515 43.142586 -2.9571564 -30.365675 -20.514585 150.58908
-14.430005 43.234383 -17.683058 25.155008 -20.162689 152.4175 -2.8714287 -33.169064
