!Keysight Technologies,N5231B,MY57181281,A.17.25.05
!Date: Friday, March 07, 2025 17:18:21
!Correction: S11(C  4-Port  ) 
!S12(C  4-Port  ) 
!S13(C  4-Port  ) 
!S14(C  4-Port  ) 
!S21(C  4-Port  ) 
!S22(C  4-Port  ) 
!S23(C  4-Port  ) 
!S24(C  4-Port  ) 
!S31(C  4-Port  ) 
!S32(C  4-Port  ) 
!S33(C  4-Port  ) 
!S34(C  4-Port  ) 
!S41(C  4-Port  ) 
!S42(C  4-Port  ) 
!S43(C  4-Port  ) 
!S44(C  4-Port  ) 
!S4P File: Measurements: <S11,S12,S13,S14>,
!<S21,S22,S23,S24>,
!<S31,S32,S33,S34>,
!<S41,S42,S43,S44>:
# Hz S  dB   R 50
10000000 -27.763817 35.870544 -31.271868 53.654938 -0.19354515 -22.554373 -39.107777 -143.01794
-31.278049 53.66441 -26.759792 30.177914 -39.008045 -143.27603 -0.25465816 -22.621786
-0.1907645 -22.553751 -38.997463 -143.28371 -28.03373 42.506283 -31.034922 60.912289
-39.111305 -143.02682 -0.2524595 -22.625187 -31.036865 60.918102 -28.037683 30.763971
20000000 -24.557594 15.669165 -27.200991 30.913118 -0.26874819 -44.445274 -35.273403 -164.11974
-27.203754 30.926842 -23.880013 13.658753 -35.185688 -164.92384 -0.32842174 -44.603687
-0.26584166 -44.444035 -35.177654 -164.97577 -24.927835 30.264896 -26.729418 45.47739
-35.280704 -164.12817 -0.32681918 -44.606487 -26.729719 45.478859 -25.794704 22.208406
30000000 -23.855515 -7.6637688 -26.301573 6.4099483 -0.32638577 -66.23909 -32.833893 176.59778
-26.30349 6.4210238 -23.35519 -7.0820289 -32.815815 175.39006 -0.38565373 -66.50106
-0.32405677 -66.241631 -32.808319 175.34377 -24.244286 18.305506 -25.403093 31.098097
-32.841156 176.57782 -0.38488516 -66.507027 -25.401243 31.095098 -25.679554 13.802307
40000000 -25.167543 -35.162727 -28.11739 -21.489098 -0.37813291 -88.088722 -30.530151 157.74583
-28.11677 -21.489695 -24.957008 -31.548986 -30.591898 156.57591 -0.43976235 -88.442482
-0.37593123 -88.082794 -30.586782 156.52118 -25.256647 10.208389 -26.056143 21.502899
-30.536236 157.72122 -0.43882465 -88.453445 -26.049171 21.475845 -27.175102 11.815362
50000000 -29.640779 -75.709785 -35.693455 -68.195206 -0.44660002 -110.05865 -27.905802 136.12895
-35.67329 -68.244041 -30.654579 -67.847076 -28.009811 135.30301 -0.51548898 -110.54683
-0.44391894 -110.0561 -28.004169 135.2751 -27.67346 16.285679 -28.01223 27.658924
-27.910711 136.12424 -0.51316565 -110.55086 -28.001553 27.576801 -29.027411 30.574482
60000000 -33.395145 162.89836 -31.408983 133.18294 -0.59110713 -132.12636 -24.969398 107.05769
-31.397717 133.49782 -33.369537 137.22649 -25.063595 106.41402 -0.67523026 -132.75142
-0.58818775 -132.13132 -25.060102 106.2637 -26.764524 44.078056 -26.455084 51.519398
-24.976284 106.96766 -0.67378378 -132.74841 -26.460751 51.346344 -25.544834 55.134823
70000000 -24.964762 80.790314 -23.709436 79.002586 -0.87585205 -153.05965 -23.012827 61.358761
-23.662493 78.959175 -23.365776 72.773773 -23.104965 60.927746 -0.99870914 -153.66852
-0.8694126 -153.07635 -23.17737 61.152657 -22.886778 37.887512 -22.777071 41.33535
-23.067415 61.557598 -0.98781574 -153.66183 -22.804766 41.315273 -21.520613 39.673191
80000000 -24.796154 49.588398 -24.47509 52.224277 -0.78976256 -172.86349 -26.481606 20.857788
-24.512867 52.127682 -23.361031 43.143467 -26.565392 21.027996 -0.89206821 -173.21773
-0.79102951 -172.8869 -26.444885 21.360809 -24.640219 32.942852 -24.930967 36.505688
-26.404215 21.202503 -0.89408189 -173.27435 -24.921925 36.68811 -23.526581 27.858355
90000000 -22.108665 38.624657 -22.353119 44.801151 -0.77561915 165.25446 -26.920279 12.176538
-22.368914 44.988163 -21.244957 35.377541 -26.863876 12.102686 -0.8548193 164.76331
-0.77383041 165.25362 -26.796789 11.834969 -22.262442 40.582939 -22.298822 44.690392
-26.883059 11.949862 -0.85762966 164.75623 -22.297646 44.571743 -22.045259 34.696281
100000000 -22.42511 14.97751 -23.314669 25.123783 -0.74405217 144.60403 -29.092325 -21.62742
-23.259289 25.114296 -21.784092 14.274287 -28.922606 -21.16781 -0.82083315 144.08333
-0.74137086 144.64615 -29.018356 -22.840927 -22.502373 31.978413 -22.464624 34.417667
-29.135296 -22.319351 -0.81720936 144.12718 -22.443466 34.569878 -22.856134 24.984602
110000000 -21.598627 2.5986626 -22.43644 14.971804 -0.63718563 122.20183 -29.674189 -1.8380997
-22.441679 14.898849 -21.197844 4.8401041 -29.494719 -4.4735889 -0.69426316 121.51041
-0.63072026 122.19397 -29.541731 -3.6101239 -21.532509 35.584282 -21.477015 35.896507
-29.698643 -1.6340138 -0.68982792 121.49504 -21.474215 35.668488 -22.381779 33.414036
120000000 -22.476698 -29.475729 -24.148325 -16.83223 -0.68972385 99.821625 -25.930124 -14.612746
-24.150286 -16.854275 -22.481735 -24.039551 -25.973122 -17.015287 -0.74835992 98.929306
-0.68542659 99.80526 -25.943518 -16.714302 -21.497791 30.887983 -21.714066 28.772827
-25.93784 -14.554424 -0.74538887 98.912636 -21.726677 28.585861 -22.318289 32.400906
130000000 -26.789013 -82.807137 -31.569164 -81.242012 -0.80600268 77.397179 -22.82637 -37.584991
-31.557438 -81.30529 -28.691057 -75.301872 -22.949547 -39.547352 -0.87558281 76.296242
-0.80249089 77.379486 -22.914789 -39.442104 -21.965673 36.301991 -22.783667 34.284512
-22.831831 -37.542427 -0.87336093 76.281578 -22.812305 34.066208 -22.279551 41.816265
140000000 -26.573912 160.30397 -25.330009 141.7951 -1.0924286 55.112335 -19.918629 -70.508194
-25.304869 141.89433 -26.377619 141.02647 -20.052944 -71.906059 -1.1933924 53.822723
-1.0906572 55.101372 -20.046236 -71.995621 -20.103992 43.959347 -20.983561 45.515865
-19.931919 -70.436546 -1.1917136 53.815487 -21.030886 45.63295 -19.582157 47.83432
150000000 -20.484972 91.116783 -19.227997 88.828323 -1.5069329 35.102116 -18.5942 -114.05196
-19.219589 88.733963 -19.133684 82.802895 -18.686872 -115.90468 -1.6548756 33.809254
-1.495943 35.019936 -18.702253 -115.12919 -18.189123 31.613148 -18.85392 34.484322
-18.592358 -113.83774 -1.6504605 33.773285 -18.827913 33.979847 -17.437206 32.583179
160000000 -19.840504 52.270416 -19.099257 54.24741 -1.4444467 16.567852 -20.262341 -157.06554
-19.131514 54.253204 -18.497839 45.913555 -20.517637 -158.10422 -1.6080152 15.734082
-1.4620599 16.525213 -20.296705 -157.82782 -19.777494 17.671991 -20.3521 20.883131
-20.183949 -156.84775 -1.6195122 15.686126 -20.456575 21.074669 -18.83359 13.555155
170000000 -19.799122 39.219044 -19.53565 44.464687 -1.2710506 -4.6053343 -22.557661 -179.93814
-19.527359 44.634617 -18.933905 33.787262 -22.665024 -179.24008 -1.387153 -5.3362436
-1.27288 -4.476747 -22.615889 178.86855 -20.520208 26.257198 -20.68372 31.680485
-22.527615 179.69655 -1.3869164 -5.2711716 -20.588316 32.482559 -20.376457 18.399103
180000000 -18.761053 24.334888 -18.781031 32.538513 -1.2296017 -26.097326 -23.55261 163.34111
-18.759144 32.569332 -18.283497 21.645382 -23.374037 163.1095 -1.3140417 -27.003576
-1.2167343 -26.069382 -23.588156 162.49489 -19.468462 26.884735 -18.988428 31.414019
-23.557775 163.09857 -1.3064886 -27.001225 -18.903906 30.832001 -19.832785 21.677359
190000000 -18.068197 0.28321171 -18.460056 10.325457 -1.2861038 -47.812077 -22.952129 147.78433
-18.441492 10.323789 -17.82431 0.4278864 -22.829901 146.60468 -1.3602501 -48.948143
-1.2751008 -47.828068 -22.90407 146.99387 -18.406935 17.746252 -17.610237 18.936604
-22.954426 147.63454 -1.3583028 -48.946857 -17.632502 18.44305 -18.745609 14.271828
200000000 -20.776466 -27.184818 -22.016394 -12.127975 -1.1674811 -68.489487 -25.028727 123.22057
-22.019569 -12.281755 -20.974218 -23.98321 -24.841585 120.15845 -1.2435259 -69.818336
-1.1640095 -68.628052 -24.828697 122.03654 -20.389809 9.0166349 -19.359913 6.3853698
-25.065987 122.8718 -1.239139 -69.816452 -19.517735 5.4496059 -20.906597 6.4288898
210000000 -25.285202 -59.389385 -28.929396 -35.582245 -1.0872791 -91.02626 -25.059427 123.45723
-28.946056 -35.809498 -26.770464 -49.531105 -25.166731 121.09689 -1.1764203 -92.455765
-1.1025881 -91.076805 -24.908897 120.81273 -22.230642 15.144141 -21.772301 4.6046042
-25.121372 123.76938 -1.1698458 -92.469543 -22.026176 5.5404687 -22.879303 14.20848
220000000 -31.22389 -174.05241 -30.399469 137.13062 -1.2550335 -113.93313 -21.611586 110.52464
-30.362669 137.18105 -32.515697 146.08015 -21.610458 108.31789 -1.3428061 -115.49574
-1.2613953 -113.908 -21.576805 107.76321 -21.800304 32.589767 -23.357126 24.7973
-21.581455 110.78744 -1.3404278 -115.54529 -23.230629 25.973515 -22.177139 35.300011
230000000 -21.721403 100.09861 -19.96771 94.540939 -1.5838331 -135.07993 -19.343077 77.377792
-19.964005 94.591515 -20.302502 89.040825 -19.419689 74.616508 -1.6959655 -136.86368
-1.5899457 -135.10521 -19.346449 74.481796 -19.945038 34.173153 -21.485826 36.844032
-19.311249 77.360733 -1.6991516 -136.88271 -21.531918 36.571236 -19.713461 36.789684
240000000 -18.109894 60.140732 -17.107317 61.357121 -1.8763986 -154.24902 -18.119892 35.999115
-17.100521 61.403683 -16.85644 53.582024 -18.355057 33.697044 -2.0393393 -155.86455
-1.8901877 -154.22316 -18.261026 33.334091 -18.088909 17.770649 -18.97983 21.612135
-18.090506 35.980232 -2.041913 -155.87024 -19.033121 22.10824 -17.392822 16.246593
250000000 -18.305235 40.911858 -17.711079 45.354279 -1.6589271 -174.1004 -20.057608 3.2476099
-17.69696 45.403648 -17.281223 34.329456 -20.311876 1.9829066 -1.7979767 -175.44328
-1.6649159 -174.01074 -20.249649 1.0905949 -20.260338 15.66896 -20.853373 23.803089
-20.033298 3.0423586 -1.7979817 -175.41611 -20.841787 24.600021 -19.881021 8.0530291
260000000 -17.396778 28.03479 -17.110851 35.08728 -1.6108376 164.82555 -20.873335 -20.233006
-17.094723 35.083221 -16.861902 23.086681 -20.995628 -20.986942 -1.7073342 163.40012
-1.6088421 164.89671 -21.012419 -21.853031 -19.94356 19.478811 -19.506912 27.890762
-20.853008 -20.586514 -1.7053553 163.43834 -19.448254 28.217207 -20.438623 12.183613
270000000 -17.228891 9.6387033 -17.135933 19.509209 -1.5509933 144.01466 -21.60005 -45.860962
-17.120913 19.443609 -16.926786 7.4832892 -21.698046 -46.47374 -1.6364015 142.37631
-1.5532874 144.0717 -21.694614 -47.19561 -19.562477 16.378021 -18.386158 20.614702
-21.618162 -46.306454 -1.6300353 142.40791 -18.364075 20.983377 -20.295029 11.495008
280000000 -18.626665 -8.7104082 -18.625732 4.7786875 -1.405588 122.96599 -23.386919 -71.79454
-18.624594 4.637063 -18.426575 -8.1090841 -23.368439 -71.781937 -1.4891521 121.17738
-1.4042208 123.03638 -23.398298 -72.67408 -19.901531 10.362334 -18.420319 9.0473604
-23.454714 -72.090744 -1.4799173 121.17412 -18.386028 9.4525471 -20.674044 6.7537098
290000000 -21.351627 -24.351889 -21.3759 -5.8489156 -1.256739 101.0312 -26.21085 -85.316544
-21.400009 -5.923945 -21.249966 -19.874531 -25.8619 -85.663727 -1.3396648 99.093697
-1.2534927 101.07932 -25.936193 -86.294228 -21.227377 4.2719336 -19.830027 -3.886359
-26.278942 -85.036041 -1.334596 99.055046 -19.784824 -3.4069555 -22.055794 0.7561897
300000000 -27.559803 -37.145981 -27.323738 -3.2669435 -1.2316394 78.441139 -26.483049 -80.274284
-27.350182 -3.1243384 -27.417158 -21.124308 -26.083351 -84.629715 -1.3215244 76.394279
-1.2302649 78.480797 -26.113203 -85.197464 -23.628794 7.6110482 -23.516356 -9.9180708
-26.442808 -80.250648 -1.322347 76.37429 -23.392763 -9.5829754 -25.08169 4.8174491
310000000 -33.317715 64.377991 -27.648254 64.0877 -1.3678366 56.337448 -23.607685 -93.793991
-27.617786 64.348808 -28.681919 53.330193 -23.760473 -98.174873 -1.4542621 54.09
-1.3686354 56.402229 -23.811813 -99.023636 -26.075655 21.014257 -29.781584 8.4504061
-23.612452 -93.917679 -1.4527268 54.092411 -29.766167 9.0432501 -27.321545 28.908545
320000000 -23.093311 67.980408 -21.290619 70.60511 -1.5171988 35.097824 -22.024477 -121.05518
-21.257532 70.546532 -21.618782 60.319271 -22.344488 -124.15743 -1.6140538 32.779533
-1.5143356 35.211353 -22.475368 -125.20747 -22.936497 47.650242 -24.146582 63.312309
-22.049871 -121.31358 -1.6083623 32.807659 -24.003632 63.542965 -22.4419 50.579914
330000000 -19.394167 53.986687 -18.112885 60.995979 -1.5546683 14.069907 -21.946264 -145.61797
-18.106186 60.891983 -18.238186 49.354492 -22.214403 -147.384 -1.651814 11.563134
-1.5419412 14.158451 -22.399929 -147.77121 -22.002817 52.662865 -21.104765 69.285667
-21.982864 -145.70857 -1.6458236 11.553607 -20.992306 68.547455 -21.823977 51.649345
340000000 -17.481001 37.748608 -16.365656 47.129707 -1.636251 -6.7968245 -21.406919 -172.56117
-16.365162 47.055264 -16.427778 34.060555 -21.658552 -173.60497 -1.7568936 -9.4427958
-1.6228063 -6.7442365 -21.801193 -173.64102 -19.201046 48.466644 -17.467619 57.775833
-21.424845 -172.46768 -1.7533412 -9.4742317 -17.417212 57.277725 -19.117388 46.261768
350000000 -16.598589 24.636477 -15.50514 35.049911 -1.5949161 -27.584377 -22.235279 161.5947
-15.508276 35.005688 -15.746164 20.862217 -22.322704 161.1506 -1.7273294 -30.212048
-1.5784312 -27.539589 -22.482573 161.04739 -18.118839 40.833088 -16.044952 44.848946
-22.256823 161.48093 -1.7249154 -30.21809 -16.015234 44.348236 -18.260269 38.201183
360000000 -15.989383 8.9492712 -14.974771 19.957478 -1.5559078 -48.721684 -22.920187 140.71324
-14.975963 19.934675 -15.336852 6.5053139 -22.899393 139.58626 -1.6874329 -51.483265
-1.5400369 -48.727623 -23.060627 139.93066 -17.381248 29.937765 -15.25892 29.410442
-22.955082 140.69421 -1.6843821 -51.486706 -15.25989 28.971806 -17.48251 27.814329
370000000 -16.387564 -9.404254 -15.471757 2.0522552 -1.4847622 -69.924133 -23.795862 120.59278
-15.475198 2.0370688 -15.766149 -10.732863 -23.798637 118.93092 -1.6447014 -72.814034
-1.4747329 -69.950165 -23.910919 119.51393 -17.885334 16.391714 -15.794743 11.294443
-23.83922 120.66524 -1.6404283 -72.818306 -15.809008 11.054058 -17.838858 12.626724
380000000 -18.016245 -28.895044 -17.358921 -16.44153 -1.3844939 -91.707985 -25.140961 108.28174
-17.367456 -16.414215 -17.69548 -28.777458 -25.147257 106.5631 -1.542889 -94.307602
-1.3792912 -91.71917 -25.198462 107.09551 -19.858753 5.3077416 -18.0984 -5.2817049
-25.14369 108.46861 -1.5394775 -94.333366 -18.089199 -5.4698758 -20.261868 -0.22823057
390000000 -22.147509 -53.529732 -22.052322 -38.602394 -1.3547035 -113.65909 -24.87219 98.621078
-22.049467 -38.498367 -21.838333 -49.696468 -24.934593 96.472267 -1.5076189 -116.37215
-1.3505234 -113.65434 -24.98012 96.823868 -25.081041 6.3027368 -24.434944 -17.057283
-24.883833 98.594444 -1.5047529 -116.37572 -24.429882 -17.254431 -26.140739 -1.1246811
400000000 -35.880695 -106.26046 -48.087921 -83.11087 -1.3806243 -135.82977 -23.576551 86.399109
-47.795296 -81.786201 -37.629215 -73.412102 -23.709383 84.234505 -1.5169617 -138.58786
-1.3709946 -135.80345 -23.825058 84.877365 -25.562904 66.128632 -28.189638 78.951317
-23.638428 86.660561 -1.5056901 -138.59506 -28.213438 78.906654 -26.272055 67.71489
410000000 -23.971085 91.595314 -21.692295 94.043053 -1.4357221 -158.21948 -21.847763 72.443275
-21.699976 94.092484 -23.336813 81.495087 -22.013361 71.015404 -1.537522 -161.18806
-1.4262578 -158.21216 -22.023294 71.602936 -20.147449 71.670441 -19.5394 82.311501
-21.83836 72.626289 -1.5323792 -161.23706 -19.53755 82.08329 -20.599461 70.112595
420000000 -18.069584 63.066998 -16.426483 70.562309 -1.6566267 179.77211 -19.72353 46.618847
-16.428062 70.576714 -17.511362 57.664562 -19.870054 45.370068 -1.762199 176.45093
-1.645304 179.78137 -19.890581 45.740433 -16.786161 64.49601 -15.258914 70.539345
-19.731665 46.69928 -1.75919 176.41455 -15.273564 70.33754 -17.091763 63.092171
430000000 -15.313624 40.853703 -13.854801 50.01004 -1.8553262 158.94221 -18.975122 16.916746
-13.855846 50.016541 -14.750987 37.215519 -19.108387 15.790738 -1.9751148 155.34132
-1.8421997 158.92459 -19.118814 16.224566 -14.892684 48.838223 -12.997282 51.750031
-18.974789 17.04855 -1.9746262 155.29356 -13.012019 51.581825 -14.990336 46.264133
440000000 -14.018268 18.210049 -12.690795 28.313072 -1.9906788 138.42587 -18.570934 -11.309922
-12.694047 28.31377 -13.39282 15.306043 -18.719246 -12.385167 -2.1516283 134.45398
-1.9793185 138.39406 -18.724012 -12.06175 -14.305485 32.494015 -12.150352 32.847404
-18.570276 -11.260358 -2.1533284 134.42653 -12.169257 32.702827 -14.223002 28.60471
450000000 -13.988287 -3.9615993 -12.763178 6.2464266 -2.0515292 118.57377 -18.592394 -42.788944
-12.765859 6.3238459 -13.224431 -7.9833431 -18.748297 -43.388783 -2.3366153 114.4589
-2.0422664 118.52512 -18.749933 -43.185654 -14.866379 14.331382 -12.472918 11.94159
-18.606306 -42.787254 -2.3393879 114.46631 -12.49505 11.842055 -14.520666 6.8757796
460000000 -15.209979 -25.777252 -14.326919 -15.268147 -1.8622674 98.910614 -20.520607 -76.529121
-14.317946 -15.243879 -14.919663 -31.863762 -20.614159 -77.208702 -2.1763639 95.930359
-1.8567801 98.832726 -20.645658 -76.788742 -17.453934 2.5691981 -14.951079 -4.7910881
-20.550938 -76.271782 -2.172951 95.910484 -14.976173 -4.8106246 -17.911921 -9.859458
470000000 -17.091181 -45.647072 -16.553259 -34.780205 -1.6062938 76.748398 -23.179382 -84.913231
-16.541641 -34.766994 -17.140518 -49.143234 -23.277391 -85.131653 -1.8238561 73.775063
-1.6106609 76.689384 -23.189358 -84.786484 -19.516247 -2.4874053 -17.513601 -14.48073
-23.10359 -84.576752 -1.8307531 73.733948 -17.517075 -14.453444 -20.211927 -12.187173
480000000 -21.161919 -75.834709 -21.631083 -66.170647 -1.5452771 54.220959 -22.941435 -89.701141
-21.616337 -66.155418 -21.39193 -77.171097 -22.929199 -90.108101 -1.7275602 51.089954
-1.544639 54.22559 -22.968452 -90.28466 -25.306591 2.3791506 -24.636286 -19.719431
-22.947586 -89.947624 -1.7302263 51.129696 -24.643684 -20.079744 -26.313259 -12.060699
490000000 -30.191862 -170.33162 -29.250874 165.50143 -1.555656 31.905907 -21.851463 -102.03982
-29.2349 165.87239 -31.243265 -177.1458 -21.824585 -103.18829 -1.7199275 28.669586
-1.5531734 31.878944 -21.824438 -102.76324 -23.946987 64.918175 -24.696854 75.607414
-21.849033 -101.90044 -1.7164849 28.665577 -24.691317 75.903419 -26.014572 63.861916
500000000 -21.024704 90.029266 -18.535725 95.096817 -1.6826394 9.4794912 -19.98628 -120.70324
-18.536657 95.208168 -20.801655 83.980339 -20.013702 -122.20886 -1.8237376 6.0371609
-1.6838862 9.4725037 -20.002262 -122.18396 -18.317745 67.606575 -16.875954 74.673546
-19.973564 -120.76896 -1.8240556 6.0397267 -16.872581 74.656738 -19.327024 67.195122
510000000 -16.306767 54.731888 -14.415768 64.021355 -1.8841752 -12.219792 -18.607899 -145.97989
-14.411423 64.102509 -16.073956 49.317455 -18.71636 -147.53064 -2.0229168 -16.029274
-1.8819791 -12.220872 -18.723949 -147.41611 -15.411902 54.299965 -13.347802 58.104153
-18.609282 -146.01341 -2.0215969 -16.024214 -13.350168 58.056095 -16.005243 52.035534
520000000 -14.692561 30.17247 -12.943438 41.172447 -2.0862281 -32.809975 -18.039801 -176.45325
-12.930392 41.189869 -14.561664 24.164366 -18.196999 -177.72986 -2.2905025 -36.722897
-2.0852058 -32.803589 -18.195492 -177.67105 -14.282597 39.350273 -11.844479 40.37257
-18.03842 -176.52472 -2.2896838 -36.716846 -11.854345 40.329395 -14.767529 34.394138
530000000 -13.992941 13.348618 -12.238407 24.76384 -2.0909739 -52.98764 -18.907478 156.93973
-12.237194 24.723927 -14.267288 8.5352726 -19.103178 155.98993 -2.2417879 -56.50626
-2.0851355 -52.987656 -19.119297 156.19977 -13.91369 26.427589 -11.314646 25.136213
-18.915117 156.97095 -2.2387533 -56.522129 -11.321918 25.077919 -14.599921 22.182524
540000000 -13.425071 -6.370316 -11.746863 4.513608 -2.0445721 -73.856209 -19.338608 136.5858
-11.746687 4.5090432 -13.522592 -9.1564035 -19.54327 136.15517 -2.1674743 -77.930939
-2.0411534 -73.864471 -19.533653 136.28667 -14.092197 11.565173 -11.353744 8.1564541
-19.331558 136.58075 -2.168721 -77.93734 -11.364632 8.1083584 -14.319097 7.3075128
550000000 -14.052131 -29.260725 -12.55794 -18.698872 -1.9776953 -94.894554 -19.72002 116.1033
-12.557561 -18.708988 -13.974748 -31.620464 -19.888386 116.26395 -2.1429653 -99.24926
-1.9748884 -94.896416 -19.882135 116.27891 -15.296408 -5.0952454 -12.488234 -10.542871
-19.716614 115.962 -2.1449726 -99.231514 -12.500111 -10.589311 -15.059223 -11.933504
560000000 -16.155365 -54.478245 -14.980135 -44.107117 -1.8690717 -116.42719 -20.210743 99.342934
-14.979385 -44.113281 -15.914416 -55.901264 -20.251436 100.04015 -2.0557816 -120.80754
