!Keysight Technologies,N5231B,MY57181281,A.17.25.05
!Automatic Fixture Removal (AFR)
!Date: Friday, March 07, 2025, 04:12:54
!S2P File: Measurements: S11,S21,S12,S22:
# MHz S  RI   R 50
10           0.000287328494770307     -0.00051216297752032     0.998619008527631        -0.0186440822700185      0.998619008527631        -0.0186440822700185      0.00354317390972969      0.000818946902783238    
20           0.000230543117004626     -0.00101392158039922     0.996906425851544        -0.0369258570313815      0.996906425851544        -0.0369258570313815      0.00293508743701691      7.62303640446757E-05    
30           0.000173501300998645     -0.00149409009150975     0.995585801902725        -0.0543330117980992      0.995585801902725        -0.0543330117980992      0.00279415510031308      0.00117596322717708     
40           0.000113070587363289     -0.00197674013383514     0.994554105711996        -0.0718850346877337      0.994554105711996        -0.0718850346877337      0.00343774278648335      0.0012934539898398      
50           3.06482714255484E-05     -0.00245894081489228     0.993023189943073        -0.0895172100951729      0.993023189943073        -0.089517210095173       0.00423398771064846      0.000349913944333666    
60           -7.20686441561959E-05    -0.00294416130416078     0.991082011254034        -0.107387263582338       0.991082011254034        -0.107387263582338       0.00469547003624321      -0.000161587288977163   
70           -0.000193224501437756    -0.00342169856307278     0.988765481032892        -0.125062667387411       0.988765481032892        -0.125062667387411       0.00491568322379269      -0.000238032338360975   
80           -0.000336503764604071    -0.00389508455610133     0.985932841992628        -0.14274132040642        0.985932841992628        -0.14274132040642        0.00528893245033626      -0.000750003137179046   
90           -0.000494764978431219    -0.00435656267016704     0.982828934696323        -0.160081169808035       0.982828934696323        -0.160081169808035       0.00584852297583842      -0.00144486594677931    
100          -0.000664330416883217    -0.00481212668354853     0.979632989603949        -0.177319233677422       0.97963298960395         -0.177319233677422       0.00652458908339835      -0.00209446288261959    
110          -0.000848295512347692    -0.00526269548306304     0.976217194913473        -0.194525960180814       0.976217194913473        -0.194525960180814       0.00697850180279254      -0.00262457864113064    
120          -0.00105021022398699     -0.00570777063392018     0.972428284112103        -0.211726368180779       0.972428284112103        -0.211726368180779       0.00703599625177331      -0.00297498664246188    
130          -0.00126847870709793     -0.00614527953972142     0.968312850309422        -0.228843485080447       0.968312850309422        -0.228843485080447       0.00695387015596713      -0.00330588728964124    
140          -0.00150182178692218     -0.00657023408330733     0.963867626974393        -0.245680200167484       0.963867626974393        -0.245680200167484       0.0068723361586506       -0.00360960251132627    
150          -0.00175620742237861     -0.0069949879486348      0.958973182359431        -0.26282879717114        0.958973182359431        -0.26282879717114        0.00701891777614144      -0.00424747730953602    
160          -0.00201458127172264     -0.00740384067138248     0.954149949919335        -0.27947517444399        0.954149949919335        -0.279475174443991       0.00722166919552892      -0.00492001973138649    
170          -0.00229299889766209     -0.00780855006125583     0.948872170255471        -0.296294973754491       0.948872170255471        -0.296294973754491       0.00755980093269375      -0.00564506788547476    
180          -0.0025845845192421      -0.00820159435333768     0.943323289600661        -0.312921886508721       0.943323289600661        -0.312921886508721       0.00780821317997296      -0.00647924376388476    
190          -0.00288814889458341     -0.00858872163039121     0.937620302615474        -0.329584574122927       0.937620302615475        -0.329584574122927       0.00783013063171633      -0.00729398649963563    
200          -0.00321270307849325     -0.00895929887440461     0.931252121123431        -0.346005108618129       0.931252121123431        -0.346005108618129       0.00768607445460991      -0.00803786571700974    
210          -0.00354313516240602     -0.00931657103016101     0.924851035845228        -0.362116443758834       0.924851035845228        -0.362116443758834       0.0074385353026268       -0.00870002397344074    
220          -0.00388789719666863     -0.00966718360982881     0.918178043062821        -0.378319280624806       0.918178043062821        -0.378319280624806       0.00725964316364351      -0.00925388582539113    
230          -0.00424486684631642     -0.0100049895451087      0.911217309941792        -0.394356404774958       0.911217309941792        -0.394356404774958       0.00719212177928986      -0.00964782332607058    
240          -0.00461358901255609     -0.0103303416224758      0.903983242029381        -0.410251643954909       0.903983242029381        -0.410251643954909       0.00717752855527806      -0.0099037215067256     
250          -0.00499471175880021     -0.0106423109650348      0.896425876018316        -0.425998711164622       0.896425876018316        -0.425998711164622       0.00712050014040114      -0.0100766699427763     
260          -0.00538788747530941     -0.0109410612769769      0.888552983577137        -0.441617815119807       0.888552983577137        -0.441617815119807       0.00700263212174831      -0.0102885963554846     
270          -0.00579065541966545     -0.0112263255115886      0.880444289480644        -0.457070703334449       0.880444289480645        -0.457070703334449       0.00678735787489483      -0.0106067152064084     
280          -0.00620319629127342     -0.0114967953056414      0.872057237696138        -0.472327848321345       0.872057237696138        -0.472327848321345       0.00646170643386159      -0.0110917287154252     
290          -0.00662643148128446     -0.0117535987408983      0.863370479448999        -0.48746785773594        0.863370479448999        -0.48746785773594        0.00605097883008518      -0.0118040199484208     
300          -0.00705305949678996     -0.0119947582688646      0.854601941366388        -0.502279218473061       0.854601941366388        -0.502279218473061       0.00552745018170901      -0.012531370533746      
310          -0.00748878231116111     -0.0122281667019364      0.845702436753357        -0.517180829663677       0.845702436753357        -0.517180829663677       0.00497210064890958      -0.0133232918465035     
320          -0.00793820121292342     -0.012447059942503       0.83635864621878         -0.532044268339228       0.83635864621878         -0.532044268339228       0.00439786847439565      -0.0140225999008308     
330          -0.0083959406186142      -0.012647504368337       0.82666688510728         -0.546631299580256       0.82666688510728         -0.546631299580256       0.00385022246385395      -0.0145810034744749     
340          -0.00885946599766644     -0.0128316579746258      0.8167526327079          -0.560978206859914       0.8167526327079          -0.560978206859914       0.00337416532283029      -0.0150037098690373     
350          -0.00932873579150981     -0.0130002821602155      0.806622696205673        -0.57512510995946        0.806622696205674        -0.575125109959461       0.00295481289422163      -0.0153150779940311     
360          -0.00980417959169695     -0.0131529683501737      0.796241358283602        -0.589083282241687       0.796241358283602        -0.589083282241687       0.00263361069972098      -0.0154827910089089     
370          -0.0102847314388689      -0.0132894124586994      0.785625131583206        -0.602831849370812       0.785625131583206        -0.602831849370812       0.00233593416229756      -0.015687793959903      
380          -0.0107701494147764      -0.0134107920040952      0.774801263712967        -0.616418699194531       0.774801263712967        -0.616418699194531       0.00202869288655546      -0.0159332673559376     
390          -0.0112601645073933      -0.0135160839778784      0.763741181857429        -0.629816785962254       0.763741181857429        -0.629816785962254       0.00161767604148125      -0.016264689655957      
400          -0.0117541398014218      -0.0136051262216852      0.75245058684235         -0.643018233040416       0.75245058684235         -0.643018233040416       0.00108620831982023      -0.0166066119998289     
410          -0.0122509643731107      -0.0136776794319481      0.740947152378469        -0.655999512461507       0.74094715237847         -0.655999512461507       0.000477019413482418     -0.0169835669953295     
420          -0.0127511844882451      -0.0137345228950321      0.729223972541299        -0.668814953610319       0.7292239725413          -0.668814953610319       -0.000176097140191941    -0.0174057511046617     
430          -0.013253868372898       -0.0137745089525955      0.71726736843535         -0.681416332753349       0.71726736843535         -0.681416332753349       -0.000815183320948342    -0.0177804813787971     
440          -0.0137598761090779      -0.0137978203689362      0.705045772453956        -0.693850628725073       0.705045772453956        -0.693850628725073       -0.00125458061234238     -0.0180559945282437     
450          -0.0142665862247712      -0.0138024131792009      0.692564898957804        -0.705994546440008       0.692564898957804        -0.705994546440008       -0.00160177388523588     -0.0182955033772551     
460          -0.0147719789722839      -0.0137893296070328      0.67990002146235         -0.717833281268787       0.67990002146235         -0.717833281268787       -0.00178303282509587     -0.0184889999146453     
470          -0.0152761915186014      -0.0137609813254909      0.667105206154261        -0.729452585981227       0.667105206154261        -0.729452585981227       -0.00191125271813419     -0.0186582869924997     
480          -0.0157798227484241      -0.0137170016693107      0.654138980506865        -0.740870676409437       0.654138980506865        -0.740870676409437       -0.00208127906199015     -0.0188298701673657     
490          -0.0162827473228401      -0.0136563413980544      0.640959386771871        -0.752066185228505       0.640959386771871        -0.752066185228505       -0.00233656766747184     -0.0189756931965302     
500          -0.0167842607419598      -0.0135798892679055      0.627601383575075        -0.763053734986883       0.627601383575076        -0.763053734986883       -0.00280096330734172     -0.0191429322556271     
510          -0.0172841987159745      -0.013487457425632       0.614051923251443        -0.773835183897727       0.614051923251443        -0.773835183897727       -0.00339948299614627     -0.019253069339811      
520          -0.0177808627824936      -0.0133783721169666      0.600320140138596        -0.784348955563718       0.600320140138596        -0.784348955563718       -0.00414808468176005     -0.0193643984527221     
530          -0.0182743794081736      -0.01325284665154        0.586395683722425        -0.794617690184927       0.586395683722425        -0.794617690184927       -0.00494067487505242     -0.0194470488452371     
540          -0.0187638057329074      -0.0131111001398568      0.572296125854559        -0.804627412250569       0.572296125854559        -0.80462741225057        -0.00569587929893634     -0.0194380262468447     
550          -0.0192486839960288      -0.0129535353718549      0.558032040714631        -0.814385018853895       0.558032040714631        -0.814385018853895       -0.00626360188578232     -0.0194256971873287     
560          -0.0197286661074146      -0.0127799951412485      0.543591170617416        -0.823885833566694       0.543591170617416        -0.823885833566694       -0.00673034662164472     -0.0194410842722975     
570          -0.0202029567204359      -0.0125911230689954      0.529000094129834        -0.833128193433017       0.529000094129834        -0.833128193433017       -0.0071082162070436      -0.0194832012321847     
580          -0.0206704929990565      -0.0123868755560481      0.514265975136326        -0.842083291796826       0.514265975136326        -0.842083291796826       -0.00742198577278772     -0.0195521419713888     
590          -0.0211318442162718      -0.0121682765377466      0.499397184882029        -0.850803727553663       0.499397184882029        -0.850803727553663       -0.00785022711685043     -0.0196745796063667     
600          -0.0215870023670178      -0.0119356387318527      0.48439225009039         -0.85930570189529        0.48439225009039         -0.85930570189529        -0.00837255362545488     -0.0198228314432825     
610          -0.0220355513434538      -0.0116884961277668      0.469229677563176        -0.867573916927036       0.469229677563177        -0.867573916927036       -0.00903027265784145     -0.0199534056817649     
620          -0.0224758460872563      -0.0114255402815737      0.453879075615168        -0.875531634720759       0.453879075615169        -0.875531634720759       -0.00983674903322598     -0.0200280777739973     
630          -0.0229084241412924      -0.0111484495324772      0.438377159323894        -0.88324497162074        0.438377159323894        -0.88324497162074        -0.0106227245832434      -0.0200711676575472     
640          -0.023331080692938       -0.0108577837375273      0.422771886376735        -0.890650411878151       0.422771886376735        -0.890650411878151       -0.0113541317899423      -0.0200503816827263     
650          -0.023743962413554       -0.010553369431421       0.407036332195903        -0.89775984297168        0.407036332195903        -0.89775984297168        -0.0119194573229004      -0.0200388827621955     
660          -0.0241469223793997      -0.0102363938180832      0.391202530360839        -0.904597334870006       0.391202530360839        -0.904597334870006       -0.0123290550631916      -0.0200135352939338     
670          -0.0245400040852847      -0.00990735335931438     0.375273194523431        -0.91118062145056        0.375273194523431        -0.91118062145056        -0.0126384093860165      -0.0200291151108166     
680          -0.0249222839752801      -0.00956519575254011     0.359206625318672        -0.917464401262821       0.359206625318672        -0.917464401262821       -0.0128612309909089      -0.019996978991784      
690          -0.0252934008178719      -0.00921131946249223     0.343046338219159        -0.92346460886594        0.343046338219159        -0.923464608865941       -0.0131280518023223      -0.019973049786902      
700          -0.0256531955407712      -0.0088457360989922      0.326779106378155        -0.929182684980844       0.326779106378155        -0.929182684980844       -0.0134462260946463      -0.0198949033641262     
710          -0.0260014497781283      -0.00846863357716717     0.310399336828028        -0.934620368511791       0.310399336828028        -0.934620368511791       -0.0138951793115462      -0.0197242126186719     
720          -0.0263371455675285      -0.00808065720907777     0.293930094530772        -0.939753424943632       0.293930094530772        -0.939753424943632       -0.0144619885107784      -0.0194773664549523     
730          -0.0266601542871268      -0.00768179383521472     0.277354808896422        -0.944584485752703       0.277354808896422        -0.944584485752703       -0.0150881298485964      -0.0192020456707582     
740          -0.0269696781530032      -0.00727269697249594     0.26069206659044         -0.949096927140626       0.26069206659044         -0.949096927140627       -0.0157205609501061      -0.0189064533880808     
750          -0.0272653504696764      -0.00685410290835178     0.243957576737777        -0.953291338472167       0.243957576737777        -0.953291338472167       -0.0162958063526701      -0.0186603537472962     
760          -0.0275469237985582      -0.0064271953300383      0.227184380115385        -0.957175853309404       0.227184380115385        -0.957175853309404       -0.0167985794341218      -0.018501403991065      
770          -0.0278140001891497      -0.00599320780572038     0.210409665156982        -0.960749699070078       0.210409665156982        -0.960749699070078       -0.017269885936498       -0.0184086012149751     
780          -0.0280673978828482      -0.00555235248500231     0.193617662001946        -0.964051812617974       0.193617662001946        -0.964051812617975       -0.0176923984290438      -0.0183555940100798     
790          -0.0283080641884892      -0.00510480679937427     0.176792754920056        -0.967126731298101       0.176792754920056        -0.967126731298101       -0.0181097644343973      -0.0183179054443962     
800          -0.0285339492838351      -0.0046502199810349      0.159921507434175        -0.969890105070607       0.159921507434175        -0.969890105070607       -0.0185151223787858      -0.0181925222621749     
810          -0.0287465022908456      -0.00418893309789161     0.142991345817805        -0.972410285470138       0.142991345817805        -0.972410285470138       -0.0189611411694704      -0.0179796286684486     
820          -0.0289445359009677      -0.00372156968548549     0.126021151332296        -0.974646448197391       0.126021151332296        -0.974646448197392       -0.0194229121551758      -0.0176308984237179     
830          -0.0291278419327544      -0.00324832868041154     0.109003955995638        -0.97659569242851        0.109003955995638        -0.976595692428511       -0.0199028669845748      -0.0171249315888765     
840          -0.0292965054891996      -0.00276983972841004     0.0919492595844643       -0.978269754907532       0.0919492595844643       -0.978269754907532       -0.0203712485383231      -0.0165055189733297     
850          -0.0294489006907923      -0.00228651400873399     0.0748632166771475       -0.979605441627489       0.0748632166771475       -0.979605441627489       -0.0208614961284185      -0.0158595076187532     
860          -0.029585551796414       -0.00179886221866784     0.0577460157303762       -0.98063115667353        0.0577460157303763       -0.98063115667353        -0.0213401132897852      -0.0153260226504105     
870          -0.0297071764416457      -0.00130746046079136     0.0406029351024366       -0.98138279440341        0.0406029351024367       -0.98138279440341        -0.0218300365542941      -0.0149047227021701     
880          -0.0298123038346383      -0.000812508562876152    0.0234273730533045       -0.981801963140781       0.0234273730533045       -0.981801963140781       -0.0223037079422159      -0.0146773817331171     
890          -0.0299009062764349      -0.000315329597175568    0.00625694507825857      -0.981892133551542       0.00625694507825857      -0.981892133551543       -0.0227767740419056      -0.0145845126378139     
900          -0.0299738784700887      0.00018323106419293      -0.0108903219784867      -0.981693609967126       -0.0108903219784867      -0.981693609967126       -0.0232403013599007      -0.0145216609824188     
910          -0.0300313112612321      0.000683302162832864     -0.0280367949930547      -0.981211921125468       -0.0280367949930548      -0.981211921125468       -0.0236918733714956      -0.0144771200270776     
920          -0.0300726535691672      0.00118441722089997      -0.0451795413575084      -0.980425405375118       -0.0451795413575085      -0.980425405375119       -0.0241134525552257      -0.014305343667669      
930          -0.0300982105704548      0.00168560677276923      -0.0622941252929161      -0.979347375200376       -0.0622941252929161      -0.979347375200377       -0.0244508939353577      -0.013973715168548      
